 (000.000000)  can0  0CF00203   [8]  C1 E0 11 FF F7 74 20 03
 (000.000276)  can0  18FEE000   [8]  0F 00 00 00 24 96 35 00
 (000.000833)  can0  0CF00300   [8]  D0 6A 27 FF FF 0F 7A 82
 (000.004995)  can0  18FEF200   [8]  E8 00 80 03 A9 05 E1 FF
 (000.005509)  can0  18F00F00   [8]  A8 0F FF FF D5 9F FF FF
 (000.008267)  can0  0CF00400   [8]  21 9D 9D 80 2F 00 0F 9D
 (000.008819)  can0  0CF00203   [8]  C1 E0 11 FF F7 74 20 03
 (000.010634)  can0  0CF00C03   [8]  CF 04 79 2F FF FF FF FF
 (000.014964)  can0  18FEDF00   [8]  8A A0 28 7D 7D FF FF F5
 (000.015548)  can0  10FCFD00   [8]  FF FF FF FF 4C 79 FF FF
 (000.018763)  can0  0CF00203   [8]  C1 F8 11 FF F7 94 20 03
 (000.020306)  can0  18FD3E00   [8]  C9 42 FF B0 3C FF FF FF
 (000.020878)  can0  0CF00300   [8]  D0 6A 27 FF FF 0F 7A 82
 (000.023379)  can0  0CF00331   [8]  FF FF FF FF FF FF FF FF
 (000.024961)  can0  18F00100   [8]  FF FF FF FF FF FF FF FF
 (000.026969)  can0  0CF00400   [8]  11 9D 9D 36 2F 00 0F 9D
 (000.028814)  can0  0CF00203   [8]  C1 F8 11 FF F7 94 20 03
 (000.029401)  can0  0C010305   [8]  FF FF FF FF FF F3 FF FF
 (000.029959)  can0  0CF00C03   [8]  CC 04 1F 2F FF FF FF FF
 (000.034970)  can0  18FEDF00   [8]  8A A0 28 7D 7D FF FF F5
 (000.039410)  can0  0CF00203   [8]  C1 16 12 FF F7 B9 20 03
 (000.040790)  can0  18FD4000   [8]  FF 3F 00 FF FF FF FF FF
 (000.040863)  can0  0CF00300   [8]  D0 6A 27 FF FF 0F 7B 82
 (000.042311)  can0  0CF00A00   [8]  F1 04 4A 17 FF FF FF FF
 (000.042322)  can0  18FEF000   [8]  FF FF FF C0 2B FF FF FF
 (000.042648)  can0  18F00E00   [8]  A2 39 FF FF D5 9F FF FF
 (000.044968)  can0  18F03300   [8]  FF FF FF FF FF FF FF FF
 (000.047293)  can0  0CF00400   [8]  01 9D 9D 3C 2F 00 0F 9D
 (000.048837)  can0  0CF00203   [8]  C1 16 12 FF F7 B9 20 03
 (000.049382)  can0  0CF00C03   [8]  C8 04 4C 2F FF FF FF FF
 (000.049953)  can0  18FCF200   [8]  E1 FF FF FF FF FF FF FF
 (000.050500)  can0  18F00503   [8]  7F 12 07 7F 35 20 32 43
 (000.051118)  can0  18FE4A03   [8]  03 0F 4F FF FF F3 FF FF
 (000.054998)  can0  18FEDF00   [8]  8A A0 28 7D 7D FF FF F5
 (000.055569)  can0  18F00F00   [8]  A8 0F FF FF D5 9F FF FF
 (000.058759)  can0  0CF00203   [8]  C1 1F 12 FF F7 C3 20 03
 (000.060304)  can0  0CF00300   [8]  D0 6A 27 FF FF 0F 7B 82
 (000.060912)  can0  18FEF100   [8]  FF 94 14 FC FF 68 00 CF
 (000.064988)  can0  18FCC500   [8]  C9 42 FF FF FF FF FF FF
 (000.065528)  can0  0CFD9200   [8]  F4 FF FF FF FF FF FF FF
 (000.067026)  can0  0CF00400   [8]  01 9D 9D 1C 2F 00 0F 9D
 (000.068825)  can0  0CF00203   [8]  C1 1F 12 FF F7 C3 20 03
 (000.069457)  can0  0CF00C03   [8]  C5 04 32 2F FF FF FF FF
 (000.069953)  can0  10FDA300   [8]  FF FF 31 FF FF FF FF FF
 (000.070748)  can0  18F00029   [8]  F0 7D 7D F3 29 FF FF 36
 (000.073991)  can0  18F00131   [8]  FF FF FF 3F 00 FF FF FF
 (000.074002)  can0  18FEF131   [8]  F3 FF FF C3 CC FF FF F0
 (000.074507)  can0  18FEF031   [8]  FF FF FF FF FF FC CC FF
 (000.075137)  can0  18FEDF00   [8]  8A A0 28 7D 7D FF FF F5
 (000.075704)  can0  18FF4831   [8]  00 00 FF FF 00 00 00 00
 (000.076401)  can0  18FEF231   [8]  FF FF FF FF FF FF FF FF
 (000.076852)  can0  0CF00331   [8]  FF FF FF FF FF FF FF FF
 (000.079207)  can0  0CF00203   [8]  C1 1C 12 FF F7 CF 20 03
 (000.079405)  can0  0C010305   [8]  FF FF FF FF FF F3 FF FF
 (000.080038)  can0  18FECA03   [8]  00 FF 00 00 00 00 FF FF
 (000.080480)  can0  18FCDC00   [8]  9F FF FF FF 50 68 94 14
 (000.081106)  can0  0CF00300   [8]  D0 69 27 FF FF 0F 7B 82
 (000.081646)  can0  1CFE9200   [8]  FF 5C BA FF FF FF 44 00
 (000.082177)  can0  18F0010B   [8]  CF FF F0 FF FF CD FF FF
 (000.087000)  can0  0CF00400   [8]  01 9D 9D 30 2F 00 0F 9D
 (000.088764)  can0  0CF00203   [8]  C1 1C 12 FF F7 CF 20 03
 (000.089418)  can0  0CF00C03   [8]  C5 04 31 2F FF FF FF FF
 (000.089966)  can0  0CF00A00   [8]  F1 04 37 17 FF FF FF FF
 (000.090614)  can0  18FD9400   [8]  96 0F FF FF FF FF FF FF
 (000.091162)  can0  18FEEF00   [8]  FF FF FF 46 9A 7D FF FA
 (000.091741)  can0  18F00E00   [8]  C8 39 FF FF D5 9F FF FF
 (000.092319)  can0  18FEBF0B   [8]  C0 14 7D 7D 7F 7F FF FF
 (000.095022)  can0  18F03300   [8]  FF FF FF FF FF FF FF FF
 (000.095631)  can0  18FEDF00   [8]  8A A0 28 7D 7D FF FF F5
 (000.098800)  can0  0CF00203   [8]  C1 23 12 FF F7 E2 20 03
 (000.100815)  can0  18FEE000   [8]  0F 00 00 00 24 96 35 00
 (000.100824)  can0  0CF00300   [8]  D0 69 27 FF FF 0F 7B 82
 (000.104909)  can0  18FEF200   [8]  C4 00 30 04 A8 05 E1 FF
 (000.105678)  can0  18F00F00   [8]  A8 0F FF FF D5 9F FF FF
 (000.107258)  can0  0CF00400   [8]  01 9D 9D ED 2E 00 0F 9D
 (000.108819)  can0  0CF00203   [8]  C1 23 12 FF F7 E2 20 03
 (000.109531)  can0  0CF00C03   [8]  C2 04 D2 2E FF FF FF FF
 (000.109951)  can0  18FEDB00   [8]  FF FF 5D 73 FF FF FF FF
 (000.114904)  can0  18FEDF00   [8]  8A A0 28 7D 7D FF FF F5
 (000.115499)  can0  10FCFD00   [8]  FF FF FF FF 10 77 FF FF
 (000.118789)  can0  0CF00203   [8]  C1 2B 12 FF F7 F1 20 03
 (000.120322)  can0  0CF00300   [8]  D0 69 27 FF FF 0F 7B 82
 (000.123533)  can0  0CF00331   [8]  FF FF FF FF FF FF FF FF
 (000.125024)  can0  18F00100   [8]  FF FF FF FF FF FF FF FF
 (000.126989)  can0  0CF00400   [8]  01 9D 9D EB 2E 00 0F 9D
 (000.128778)  can0  0CF00203   [8]  C1 2B 12 FF F7 F1 20 03
 (000.129400)  can0  0C010305   [8]  FF FF FF FF FF F3 FF FF
 (000.129972)  can0  0CF00C03   [8]  C0 04 04 2F FF FF FF FF
 (000.130525)  can0  18FEF600   [8]  FF 14 62 FF FF FF FF FF
 (000.135687)  can0  18FEDF00   [8]  8A A0 28 7D 7D FF FF F5
 (000.139448)  can0  0CF00203   [8]  C1 38 12 FF F7 FB 20 03
 (000.140842)  can0  0CF00300   [8]  D0 69 27 FF FF 0F 7C 82
 (000.140851)  can0  0CF00A00   [8]  F1 04 FF 16 FF FF FF FF
 (000.141623)  can0  18FEF000   [8]  FF FF FF C0 2B FF FF FF
 (000.142049)  can0  18F00E00   [8]  5E 3A FF FF D5 9F FF FF
 (000.144969)  can0  18F03300   [8]  FF FF FF FF FF FF FF FF
 (000.146956)  can0  0CF00400   [8]  01 9D 9D CC 2E 00 0F 9D
 (000.148779)  can0  0CF00203   [8]  C1 38 12 FF F7 FB 20 03
 (000.149379)  can0  0CF00C03   [8]  BC 04 E4 2E FF FF FF FF
 (000.149945)  can0  18FCF200   [8]  E1 FF FF FF FF FF FF FF
 (000.150501)  can0  18F00503   [8]  7F 12 07 7F 35 20 32 43
 (000.151181)  can0  18FE4A03   [8]  03 0F 4F FF FF F3 FF FF
 (000.155165)  can0  18FEDF00   [8]  8A A0 28 7D 7D FF FF F5
 (000.155582)  can0  18FDC600   [8]  FC 04 FF FF FF FF FF FF
 (000.156241)  can0  18F00F00   [8]  9E 0F FF FF D5 9F FF FF
 (000.158796)  can0  0CF00203   [8]  C1 45 12 FF F7 0F 21 03
 (000.160327)  can0  0CF00300   [8]  D0 69 27 FF FF 0F 7C 82
 (000.160932)  can0  18FEF100   [8]  FF D4 14 FC FF 68 00 CF
 (000.167722)  can0  0CF00400   [8]  71 9D 9C EB 2E 00 0F 9D
 (000.168811)  can0  0CF00203   [8]  C1 45 12 FF F7 0F 21 03
 (000.169530)  can0  0CF00C03   [8]  BD 04 E9 2E FF FF FF FF
 (000.169933)  can0  10FDA300   [8]  FF FF 32 FF FF FF FF FF
 (000.170747)  can0  18F00029   [8]  F0 7D 7D F3 29 FF FF 37
 (000.174106)  can0  18F00131   [8]  FF FF FF 3F 00 FF FF FF
 (000.174117)  can0  18FEF131   [8]  F3 FF FF C3 CC FF FF F0
 (000.174505)  can0  18FEF031   [8]  FF FF FF FF FF FC CC FF
 (000.175210)  can0  18FEDF00   [8]  8A A0 28 7D 7D FF FF F5
 (000.175662)  can0  18FF4831   [8]  00 00 FF FF 00 00 00 00
 (000.176823)  can0  18FEF231   [8]  FF FF FF FF FF FF FF FF
 (000.176831)  can0  0CF00331   [8]  FF FF FF FF FF FF FF FF
 (000.179030)  can0  0CF00203   [8]  C1 53 12 FF F7 27 21 03
 (000.179321)  can0  0C010305   [8]  FF FF FF FF FF F3 FF FF
 (000.180378)  can0  18FCDC00   [8]  9F FF FF FF 50 68 D4 14
 (000.180946)  can0  0CF00300   [8]  D0 68 27 FF FF 0F 7B 82
 (000.181523)  can0  1CFE9200   [8]  FF EC BB FF FF FF 42 00
 (000.182178)  can0  18F0010B   [8]  CF FF F0 FF FF CD FF FF
 (000.187000)  can0  0CF00400   [8]  01 9D 9D B0 2E 00 0F 9D
 (000.188829)  can0  0CF00203   [8]  C1 53 12 FF F7 27 21 03
 (000.189404)  can0  0CF00C03   [8]  B9 04 95 2E FF FF FF FF
 (000.189978)  can0  0CF00A00   [8]  0D 05 FF 16 FF FF FF FF
 (000.190734)  can0  18FD9400   [8]  96 0F FF FF FF FF FF FF
 (000.191133)  can0  18F00E00   [8]  98 3A FF FF D5 9F FF FF
 (000.192224)  can0  18FEBF0B   [8]  10 15 7E 7C 7E 7E FF FF
 (000.195038)  can0  18F03300   [8]  FF FF FF FF FF FF FF FF
 (000.195643)  can0  18FEDF00   [8]  8A A0 28 7D 7D FF FF F5
 (000.199614)  can0  0CF00203   [8]  C1 4F 12 FF F7 31 21 03
 (000.200380)  can0  18FEF700   [8]  FF FF FF FF 17 01 FF FF
 (000.200897)  can0  18FEE000   [8]  0F 00 00 00 24 96 35 00
 (000.201474)  can0  0CF00300   [8]  D0 68 27 FF FF 0F 7C 82
 (000.204923)  can0  18FEF200   [8]  D8 00 D7 03 A9 05 E1 FF
 (000.205531)  can0  18F00F00   [8]  92 0F FF FF D5 9F FF FF
 (000.207158)  can0  0CF00400   [8]  71 9D 9C B4 2E 00 0F 9D
 (000.208909)  can0  0CF00203   [8]  C1 4F 12 FF F7 31 21 03
 (000.209357)  can0  0CF00C03   [8]  B7 04 CF 2E FF FF FF FF
 (000.214942)  can0  18FEDF00   [8]  8A A0 28 7D 7D FF FF F5
 (000.215521)  can0  10FCFD00   [8]  FF FF FF FF E0 75 FF FF
 (000.218775)  can0  0CF00203   [8]  C1 4A 12 FF F7 2F 21 03
 (000.220668)  can0  18FEC100   [8]  9B A9 3B 05 85 01 00 00
 (000.220905)  can0  0CF00300   [8]  D0 68 27 FF FF 0F 7C 82
 (000.223524)  can0  0CF00331   [8]  FF FF FF FF FF FF FF FF
 (000.224994)  can0  18F00100   [8]  FF FF FF FF FF FF FF FF
 (000.227004)  can0  0CF00400   [8]  61 9D 9C A2 2E 00 0F 9D
 (000.228848)  can0  0CF00203   [8]  C1 4A 12 FF F7 2F 21 03
 (000.229380)  can0  0C010305   [8]  FF FF FF FF FF F3 FF FF
 (000.229968)  can0  0CF00C03   [8]  B5 04 B8 2E FF FF FF FF
 (000.235008)  can0  18FEDF00   [8]  8A A0 28 7D 7D FF FF F5
 (000.239427)  can0  0CF00203   [8]  C1 6A 12 FF F7 56 21 03
 (000.240835)  can0  0CF00300   [8]  D0 68 27 FF FF 0F 7B 82
 (000.240891)  can0  0CF00A00   [8]  0D 05 FF 16 FF FF FF FF
 (000.242353)  can0  18FEF000   [8]  FF FF FF C0 2B FF FF FF
 (000.242363)  can0  18F00E00   [8]  F2 3A FF FF D5 9F FF FF
 (000.244948)  can0  18FE5600   [8]  96 43 FF FF 1F 1F 00 FF
 (000.245526)  can0  18F03300   [8]  FF FF FF FF FF FF FF FF
 (000.246972)  can0  0CF00400   [8]  61 9D 9C C5 2E 00 0F 9D
 (000.248752)  can0  0CF00203   [8]  C1 6A 12 FF F7 56 21 03
 (000.249349)  can0  0CF00C03   [8]  B4 04 BF 2E FF FF FF FF
 (000.249950)  can0  18FCF200   [8]  E1 FF FF FF FF FF FF FF
 (000.250503)  can0  18F00503   [8]  7F 12 07 7F 35 20 32 43
 (000.251097)  can0  18FE4A03   [8]  03 0F 4F FF FF F3 FF FF
 (000.255052)  can0  18FEDF00   [8]  8A A0 28 7D 7D FF FF F5
 (000.255632)  can0  18F00F00   [8]  8A 0F FF FF D5 9F FF FF
 (000.258776)  can0  0CF00203   [8]  C1 8A 12 FF F7 84 21 03
 (000.260352)  can0  0CF00300   [8]  D0 68 26 FF FF 0F 7B 82
 (000.260957)  can0  18FEF100   [8]  FF FC 14 FC FF 68 00 CF
 (000.264972)  can0  18FD7B00   [8]  00 FF 9F BC 00 00 53 57
 (000.267315)  can0  0CF00400   [8]  61 9D 9C 8E 2E 00 0F 9D
 (000.268911)  can0  0CF00203   [8]  C1 8A 12 FF F7 84 21 03
 (000.269351)  can0  0CF00C03   [8]  B0 04 76 2E FF FF FF FF
 (000.270761)  can0  10FDA300   [8]  FF FF 32 FF FF FF FF FF
 (000.270773)  can0  18F00029   [8]  F0 7D 7D F3 29 FF FF 37
 (000.274042)  can0  18F00131   [8]  FF FF FF 3F 00 FF FF FF
 (000.274052)  can0  18FEF131   [8]  F3 FF FF C3 CC FF FF F0
 (000.274501)  can0  18FEF031   [8]  FF FF FF FF FF FC CC FF
 (000.275974)  can0  18FEDF00   [8]  8A A0 28 7D 7D FF FF F5
 (000.275984)  can0  18FF4831   [8]  00 00 FF FF 00 00 00 00
 (000.276325)  can0  18FEF231   [8]  FF FF FF FF FF FF FF FF
 (000.276892)  can0  0CF00331   [8]  FF FF FF FF FF FF FF FF
 (000.279318)  can0  0CF00203   [8]  C1 8F 12 FF F7 93 21 03
 (000.279329)  can0  0C010305   [8]  FF FF FF FF FF F3 FF FF
 (000.280434)  can0  18FCDC00   [8]  9F FF FF FF 50 68 FC 14
 (000.280996)  can0  0CF00300   [8]  D0 67 27 FF FF 0F 7C 82
 (000.281573)  can0  1CFE9200   [8]  FF 40 BB FF FF FF 42 00
 (000.282403)  can0  18F0010B   [8]  CF FF F0 FF FF CD FF FF
 (000.287005)  can0  0CF00400   [8]  41 9C 9C A2 2E 00 0F 9C
 (000.288895)  can0  0CF00203   [8]  C1 8F 12 FF F7 93 21 03
 (000.289357)  can0  0CF00C03   [8]  AE 04 B2 2E FF FF FF FF
 (000.290005)  can0  0CF00A00   [8]  F1 04 EC 16 FF FF FF FF
 (000.290534)  can0  18FD9400   [8]  96 0F FF FF FF FF FF FF
 (000.291159)  can0  18FEDD00   [8]  FF CA 3C FF FF FF FF FF
 (000.291720)  can0  18F00E00   [8]  9A 3B FF FF D5 9F FF FF
 (000.292473)  can0  18FEBF0B   [8]  40 15 7D 7D 7D 7F FF FF
 (000.295100)  can0  18F03300   [8]  FF FF FF FF FF FF FF FF
 (000.295687)  can0  18FEDF00   [8]  8A A0 28 7D 7D FF FF F5
 (000.299008)  can0  0CF00203   [8]  C1 83 12 FF F7 8E 21 03
 (000.300690)  can0  18FEE000   [8]  0F 00 00 00 25 96 35 00
 (000.300914)  can0  0CF00300   [8]  D0 67 26 FF FF 0F 7C 82
 (000.304950)  can0  18FEF200   [8]  BB 00 79 04 A8 05 E1 FF
 (000.305565)  can0  18F00F00   [8]  8A 0F FF FF D5 9F FF FF
 (000.307167)  can0  0CF00400   [8]  21 9C 9C 96 2E 00 0F 9C
 (000.308827)  can0  0CF00203   [8]  C1 83 12 FF F7 8E 21 03
 (000.309434)  can0  0CF00C03   [8]  AD 04 9F 2E FF FF FF FF
 (000.309980)  can0  18FEE400   [8]  FF 3F FC FC 00 7F FF FF
 (000.314961)  can0  18FEDF00   [8]  8A A0 28 7D 7D FF FF F5
 (000.315552)  can0  10FCFD00   [8]  FF FF FF FF 76 74 FF FF
 (000.316118)  can0  0CFD9200   [8]  F4 FF FF FF FF FF FF FF
 (000.318766)  can0  0CF00203   [8]  C1 89 12 FF F7 A6 21 03
 (000.320409)  can0  0CF00300   [8]  D0 66 26 FF FF 0F 7C 82
 (000.323557)  can0  0CF00331   [8]  FF FF FF FF FF FF FF FF
 (000.325046)  can0  18F00100   [8]  FF FF FF FF FF FF FF FF
 (000.327035)  can0  0CF00400   [8]  11 9C 9C B8 2E 00 0F 9C
 (000.328808)  can0  0CF00203   [8]  C1 89 12 FF F7 A6 21 03
 (000.329376)  can0  0C010305   [8]  FF FF FF FF FF F3 FF FF
 (000.329956)  can0  0CF00C03   [8]  AD 04 B3 2E FF FF FF FF
 (000.335037)  can0  18FEDF00   [8]  8A A0 28 7D 7D FF FF F5
 (000.339483)  can0  0CF00203   [8]  C1 A8 12 FF F7 C7 21 03
 (000.340792)  can0  0CF00300   [8]  D0 66 25 FF FF 0F 7C 82
 (000.340865)  can0  0CF00A00   [8]  F1 04 FF 16 FF FF FF FF
 (000.342360)  can0  18FEF000   [8]  FF FF FF C0 2B FF FF FF
 (000.342371)  can0  18FEBD00   [8]  00 F0 FF FF FF FF FF FF
 (000.342670)  can0  18F00E00   [8]  CC 3B FF FF D5 9F FF FF
 (000.344978)  can0  18F03300   [8]  FF FF FF FF FF FF FF FF
 (000.346959)  can0  0CF00400   [8]  01 9C 9C 82 2E 00 0F 9C
 (000.348753)  can0  0CF00203   [8]  C1 A8 12 FF F7 C7 21 03
 (000.349377)  can0  0CF00C03   [8]  AA 04 5A 2E FF FF FF FF
 (000.349995)  can0  18FCF200   [8]  E1 FF FF FF FF FF FF FF
 (000.350544)  can0  18F00503   [8]  7F 12 07 7F 35 20 32 43
 (000.351169)  can0  18FE4A03   [8]  03 0F 4F FF FF F3 FF FF
 (000.355175)  can0  18FEDF00   [8]  8A A0 28 7D 7D FF FF F5
 (000.355581)  can0  18E0FF00   [8]  00 FF FF FF FF FF FF FF
 (000.356262)  can0  18F00F00   [8]  8A 0F FF FF D5 9F FF FF
 (000.358778)  can0  0CF00203   [8]  C1 B5 12 FF F7 CD 21 03
 (000.360437)  can0  18FD0700   [8]  43 0C FC FF FF FF FF FF
 (000.360999)  can0  0CF00300   [8]  D0 66 25 FF FF 0F 7D 82
 (000.361577)  can0  18FEF100   [8]  FF 48 15 FC FF 68 00 CF
 (000.365100)  can0  18FEEE00   [8]  87 FF FF FF FF FF FF FF
 (000.367545)  can0  0CF00400   [8]  71 9C 9B 8E 2E 00 0F 9C
 (000.368837)  can0  0CF00203   [8]  C1 B5 12 FF F7 CD 21 03
 (000.369409)  can0  0CF00C03   [8]  A9 04 A0 2E FF FF FF FF
 (000.370008)  can0  10FDA300   [8]  FF FF 31 FF FF FF FF FF
 (000.370562)  can0  18F00029   [8]  F0 7D 7D F3 29 FF FF 37
 (000.374061)  can0  18F00131   [8]  FF FF FF 3F 00 FF FF FF
 (000.374071)  can0  18FEF131   [8]  F3 FF FF C3 CC FF FF F0
 (000.374506)  can0  18FEF031   [8]  FF FF FF FF FF FC CC FF
 (000.375249)  can0  18FEDF00   [8]  8A A0 28 7D 7D FF FF F5
 (000.375666)  can0  18FF4831   [8]  00 00 FF FF 00 00 00 00
 (000.376401)  can0  18FEF231   [8]  FF FF FF FF FF FF FF FF
 (000.376867)  can0  0CF00331   [8]  FF FF FF FF FF FF FF FF
 (000.378747)  can0  0CF00203   [8]  C1 AA 12 FF F7 C2 21 03
 (000.379329)  can0  0C010305   [8]  FF FF FF FF FF F3 FF FF
 (000.380424)  can0  18FCDC00   [8]  9F FF FF FF 50 68 48 15
 (000.381001)  can0  0CF00300   [8]  D0 65 25 FF FF 0F 7D 82
 (000.381576)  can0  1CFE9200   [8]  FF C8 BB FF FF FF 3E 00
 (000.382145)  can0  18FEF500   [8]  A8 FF FF 66 26 FF FF FF
 (000.382744)  can0  18F0010B   [8]  CF FF F0 FF FF CD FF FF
 (000.387431)  can0  0CF00400   [8]  61 9C 9B 74 2E 00 0F 9C
 (000.388830)  can0  0CF00203   [8]  C1 AA 12 FF F7 C2 21 03
 (000.389409)  can0  0CF00C03   [8]  A8 04 7E 2E FF FF FF FF
 (000.390010)  can0  14FC9800   [8]  FF 00 00 00 00 00 00 FF
 (000.390506)  can0  0CF00A00   [8]  F1 04 F6 16 FF FF FF FF
 (000.391156)  can0  18FD9400   [8]  96 0F FF FF FF FF FF FF
 (000.391720)  can0  18F00E00   [8]  F4 3B FF FF D5 9F FF FF
 (000.392704)  can0  18FEBF0B   [8]  60 15 7D 7D 7F 7F FF FF
 (000.395075)  can0  18F03300   [8]  FF FF FF FF FF FF FF FF
 (000.395628)  can0  18FEDF00   [8]  8A A0 28 7D 7D FF FF F5
 (000.399134)  can0  0CF00203   [8]  C1 A5 12 FF F7 D2 21 03
 (000.400787)  can0  18FEE000   [8]  0F 00 00 00 25 96 35 00
 (000.400865)  can0  0CF00300   [8]  D0 65 25 FF FF 0F 7D 82
 (000.401480)  can0  18FEA400   [8]  FF FF 96 2A FF FF BA 2D
 (000.404981)  can0  18FDB400   [8]  A9 45 C9 44 FF FF FF FF
 (000.405554)  can0  18FEF200   [8]  D4 00 FE 03 A8 05 E1 FF
 (000.406126)  can0  18F00F00   [8]  6A 0F FF FF D5 9F FF FF
 (000.407533)  can0  0CF00400   [8]  61 9C 9B 89 2E 00 0F 9C
 (000.408816)  can0  0CF00203   [8]  C1 A5 12 FF F7 D2 21 03
 (000.409421)  can0  0CF00C03   [8]  A8 04 8F 2E FF FF FF FF
 (000.415029)  can0  18FEDF00   [8]  8A A0 28 7D 7D FF FF F5
 (000.415589)  can0  10FCFD00   [8]  FF FF FF FF 06 73 FF FF
 (000.418800)  can0  0CF00203   [8]  C1 B8 12 FF F7 F4 21 03
 (000.420641)  can0  0CF00300   [8]  D0 65 25 FF FF 0F 7D 82
 (000.423523)  can0  0CF00331   [8]  FF FF FF FF FF FF FF FF
 (000.425028)  can0  18FD7C00   [8]  F8 83 00 00 C3 0F 03 FF
 (000.425585)  can0  18F00100   [8]  FF FF FF FF FF FF FF FF
 (000.427013)  can0  0CF00400   [8]  61 9C 9B 48 2E 00 0F 9C
 (000.428846)  can0  0CF00203   [8]  C1 B8 12 FF F7 F4 21 03
 (000.429385)  can0  0C010305   [8]  FF FF FF FF FF F3 FF FF
 (000.429972)  can0  0CF00C03   [8]  A5 04 32 2E FF FF FF FF
 (000.430518)  can0  18FDB300   [8]  FF FF 40 48 FF FF FF FF
 (000.435006)  can0  18FEDF00   [8]  8A A0 28 7D 7D FF FF F5
 (000.439315)  can0  0CF00203   [8]  C1 CF 12 FF F7 10 22 03
 (000.440831)  can0  0CF00300   [8]  D0 65 25 FF FF 0F 7E 82
 (000.440899)  can0  0CF00A00   [8]  E8 04 DA 16 FF FF FF FF
 (000.442432)  can0  18FEF000   [8]  FF FF FF C0 2B FF FF FF
 (000.442443)  can0  18F00E00   [8]  32 3C FF FF D5 9F FF FF
 (000.445027)  can0  18F03300   [8]  FF FF FF FF FF FF FF FF
 (000.445602)  can0  18FE9A00   [8]  24 27 FF FF FF FF FF FF
 (000.447096)  can0  0CF00400   [8]  51 9C 9B 4E 2E 00 0F 9C
 (000.448743)  can0  0CF00203   [8]  C1 CF 12 FF F7 10 22 03
 (000.449341)  can0  0CF00C03   [8]  9E 04 61 2E FF FF FF FF
 (000.449935)  can0  18FDB200   [8]  FF FF FF FF 0F 00 FF FF
 (000.450521)  can0  18F00503   [8]  7F 12 07 7F 35 20 32 43
 (000.451120)  can0  18FCF200   [8]  E1 FF FF FF FF FF FF FF
 (000.451697)  can0  18FE4A03   [8]  03 0F 4F FF FF F3 FF FF
 (000.455185)  can0  18FEDF00   [8]  8A A0 28 7D 7D FF FF F5
 (000.455628)  can0  18F00F00   [8]  6A 0F FF FF D5 9F FF FF
 (000.458785)  can0  0CF00203   [8]  C1 D8 12 FF F7 11 22 03
 (000.460353)  can0  0CF00300   [8]  D0 65 25 FF FF 0F 7E 82
 (000.460973)  can0  18FEF100   [8]  FF 70 15 FC FF 68 00 CF
 (000.467029)  can0  0CF00400   [8]  41 9B 9B 4D 2E 00 0F 9B
 (000.468824)  can0  0CF00203   [8]  C1 D8 12 FF F7 11 22 03
 (000.469373)  can0  0CF00C03   [8]  A0 04 31 2E FF FF FF FF
 (000.470122)  can0  10FDA300   [8]  FF FF 31 FF FF FF FF FF
 (000.470532)  can0  18FE9900   [8]  FF FF FF FF FF FF FF FF
 (000.471143)  can0  18F00029   [8]  F0 7D 7D F3 29 FF FF 37
 (000.474018)  can0  18F00131   [8]  FF FF FF 3F 00 FF FF FF
 (000.474029)  can0  18FEF131   [8]  F3 FF FF C3 CC FF FF F0
 (000.474541)  can0  18FEF031   [8]  FF FF FF FF FF FC CC FF
 (000.475160)  can0  18FD8C00   [8]  FF FF 11 00 FF FF FF FF
 (000.475724)  can0  18FF4831   [8]  00 00 FF FF 00 00 00 00
 (000.476374)  can0  18FEDF00   [8]  8A A0 28 7D 7D FF FF F5
 (000.476846)  can0  18FEF231   [8]  FF FF FF FF FF FF FF FF
 (000.477465)  can0  0CF00331   [8]  FF FF FF FF FF FF FF FF
 (000.478765)  can0  0CF00203   [8]  C1 D9 12 FF F7 1C 22 03
 (000.479363)  can0  0C010305   [8]  FF FF FF FF FF F3 FF FF
 (000.480417)  can0  18FCDC00   [8]  9F FF FF FF 50 68 70 15
 (000.480962)  can0  0CF00300   [8]  D0 64 25 FF FF 0F 7E 82
 (000.481539)  can0  1CFE9200   [8]  FF A4 BB FF FF FF 3E 00
 (000.482939)  can0  18F0010B   [8]  CF FF F0 FF FF CD FF FF
 (000.487454)  can0  0CF00400   [8]  41 9C 9B 5C 2E 00 0F 9C
 (000.488823)  can0  0CF00203   [8]  C1 D9 12 FF F7 1C 22 03
 (000.489405)  can0  0CF00C03   [8]  9F 04 5D 2E FF FF FF FF
 (000.489969)  can0  0CF00A00   [8]  DE 04 D0 16 FF FF FF FF
 (000.490574)  can0  18FD9400   [8]  96 0F FF FF FF FF FF FF
 (000.491166)  can0  18FEFC00   [8]  FF FF FF FF FF FF FF FF
 (000.491715)  can0  18F00E00   [8]  40 3C FF FF D5 9F FF FF
 (000.492906)  can0  18FEBF0B   [8]  A0 15 7F 7B 7D 7D FF FF
 (000.495071)  can0  18FD2000   [8]  A9 45 FF FF FF FF FF FF
 (000.496416)  can0  18F03300   [8]  FF FF FF FF FF FF FF FF
 (000.496424)  can0  18FEDF00   [8]  8A A0 28 7D 7D FF FF F5
 (000.499439)  can0  0CF00203   [8]  C1 D4 12 FF F7 23 22 03
 (000.500801)  can0  18FEE000   [8]  0F 00 00 00 25 96 35 00
 (000.500967)  can0  0CF00300   [8]  D0 64 25 FF FF 0F 7D 82
 (000.505137)  can0  18FEF200   [8]  B4 00 C1 04 A9 05 E1 FF
 (000.505575)  can0  18F00F00   [8]  60 0F FF FF D5 9F FF FF
 (000.507753)  can0  0CF00400   [8]  41 9B 9B 10 2E 00 0F 9B
 (000.508818)  can0  0CF00203   [8]  C1 D4 12 FF F7 23 22 03
 (000.509390)  can0  0CF00C03   [8]  A0 04 F5 2D FF FF FF FF
 (000.515023)  can0  18FEDF00   [8]  8A A0 28 7D 7D FF FF F5
 (000.515602)  can0  10FCFD00   [8]  FF FF FF FF CC 70 FF FF
 (000.518969)  can0  0CF00203   [8]  C1 D2 12 FF F7 1F 22 03
 (000.520425)  can0  18FD3E00   [8]  D0 42 FF C3 3C FF FF FF
 (000.520964)  can0  0CF00300   [8]  D0 64 25 FF FF 0F 7E 82
 (000.523537)  can0  0CF00331   [8]  FF FF FF FF FF FF FF FF
 (000.525049)  can0  18F00100   [8]  FF FF FF FF FF FF FF FF
 (000.527064)  can0  0CF00400   [8]  31 9B 9B 33 2E 00 0F 9B
 (000.528788)  can0  0CF00203   [8]  C1 D2 12 FF F7 1F 22 03
 (000.529372)  can0  0C010305   [8]  FF FF FF FF FF F3 FF FF
 (000.530079)  can0  0CF00C03   [8]  9D 04 3F 2E FF FF FF FF
 (000.535055)  can0  18FEDF00   [8]  8A A0 28 7D 7D FF FF F5
 (000.539395)  can0  0CF00203   [8]  C1 DF 12 FF F7 2A 22 03
 (000.540786)  can0  18FD4000   [8]  FF 3F 00 FF FF FF FF FF
 (000.541032)  can0  0CF00300   [8]  D0 64 25 FF FF 0F 7E 82
 (000.541621)  can0  0CF00A00   [8]  DE 04 B4 16 FF FF FF FF
 (000.542196)  can0  18FEF000   [8]  FF FF FF C0 2B FF FF FF
 (000.542776)  can0  18F00E00   [8]  3E 3C FF FF D5 9F FF FF
 (000.543347)  can0  1CECFF00   [8]  20 0E 00 02 FF CA FE 00
 (000.545022)  can0  18F03300   [8]  FF FF FF FF FF FF FF FF
 (000.547012)  can0  0CF00400   [8]  21 9B 9B 39 2E 00 0F 9B
 (000.548794)  can0  0CF00203   [8]  C1 DF 12 FF F7 2A 22 03
 (000.549406)  can0  0CF00C03   [8]  9E 04 2F 2E FF FF FF FF
 (000.549999)  can0  18F00503   [8]  7F 12 07 7F 35 20 32 43
 (000.550593)  can0  18FCF200   [8]  E1 FF FF FF FF FF FF FF
 (000.551150)  can0  18FE4A03   [8]  03 0F 4F FF FF F3 FF FF
 (000.555068)  can0  18FEDF00   [8]  8A A0 28 7D 7D FF FF F5
 (000.555641)  can0  18F00F00   [8]  60 0F FF FF D5 9F FF FF
 (000.558776)  can0  0CF00203   [8]  C1 FB 12 FF F7 69 22 03
 (000.560387)  can0  0CF00300   [8]  D0 64 25 FF FF 0F 7E 82
 (000.560969)  can0  18FEF100   [8]  FF A4 15 FC FF 68 00 CF
 (000.561545)  can0  1CECFF29   [8]  20 13 00 03 FF E1 FE 00
 (000.565095)  can0  18FCC500   [8]  D0 42 FF FF FF FF FF FF
 (000.565647)  can0  0CFD9200   [8]  F4 FF FF FF FF FF FF FF
 (000.567095)  can0  0CF00400   [8]  31 9B 9B 3D 2E 00 0F 9B
 (000.568933)  can0  0CF00203   [8]  C1 FB 12 FF F7 69 22 03
 (000.569390)  can0  0CF00C03   [8]  97 04 32 2E FF FF FF FF
 (000.570728)  can0  10FDA300   [8]  FF FF 31 FF FF FF FF FF
 (000.570739)  can0  18F00029   [8]  F0 7D 7D F3 29 FF FF 37
 (000.573667)  can0  18F00131   [8]  FF FF FF 3F 00 FF FF FF
 (000.573940)  can0  18FEF131   [8]  F3 FF FF C3 CC FF FF F0
 (000.574541)  can0  18FEF031   [8]  FF FF FF FF FF FC CC FF
 (000.575111)  can0  18FEDF00   [8]  8A A0 28 7D 7D FF FF F5
 (000.575713)  can0  18FF4831   [8]  00 00 FF FF 00 00 00 00
 (000.576313)  can0  18FEF231   [8]  FF FF FF FF FF FF FF FF
 (000.576888)  can0  0CF00331   [8]  FF FF FF FF FF FF FF FF
 (000.578764)  can0  0CF00203   [8]  C1 19 13 FF F7 94 22 03
 (000.579333)  can0  0C010305   [8]  FF FF FF FF FF F3 FF FF
 (000.580492)  can0  18FCDC00   [8]  9F FF FF FF 50 68 A4 15
 (000.581071)  can0  0CF00300   [8]  D0 64 25 FF FF 0F 7E 82
 (000.581610)  can0  1CFE9200   [8]  FF 64 BC FF FF FF 3C 00
 (000.582222)  can0  18FEFF00   [8]  FC C0 FF FF FF FF FF FF
 (000.583149)  can0  18F0010B   [8]  CF FF F0 FF FF CD FF FF
 (000.587073)  can0  0CF00400   [8]  41 9B 9B E8 2D 00 0F 9B
 (000.588794)  can0  0CF00203   [8]  C1 19 13 FF F7 94 22 03
 (000.589398)  can0  0CF00C03   [8]  96 04 E9 2D FF FF FF FF
 (000.589997)  can0  0CF00A00   [8]  D5 04 B4 16 FF FF FF FF
 (000.590635)  can0  18FD9400   [8]  FD 0C FF FF FF FF FF FF
 (000.591139)  can0  18FEEF00   [8]  FF FF FF 44 AE 7D FF FA
 (000.591759)  can0  18F00E00   [8]  38 3C FF FF D5 9F FF FF
 (000.592362)  can0  1CEBFF00   [8]  01 43 FF BF 00 09 08 54
 (000.593937)  can0  18FEBF0B   [8]  E0 15 7D 7D 7F 7D FF FF
 (000.595577)  can0  18F03300   [8]  FF FF FF FF FF FF FF FF
 (000.595626)  can0  18FEDF00   [8]  8A A0 28 7D 7D FF FF F5
 (000.599615)  can0  0CF00203   [8]  C1 1C 13 FF F7 A5 22 03
 (000.600788)  can0  18FEE000   [8]  0F 00 00 00 25 96 35 00
 (000.600941)  can0  0CF00300   [8]  D0 64 25 FF FF 0F 7F 82
 (000.605022)  can0  18FEF200   [8]  CA 00 44 04 A8 05 E1 FF
 (000.605616)  can0  18F00F00   [8]  56 0F FF FF D5 9F FF FF
 (000.607063)  can0  0CF00400   [8]  31 9B 9B 06 2E 00 0F 9B
 (000.608778)  can0  0CF00203   [8]  C1 1C 13 FF F7 A5 22 03
 (000.609388)  can0  0CF00C03   [8]  90 04 06 2E FF FF FF FF
 (000.610012)  can0  18FEDB00   [8]  FF FF 34 6D FF FF FF FF
 (000.610759)  can0  1CEBFF29   [8]  01 14 01 A8 16 3C 30 52
 (000.615039)  can0  18FEDF00   [8]  8A A0 28 7D 7D FF FF F5
 (000.615617)  can0  10FCFD00   [8]  FF FF FF FF 16 70 FF FF
 (000.619355)  can0  0CF00203   [8]  C1 0C 13 FF F7 89 22 03
 (000.620735)  can0  0CF00300   [8]  D0 64 25 FF FF 0F 7F 82
 (000.623364)  can0  0CF00331   [8]  FF FF FF FF FF FF FF FF
 (000.625065)  can0  18F00100   [8]  FF FF FF FF FF FF FF FF
 (000.627487)  can0  0CF00400   [8]  31 9B 9B 15 2E 00 0F 9B
 (000.628787)  can0  0CF00203   [8]  C1 0C 13 FF F7 89 22 03
 (000.629493)  can0  0C010305   [8]  FF FF FF FF FF F3 FF FF
 (000.629923)  can0  0CF00C03   [8]  94 04 19 2E FF FF FF FF
 (000.630651)  can0  18FEF600   [8]  FF 14 62 FF FF FF FF FF
 (000.635681)  can0  18FEDF00   [8]  8A A0 28 7D 7D FF FF F5
 (000.638774)  can0  0CF00203   [8]  C1 10 13 FF F7 81 22 03
 (000.640374)  can0  0CF00300   [8]  D0 64 25 FF FF 0F 7E 82
 (000.640943)  can0  0CF00A00   [8]  D5 04 B4 16 FF FF FF FF
 (000.641544)  can0  18FEF000   [8]  FF FF FF C0 2B FF FF FF
 (000.642120)  can0  18F00E00   [8]  E6 3B FF FF D5 9F FF FF
 (000.645063)  can0  18F03300   [8]  FF FF FF FF FF FF FF FF
 (000.647040)  can0  0CF00400   [8]  41 9B 9B 2B 2E 00 0F 9B
 (000.647624)  can0  1CEBFF00   [8]  02 00 09 08 ED 14 1F 01
 (000.648806)  can0  0CF00203   [8]  C1 10 13 FF F7 81 22 03
 (000.649447)  can0  0CF00C03   [8]  92 04 13 2E FF FF FF FF
 (000.650039)  can0  18FCF200   [8]  E1 FF FF FF FF FF FF FF
 (000.651362)  can0  18F00503   [8]  7F 12 07 7F 35 20 32 43
 (000.651369)  can0  18FE4A03   [8]  03 0F 4F FF FF F3 FF FF
 (000.651815)  can0  18FD9503   [8]  CC FF FF AF FF FF FF FF
 (000.652797)  can0  18FEF803   [8]  FF FF FF FF 3B 2C FF FF
 (000.655146)  can0  18FEDF00   [8]  8A A0 28 7D 7D FF FF F5
 (000.655747)  can0  18FDC600   [8]  FC 04 FF FF FF FF FF FF
 (000.656398)  can0  18F00F00   [8]  42 0F FF FF D5 9F FF FF
 (000.659550)  can0  0CF00203   [8]  C1 25 13 FF F7 A1 22 03
 (000.660815)  can0  0CF00300   [8]  D0 64 25 FF FF 0F 7D 82
 (000.660975)  can0  18FEF100   [8]  FF D4 15 FC FF 68 00 CF
 (000.667777)  can0  0CF00400   [8]  51 9C 9B D9 2D 00 0F 9C
 (000.667787)  can0  1CEBFF29   [8]  02 29 D0 3A 33 80 4C 2C
 (000.668779)  can0  0CF00203   [8]  C1 25 13 FF F7 A1 22 03
 (000.669472)  can0  0CF00C03   [8]  93 04 ED 2D FF FF FF FF
 (000.670020)  can0  10FDA300   [8]  FF FF 33 FF FF FF FF FF
 (000.670630)  can0  18F00029   [8]  F0 7D 7D F3 29 FF FF 37
 (000.673368)  can0  18F00131   [8]  FF FF FF 3F 00 FF FF FF
 (000.673936)  can0  18FEF131   [8]  F3 FF FF C3 CC FF FF F0
 (000.674546)  can0  18FEF031   [8]  FF FF FF FF FF FC CC FF
 (000.675111)  can0  18FEDF00   [8]  8A A0 28 7D 7D FF FF F5
 (000.675729)  can0  18FF4831   [8]  00 00 FF FF 00 00 00 00
 (000.676315)  can0  18FEF231   [8]  FF FF FF FF FF FF FF FF
 (000.676903)  can0  0CF00331   [8]  FF FF FF FF FF FF FF FF
 (000.678763)  can0  0CF00203   [8]  C1 34 13 FF F7 C1 22 03
 (000.679366)  can0  0C010305   [8]  FF FF FF FF FF F3 FF FF
 (000.680473)  can0  18FCDC00   [8]  9F FF FF FF 50 68 D4 15
 (000.681052)  can0  0CF00300   [8]  D0 64 25 FF FF 0F 7E 82
 (000.681623)  can0  1CFE9200   [8]  FF E4 BC FF FF FF 3C 00
 (000.683772)  can0  18F0010B   [8]  CF FF F0 FF FF CD FF FF
 (000.687070)  can0  0CF00400   [8]  41 9C 9B 12 2E 00 0F 9C
 (000.688788)  can0  0CF00203   [8]  C1 34 13 FF F7 C1 22 03
 (000.689408)  can0  0CF00C03   [8]  8C 04 09 2E FF FF FF FF
 (000.690852)  can0  0CF00A00   [8]  5B 04 08 17 FF FF FF FF
 (000.690862)  can0  18FD9400   [8]  FD 0C FF FF FF FF FF FF
 (000.691208)  can0  18F00E00   [8]  58 3B FF FF D5 9F FF FF
 (000.693961)  can0  18FEBF0B   [8]  10 16 7E 7C 7E 7E FF FF
 (000.695493)  can0  18F03300   [8]  FF FF FF FF FF FF FF FF
 (000.695619)  can0  18FEDF00   [8]  8A A0 28 7D 7D FF FF F5
 (000.699099)  can0  0CF00203   [8]  C1 2B 13 FF F7 C2 22 03
 (000.700550)  can0  18FEE000   [8]  0F 00 00 00 25 96 35 00
 (000.700971)  can0  0CF00300   [8]  D0 64 25 FF FF 0F 7E 82
 (000.704962)  can0  18FEF200   [8]  AE 00 00 05 A9 05 E1 FF
 (000.705527)  can0  18F00F00   [8]  42 0F FF FF D5 9F FF FF
 (000.706975)  can0  0CF00400   [8]  31 9B 9B 35 2E 00 0F 9B
 (000.708769)  can0  0CF00203   [8]  C1 2B 13 FF F7 C2 22 03
 (000.709367)  can0  0CF00C03   [8]  8F 04 4B 2E FF FF FF FF
 (000.715787)  can0  18FEDF00   [8]  8A A0 28 7D 7D FF FF F5
 (000.715797)  can0  10FCFD00   [8]  FF FF FF FF D0 70 FF FF
 (000.718802)  can0  0CF00203   [8]  C1 37 13 FF F7 DC 22 03
 (000.720639)  can0  0CF00300   [8]  D0 64 25 FF FF 0F 7F 82
 (000.723420)  can0  1CEBFF29   [8]  03 30 52 C2 01 29 FF FF
 (000.723482)  can0  0CF00331   [8]  FF FF FF FF FF FF FF FF
 (000.725168)  can0  18F00100   [8]  FF FF FF FF FF FF FF FF
 (000.727605)  can0  0CF00400   [8]  31 9B 9B 4E 2E 00 0F 9B
 (000.728790)  can0  0CF00203   [8]  C1 37 13 FF F7 DC 22 03
 (000.729382)  can0  0C010305   [8]  FF FF FF FF FF F3 FF FF
 (000.729948)  can0  0CF00C03   [8]  8C 04 2C 2E FF FF FF FF
 (000.735741)  can0  18FEDF00   [8]  8A A0 28 7D 7D FF FF F5
 (000.738735)  can0  0CF00203   [8]  C1 53 13 FF F7 FC 22 03
 (000.740403)  can0  0CF00300   [8]  D0 64 25 FF FF 0F 7E 82
 (000.740973)  can0  0CF00A00   [8]  2C 04 5D 17 FF FF FF FF
 (000.741551)  can0  18FEF000   [8]  FF FF FF C0 2B FF FF FF
 (000.742166)  can0  18F00E00   [8]  2A 3A FF FF D5 9F FF FF
 (000.745073)  can0  18F03300   [8]  FF FF FF FF FF FF FF FF
 (000.747076)  can0  0CF00400   [8]  41 9B 9B F6 2D 00 0F 9B
 (000.748888)  can0  0CF00203   [8]  C1 53 13 FF F7 FC 22 03
 (000.749351)  can0  0CF00C03   [8]  8B 04 1B 2E FF FF FF FF
 (000.749998)  can0  18F00503   [8]  7F 12 07 7F 35 20 32 43
 (000.750576)  can0  18FCF200   [8]  E1 FF FF FF FF FF FF FF
 (000.751148)  can0  18FE4A03   [8]  03 0F 4F FF FF F3 FF FF
 (000.755212)  can0  18FEDF00   [8]  8A A0 28 7D 7D FF FF F5
 (000.755630)  can0  18F00F00   [8]  42 0F FF FF D5 9F FF FF
 (000.759598)  can0  0CF00203   [8]  C1 5D 13 FF F7 FD 22 03
 (000.760790)  can0  0CF00300   [8]  D0 64 25 FF FF 0F 7F 82
 (000.760957)  can0  18FEF100   [8]  FF 10 16 FC FF 68 00 CF
 (000.767847)  can0  0CF00400   [8]  31 9B 9B 22 2E 00 0F 9B
 (000.768792)  can0  0CF00203   [8]  C1 5D 13 FF F7 FD 22 03
 (000.769389)  can0  0CF00C03   [8]  89 04 17 2E FF FF FF FF
 (000.769954)  can0  10FDA300   [8]  FF FF 32 FF FF FF FF FF
 (000.770529)  can0  18F00029   [8]  F0 7D 7D F3 29 FF FF 37
 (000.773327)  can0  18F00131   [8]  FF FF FF 3F 00 FF FF FF
 (000.773972)  can0  18FEF131   [8]  F3 FF FF C3 CC FF FF F0
 (000.774543)  can0  18FEF031   [8]  FF FF FF FF FF FC CC FF
 (000.775145)  can0  18FEDF00   [8]  8A A0 28 7D 7D FF FF F5
 (000.775741)  can0  18FF4831   [8]  00 00 FF FF 00 00 00 00
 (000.776310)  can0  18FEF231   [8]  FF FF FF FF FF FF FF FF
 (000.776912)  can0  0CF00331   [8]  FF FF FF FF FF FF FF FF
 (000.778801)  can0  0CF00203   [8]  C1 4C 13 FF F7 EF 22 03
 (000.779377)  can0  0C010305   [8]  FF FF FF FF FF F3 FF FF
 (000.780824)  can0  18FCDC00   [8]  9F FF FF FF 50 68 10 16
 (000.781093)  can0  0CF00300   [8]  D0 64 25 FF FF 0F 7F 82
 (000.781671)  can0  1CFE9200   [8]  FF 4C BC FF FF FF 3C 00
 (000.784040)  can0  18F0010B   [8]  CF FF F0 FF FF CD FF FF
 (000.787076)  can0  0CF00400   [8]  21 9B 9B 43 2E 00 0F 9B
 (000.788810)  can0  0CF00203   [8]  C1 4C 13 FF F7 EF 22 03
 (000.789513)  can0  0CF00C03   [8]  8B 04 68 2E FF FF FF FF
 (000.790027)  can0  0CF00A00   [8]  23 04 53 17 FF FF FF FF
 (000.791459)  can0  18FD9400   [8]  FD 0C FF FF FF FF FF FF
 (000.791468)  can0  18F00E00   [8]  3A 39 FF FF D5 9F FF FF
 (000.794053)  can0  18FEBF0B   [8]  30 16 7E 7C 7E 7E FF FF
 (000.795599)  can0  18F03300   [8]  FF FF FF FF FF FF FF FF
 (000.795608)  can0  18FEDF00   [8]  8A A0 28 7D 7D FF FF F5
 (000.799374)  can0  0CF00203   [8]  C1 43 13 FF F7 EE 22 03
 (000.800944)  can0  18FEE000   [8]  0F 00 00 00 25 96 35 00
 (000.800959)  can0  0CF00300   [8]  D0 64 25 FF FF 0F 81 82
 (000.805011)  can0  18FEF200   [8]  AE 00 08 05 A8 05 E1 FF
 (000.805577)  can0  18F00F00   [8]  40 0F FF FF D5 9F FF FF
 (000.807070)  can0  0CF00400   [8]  21 9B 9B 5D 2E 00 0F 9B
 (000.808778)  can0  0CF00203   [8]  C1 43 13 FF F7 EE 22 03
 (000.809384)  can0  0CF00C03   [8]  8B 04 37 2E FF FF FF FF
 (000.814302)  can0  18FECA31   [8]  00 FF 00 00 00 00 FF FF
 (000.814383)  can0  18F11031   [8]  00 00 FF FF FF FF FF FF
 (000.815948)  can0  18FEDF00   [8]  8A A0 28 7D 7D FF FF F5
 (000.815959)  can0  10FCFD00   [8]  FF FF FF FF CC 70 FF FF
 (000.816249)  can0  0CFD9200   [8]  F4 FF FF FF FF FF FF FF
 (000.818776)  can0  0CF00203   [8]  C1 58 13 FF F7 13 23 03
 (000.820626)  can0  0CF00300   [8]  D0 64 25 FF FF 0F 7F 82
 (000.824255)  can0  0CF00331   [8]  FF FF FF FF FF FF FF FF
 (000.825253)  can0  18F00100   [8]  FF FF FF FF FF FF FF FF
 (000.827750)  can0  0CF00400   [8]  21 9B 9B 0A 2E 00 0F 9B
 (000.828795)  can0  0CF00203   [8]  C1 58 13 FF F7 13 23 03
 (000.829401)  can0  0C010305   [8]  FF FF FF FF FF F3 FF FF
 (000.829886)  can0  0CF00C03   [8]  8C 04 36 2E FF FF FF FF
 (000.835440)  can0  18FEDF00   [8]  8A A0 28 7D 7D FF FF F5
 (000.838729)  can0  0CF00203   [8]  C1 6F 13 FF F7 2B 23 03
 (000.840445)  can0  0CF00300   [8]  D0 64 25 FF FF 0F 80 82
 (000.841034)  can0  0CF00A00   [8]  1A 04 B1 17 FF FF FF FF
 (000.841610)  can0  18FEF000   [8]  FF FF FF C0 2B FF FF FF
 (000.842181)  can0  18F00E00   [8]  A8 38 FF FF D5 9F FF FF
 (000.845080)  can0  18F03300   [8]  FF FF FF FF FF FF FF FF
 (000.847604)  can0  0CF00400   [8]  21 9B 9B 2A 2E 00 0F 9B
 (000.848791)  can0  0CF00203   [8]  C1 6F 13 FF F7 2B 23 03
 (000.849384)  can0  0CF00C03   [8]  87 04 16 2E FF FF FF FF
 (000.849997)  can0  18F00503   [8]  7F 12 07 7F 35 20 32 43
 (000.850574)  can0  18FCF200   [8]  E1 FF FF FF FF FF FF FF
 (000.851147)  can0  18FE4A03   [8]  03 0F 4F FF FF F3 FF FF
 (000.855159)  can0  18FEDF00   [8]  8A A0 28 7D 7D FF FF F5
 (000.855697)  can0  18F00F00   [8]  38 0F FF FF D5 9F FF FF
 (000.859608)  can0  0CF00203   [8]  C1 7F 13 FF F7 41 23 03
 (000.860485)  can0  0CF00300   [8]  D0 63 25 FF FF 0F 80 82
 (000.861003)  can0  18FEF100   [8]  FF 30 16 FC FF 68 00 CF
 (000.867772)  can0  0CF00400   [8]  11 9B 9B 4B 2E 00 0F 9B
 (000.868781)  can0  0CF00203   [8]  C1 7F 13 FF F7 41 23 03
 (000.869423)  can0  0CF00C03   [8]  84 04 67 2E FF FF FF FF
 (000.870045)  can0  10FDA300   [8]  FF FF 32 FF FF FF FF FF
 (000.870606)  can0  18F00029   [8]  F0 7D 7D F3 29 FF FF 37
 (000.873381)  can0  18F00131   [8]  FF FF FF 3F 00 FF FF FF
 (000.873939)  can0  18FEF131   [8]  F3 FF FF C3 CC FF FF F0
 (000.874534)  can0  18FEF031   [8]  FF FF FF FF FF FC CC FF
 (000.875133)  can0  18FF4831   [8]  00 00 FF FF 00 00 00 00
 (000.875734)  can0  18FEDF00   [8]  8A A0 28 7D 7D FF FF F5
 (000.876324)  can0  18FEF231   [8]  FF FF FF FF FF FF FF FF
 (000.876903)  can0  0CF00331   [8]  FF FF FF FF FF FF FF FF
 (000.879348)  can0  0CF00203   [8]  C1 83 13 FF F7 56 23 03
 (000.879357)  can0  0C010305   [8]  FF FF FF FF FF F3 FF FF
 (000.880908)  can0  18FCDC00   [8]  9F FF FF FF 50 68 30 16
 (000.881081)  can0  0CF00300   [8]  D0 63 24 FF FF 0F 81 82
 (000.881814)  can0  1CFE9200   [8]  FF 34 BC FF FF FF 3C 00
 (000.884351)  can0  18F0010B   [8]  CF FF F0 FF FF CD FF FF
 (000.887098)  can0  0CF00400   [8]  11 9B 9B 5E 2E 00 0F 9B
 (000.888828)  can0  0CF00203   [8]  C1 83 13 FF F7 56 23 03
 (000.889380)  can0  0CF00C03   [8]  84 04 3E 2E FF FF FF FF
 (000.890166)  can0  14FC9800   [8]  FF 00 00 00 00 00 00 FF
 (000.890622)  can0  0CF00A00   [8]  36 04 82 17 FF FF FF FF
 (000.891242)  can0  18FD9400   [8]  FD 0C FF FF FF FF FF FF
 (000.891781)  can0  18F00E00   [8]  48 37 FF FF D5 9F FF FF
 (000.894149)  can0  18FEBF0B   [8]  60 16 7D 7D 7D 7D FF FF
 (000.895804)  can0  18F03300   [8]  FF FF FF FF FF FF FF FF
 (000.895815)  can0  18FEDF00   [8]  8A A0 28 7D 7D FF FF F5
 (000.898883)  can0  0CF00203   [8]  C1 89 13 FF F7 73 23 03
 (000.900440)  can0  18FEE000   [8]  0F 00 00 00 25 96 35 00
 (000.900971)  can0  0CF00300   [8]  D0 63 24 FF FF 0F 80 82
 (000.905049)  can0  18FDB400   [8]  C6 45 BC 44 FF FF FF FF
 (000.905598)  can0  18FEF200   [8]  C7 00 72 04 A9 05 E1 FF
 (000.906209)  can0  18F00F00   [8]  38 0F FF FF D5 9F FF FF
 (000.907116)  can0  0CF00400   [8]  11 9B 9B 1E 2E 00 0F 9B
 (000.908775)  can0  0CF00203   [8]  C1 89 13 FF F7 73 23 03
 (000.909370)  can0  0CF00C03   [8]  84 04 45 2E FF FF FF FF
 (000.915074)  can0  18FEDF00   [8]  8A A0 28 7D 7D FF FF F5
 (000.915677)  can0  10FCFD00   [8]  FF FF FF FF 86 70 FF FF
 (000.918929)  can0  0CF00203   [8]  C1 94 13 FF F7 77 23 03
 (000.920619)  can0  0CF00300   [8]  D0 63 24 FF FF 0F 81 82
 (000.924252)  can0  0CF00331   [8]  FF FF FF FF FF FF FF FF
 (000.925201)  can0  18F00100   [8]  FF FF FF FF FF FF FF FF
 (000.927703)  can0  0CF00400   [8]  01 9B 9B 40 2E 00 0F 9B
 (000.928801)  can0  0CF00203   [8]  C1 94 13 FF F7 77 23 03
 (000.929376)  can0  0C010305   [8]  FF FF FF FF FF F3 FF FF
 (000.929922)  can0  0CF00C03   [8]  82 04 1D 2E FF FF FF FF
 (000.930584)  can0  18FDB300   [8]  FF FF 49 48 FF FF FF FF
 (000.935100)  can0  18FEDF00   [8]  8A A0 28 7D 7D FF FF F5
 (000.938765)  can0  0CF00203   [8]  C1 99 13 FF F7 6F 23 03
 (000.940467)  can0  0CF00300   [8]  D0 63 24 FF FF 0F 80 82
 (000.941044)  can0  0CF00A00   [8]  48 04 5D 17 FF FF FF FF
 (000.941619)  can0  18FEF000   [8]  FF FF FF C0 2B FF FF FF
 (000.942196)  can0  18F00E00   [8]  44 36 FF FF D5 9F FF FF
 (000.945086)  can0  18F03300   [8]  FF FF FF FF FF FF FF FF
 (000.947133)  can0  0CF00400   [8]  11 9B 9B 60 2E 00 0F 9B
 (000.948893)  can0  0CF00203   [8]  C1 99 13 FF F7 6F 23 03
 (000.949364)  can0  0CF00C03   [8]  81 04 6E 2E FF FF FF FF
 (000.950117)  can0  18F00503   [8]  7F 12 07 7F 35 20 32 43
 (000.950565)  can0  18FDB200   [8]  FF FF FF FF 0F 00 FF FF
 (000.951242)  can0  18FE4A03   [8]  03 0F 4F FF FF F3 FF FF
 (000.951719)  can0  18FCF200   [8]  E1 FF FF FF FF FF FF FF
 (000.955229)  can0  18FEDF00   [8]  8A A0 28 7D 7D FF FF F5
 (000.955720)  can0  18F00F00   [8]  38 0F FF FF D5 9F FF FF
 (000.959667)  can0  0CF00203   [8]  C1 9F 13 FF F7 80 23 03
 (000.960511)  can0  0CF00300   [8]  D0 63 24 FF FF 0F 81 82
 (000.961053)  can0  18FEF100   [8]  FF 70 16 FC FF 68 00 CF
 (000.967109)  can0  0CF00400   [8]  01 9B 9B 74 2E 00 0F 9B
 (000.968778)  can0  0CF00203   [8]  C1 9F 13 FF F7 80 23 03
 (000.969370)  can0  0CF00C03   [8]  83 04 54 2E FF FF FF FF
 (000.970013)  can0  10FDA300   [8]  FF FF 33 FF FF FF FF FF
 (000.970572)  can0  18F00029   [8]  F0 7D 7D F3 29 FF FF 37
 (000.973402)  can0  18F00131   [8]  FF FF FF 3F 00 FF FF FF
 (000.973944)  can0  18E0FF31   [8]  00 FF FF FF FF F0 FF FF
 (000.974538)  can0  18FEF131   [8]  F3 FF FF C3 CC FF FF F0
 (000.975136)  can0  18FEF031   [8]  FF FF FF FF FF FC CC FF
 (000.975713)  can0  18FD8C00   [8]  FF FF 11 00 FF FF FF FF
 (000.976267)  can0  18FEFC31   [8]  FF 76 FF FF FF FF 00 FF
 (000.976842)  can0  18FEDF00   [8]  8A A0 28 7D 7D FF FF F5
 (000.977421)  can0  18FEAE31   [8]  FF FF 61 61 FF FF FF FF
 (000.977997)  can0  18FEF731   [8]  FF FF FF FF 1A 01 FF FF
 (000.978596)  can0  18FF4831   [8]  00 00 FF FF 00 00 00 00
 (000.979175)  can0  0CF00203   [8]  C1 AF 13 FF F7 AF 23 03
 (000.979768)  can0  0C010305   [8]  FF FF FF FF FF F3 FF FF
 (000.980355)  can0  18FD8331   [8]  F8 FF FF FF FF FF FF FF
 (000.980872)  can0  18FCDC00   [8]  9F FF FF FF 50 68 70 16
 (000.981449)  can0  18FEF831   [8]  FF FF FF FF FF FF FF FF
 (000.982024)  can0  0CF00300   [8]  D0 63 24 FF FF 0F 80 82
 (000.982574)  can0  18FEF231   [8]  FF FF FF FF FF FF FF FF
 (000.983135)  can0  1CFE9200   [8]  FF BC BC FF FF FF 3A 00
 (000.984500)  can0  18FEFA31   [8]  FF C1 C2 FF FF FF FF FF
 (000.984504)  can0  18F0010B   [8]  CF FF F0 FF FF CD FF FF
 (000.984843)  can0  18FEC131   [8]  B3 43 67 06 FF FF FF FF
 (000.986189)  can0  0CF00331   [8]  FF FF FF FF FF FF FF FF
 (000.987252)  can0  0CF00400   [8]  01 9B 9B 3A 2E 00 0F 9B
 (000.988765)  can0  0CF00203   [8]  C1 AF 13 FF F7 AF 23 03
 (000.989395)  can0  0CF00C03   [8]  7F 04 60 2E FF FF FF FF
 (000.990954)  can0  0CF00A00   [8]  52 04 79 17 FF FF FF FF
 (000.990963)  can0  18FD9400   [8]  FD 0C FF FF FF FF FF FF
 (000.991275)  can0  18F00E00   [8]  72 35 FF FF D5 9F FF FF
 (000.994895)  can0  18FEBF0B   [8]  A0 16 7D 7D 7B 7D FF FF
 (000.995141)  can0  18FD2000   [8]  C6 45 FF FF FF FF FF FF
 (000.995819)  can0  18F03300   [8]  FF FF FF FF FF FF FF FF
 (000.996313)  can0  18FEDF00   [8]  8A A0 28 7D 7D FF FF F5
 (000.998726)  can0  0CF00203   [8]  C1 B3 13 FF F7 B8 23 03
 (001.000472)  can0  18FEE000   [8]  0F 00 00 00 25 96 35 00
 (001.001036)  can0  0CF00300   [8]  D0 63 24 FF FF 0F 81 82
 (001.005114)  can0  18FEF200   [8]  AD 00 28 05 A8 05 E1 FF
 (001.005643)  can0  18F00F00   [8]  2C 0F FF FF D5 9F FF FF
 (001.007232)  can0  0CF00400   [8]  71 9B 9A 5F 2E 00 0F 9B
 (001.008773)  can0  0CF00203   [8]  C1 B3 13 FF F7 B8 23 03
 (001.009361)  can0  0CF00C03   [8]  7F 04 43 2E FF FF FF FF
 (001.015798)  can0  18FEDF00   [8]  8A A0 28 7D 7D FF FF F5
 (001.015807)  can0  10FCFD00   [8]  FF FF FF FF 16 70 FF FF
 (001.018775)  can0  0CF00203   [8]  C1 AD 13 FF F7 9F 23 03
 (001.020729)  can0  18FD3E00   [8]  D6 42 FF D0 3C FF FF FF
 (001.020961)  can0  0CF00300   [8]  D0 63 24 FF FF 0F 80 82
 (001.023501)  can0  0CF00331   [8]  FF FF FF FF FF FF FF FF
 (001.025203)  can0  18F00100   [8]  FF FF FF FF FF FF FF FF
 (001.027660)  can0  0CF00400   [8]  61 9B 9A 77 2E 00 0F 9B
 (001.028790)  can0  0CF00203   [8]  C1 AD 13 FF F7 9F 23 03
 (001.029375)  can0  0C010305   [8]  FF FF FF FF FF F3 FF FF
 (001.029947)  can0  0CF00C03   [8]  7E 04 7C 2E FF FF FF FF
 (001.035097)  can0  18FEDF00   [8]  8A A0 28 7D 7D FF FF F5
 (001.038923)  can0  0CF00203   [8]  C1 B2 13 FF F7 A5 23 03
 (001.040621)  can0  18FD4000   [8]  FF 3F 00 FF FF FF FF FF
 (001.041012)  can0  0CF00300   [8]  D0 63 24 FF FF 0F 82 82
 (001.041625)  can0  0CF00A00   [8]  52 04 82 17 FF FF FF FF
 (001.042219)  can0  18FEF000   [8]  FF FF FF C0 2B FF FF FF
 (001.042777)  can0  18F00E00   [8]  74 34 FF FF D5 9F FF FF
 (001.045102)  can0  18F03300   [8]  FF FF FF FF FF FF FF FF
 (001.047114)  can0  0CF00400   [8]  71 9B 9A 8D 2E 00 0F 9B
 (001.048907)  can0  0CF00203   [8]  C1 B2 13 FF F7 A5 23 03
 (001.049341)  can0  0CF00C03   [8]  82 04 71 2E FF FF FF FF
 (001.050114)  can0  18F00503   [8]  7F 12 07 7F 35 20 32 43
 (001.050533)  can0  18FCF200   [8]  E1 FF FF FF FF FF FF FF
 (001.051193)  can0  18FE4A03   [8]  03 0F 4F FF FF F3 FF FF
 (001.055133)  can0  18FEDF00   [8]  8A A0 28 7D 7D FF FF F5
 (001.055720)  can0  18F00F00   [8]  2C 0F FF FF D5 9F FF FF
 (001.058950)  can0  0CF00203   [8]  C1 C3 13 FF F7 C1 23 03
 (001.060653)  can0  0CF00300   [8]  D0 63 24 FF FF 0F 80 82
 (001.061013)  can0  18FEF100   [8]  FF 94 16 FC FF 68 00 CF
 (001.065126)  can0  18FCC500   [8]  D6 42 FF FF FF FF FF FF
 (001.065693)  can0  0CFD9200   [8]  F4 FF FF FF FF FF FF FF
 (001.067145)  can0  0CF00400   [8]  61 9B 9A 50 2E 00 0F 9B
 (001.068758)  can0  0CF00203   [8]  C1 C3 13 FF F7 C1 23 03
 (001.069375)  can0  0CF00C03   [8]  80 04 68 2E FF FF FF FF
 (001.070122)  can0  10FDA300   [8]  FF FF 33 FF FF FF FF FF
 (001.070636)  can0  18F00029   [8]  F0 7D 7D F3 29 FF FF 37
 (001.073412)  can0  18F00131   [8]  FF FF FF 3F 00 FF FF FF
 (001.073926)  can0  18FEF131   [8]  F3 FF FF C3 CC FF FF F0
 (001.074540)  can0  18FEF031   [8]  FF FF FF FF FF FC CC FF
 (001.075138)  can0  18FF4831   [8]  00 00 FF FF 00 00 00 00
 (001.075713)  can0  18FEDF00   [8]  8A A0 28 7D 7D FF FF F5
 (001.076332)  can0  18FEF231   [8]  FF FF FF FF FF FF FF FF
 (001.076879)  can0  0CF00331   [8]  FF FF FF FF FF FF FF FF
 (001.078771)  can0  0CF00203   [8]  C1 CA 13 FF F7 E3 23 03
 (001.079405)  can0  0C010305   [8]  FF FF FF FF FF F3 FF FF
 (001.079993)  can0  18FECA03   [8]  00 FF 00 00 00 00 FF FF
 (001.080564)  can0  18FCDC00   [8]  9F FF FF FF 50 68 94 16
 (001.081169)  can0  0CF00300   [8]  D0 63 24 FF FF 0F 81 82
 (001.081723)  can0  1CFE9200   [8]  FF 94 BB FF FF FF 3A 00
 (001.084871)  can0  18F0010B   [8]  CF FF F0 FF FF CD FF FF
 (001.087405)  can0  0CF00400   [8]  71 9B 9A 61 2E 00 0F 9B
 (001.088786)  can0  0CF00203   [8]  C1 CA 13 FF F7 E3 23 03
 (001.089491)  can0  0CF00C03   [8]  7D 04 4C 2E FF FF FF FF
 (001.090096)  can0  0CF00A00   [8]  2C 04 B1 17 FF FF FF FF
 (001.090693)  can0  18FD9400   [8]  FD 0C FF FF FF FF FF FF
 (001.091214)  can0  18FEEF00   [8]  FF FF FF 44 AB 7D FF FA
 (001.091870)  can0  18F00E00   [8]  A4 33 FF FF D5 9F FF FF
 (001.094641)  can0  18FEBF0B   [8]  A0 16 7D 7D 7F 7F FF FF
 (001.095176)  can0  18F03300   [8]  FF FF FF FF FF FF FF FF
 (001.095773)  can0  18FEDF00   [8]  8A A0 28 7D 7D FF FF F5
 (001.098765)  can0  0CF00203   [8]  C1 CC 13 FF F7 E8 23 03
 (001.100442)  can0  18FEE000   [8]  0F 00 00 00 25 96 35 00
 (001.100998)  can0  0CF00300   [8]  D0 63 24 FF FF 0F 81 82
 (001.105113)  can0  18FEF200   [8]  C4 00 98 04 A8 05 E1 FF
 (001.105638)  can0  18F00F00   [8]  2C 0F FF FF D5 9F FF FF
 (001.107242)  can0  0CF00400   [8]  61 9B 9A 72 2E 00 0F 9B
 (001.108796)  can0  0CF00203   [8]  C1 CC 13 FF F7 E8 23 03
 (001.109338)  can0  0CF00C03   [8]  78 04 69 2E FF FF FF FF
 (001.110082)  can0  18FEDB00   [8]  FF FF DD 6C FF FF FF FF
 (001.115633)  can0  18FEDF00   [8]  8A A0 28 7D 7D FF FF F5
 (001.115648)  can0  10FCFD00   [8]  FF FF FF FF 20 70 FF FF
 (001.118771)  can0  0CF00203   [8]  C1 CF 13 FF F7 D7 23 03
 (001.120723)  can0  0CF00300   [8]  D0 63 24 FF FF 0F 82 82
 (001.123547)  can0  0CF00331   [8]  FF FF FF FF FF FF FF FF
 (001.125185)  can0  18F00100   [8]  FF FF FF FF FF FF FF FF
 (001.127483)  can0  0CF00400   [8]  71 9B 9A 76 2E 00 0F 9B
 (001.128772)  can0  0CF00203   [8]  C1 CF 13 FF F7 D7 23 03
 (001.129364)  can0  0C010305   [8]  FF FF FF FF FF F3 FF FF
 (001.129909)  can0  0CF00C03   [8]  7E 04 65 2E FF FF FF FF
 (001.130487)  can0  18FEF600   [8]  FF 15 62 FF FF FF FF FF
 (001.135710)  can0  18FEDF00   [8]  8A A0 28 7D 7D FF FF F5
 (001.138922)  can0  0CF00203   [8]  C1 D5 13 FF F7 DC 23 03
 (001.140600)  can0  0CF00300   [8]  D0 63 24 FF FF 0F 81 82
 (001.140978)  can0  0CF00A00   [8]  2C 04 9E 17 FF FF FF FF
 (001.141626)  can0  18FEF000   [8]  FF FF FF C0 2B FF FF FF
 (001.142196)  can0  18F00E00   [8]  FA 32 FF FF D5 9F FF FF
 (001.145127)  can0  18F03300   [8]  FF FF FF FF FF FF FF FF
 (001.147301)  can0  0CF00400   [8]  01 9B 9B 3C 2E 00 0F 9B
 (001.148946)  can0  0CF00203   [8]  C1 D5 13 FF F7 DC 23 03
 (001.149330)  can0  0CF00C03   [8]  7C 04 51 2E FF FF FF FF
 (001.150140)  can0  18F00503   [8]  7F 12 07 7F 35 20 32 43
 (001.150530)  can0  18FCF200   [8]  E1 FF FF FF FF FF FF FF
 (001.151125)  can0  18FE4A03   [8]  03 0F 4F FF FF F3 FF FF
 (001.155197)  can0  18FEDF00   [8]  8A A0 28 7D 7D FF FF F5
 (001.155752)  can0  18FDC600   [8]  FC 04 FF FF FF FF FF FF
 (001.156324)  can0  18F00F00   [8]  2C 0F FF FF D5 9F FF FF
 (001.159616)  can0  0CF00203   [8]  C1 DF 13 FF F7 F8 23 03
 (001.160496)  can0  0CF00300   [8]  D0 64 24 FF FF 0F 81 82
 (001.161067)  can0  18FEF100   [8]  FF C0 16 FC FF 68 00 CF
 (001.167126)  can0  0CF00400   [8]  11 9B 9B 62 2E 00 0F 9B
 (001.168898)  can0  0CF00203   [8]  C1 DF 13 FF F7 F8 23 03
 (001.169398)  can0  0CF00C03   [8]  7B 04 5A 2E FF FF FF FF
 (001.170210)  can0  10FDA300   [8]  FF FF 33 FF FF FF FF FF
 (001.170605)  can0  18F00029   [8]  F0 7D 7D F3 29 FF FF 37
 (001.173368)  can0  18F00131   [8]  FF FF FF 3F 00 FF FF FF
 (001.173936)  can0  18FEF131   [8]  F3 FF FF C3 CC FF FF F0
 (001.174539)  can0  18FEF031   [8]  FF FF FF FF FF FC CC FF
 (001.175146)  can0  18FF4831   [8]  00 00 FF FF 00 00 00 00
 (001.175720)  can0  18FEDF00   [8]  8A A0 28 7D 7D FF FF F5
 (001.176321)  can0  18FEF231   [8]  FF FF FF FF FF FF FF FF
 (001.176906)  can0  0CF00331   [8]  FF FF FF FF FF FF FF FF
 (001.178777)  can0  0CF00203   [8]  C1 E3 13 FF F7 14 24 03
 (001.179375)  can0  0C010305   [8]  FF FF FF FF FF F3 FF FF
 (001.180798)  can0  18FCDC00   [8]  9F FF FF FF 50 68 C0 16
 (001.181164)  can0  0CF00300   [8]  D0 64 25 FF FF 0F 81 82
 (001.181747)  can0  1CFE9200   [8]  FF B0 BB FF FF FF 3A 00
 (001.184935)  can0  18F0010B   [8]  CF FF F0 FF FF CD FF FF
 (001.187121)  can0  0CF00400   [8]  31 9B 9B 7D 2E 00 0F 9B
 (001.188778)  can0  0CF00203   [8]  C1 E3 13 FF F7 14 24 03
 (001.189391)  can0  0CF00C03   [8]  74 04 6B 2E FF FF FF FF
 (001.190111)  can0  0CF00A00   [8]  2C 04 9E 17 FF FF FF FF
 (001.190665)  can0  18FD9400   [8]  FD 0C FF FF FF FF FF FF
 (001.191278)  can0  18F00E00   [8]  A2 32 FF FF D5 9F FF FF
 (001.194493)  can0  18FEBF0B   [8]  E0 16 7D 7D 81 7F FF FF
 (001.195085)  can0  18F03300   [8]  FF FF FF FF FF FF FF FF
 (001.195661)  can0  18FEDF00   [8]  8A A0 28 7D 7D FF FF F5
 (001.198745)  can0  0CF00203   [8]  C1 F9 13 FF F7 3A 24 03
 (001.200593)  can0  18FEF700   [8]  FF FF FF FF 17 01 FF FF
 (001.201080)  can0  18FEE000   [8]  0F 00 00 00 25 96 35 00
 (001.201673)  can0  0CF00300   [8]  D0 64 25 FF FF 0F 82 82
 (001.205086)  can0  18FEF200   [8]  AA 00 51 05 AF 05 E1 FF
 (001.205677)  can0  18F00F00   [8]  2C 0F FF FF D5 9F FF FF
 (001.207243)  can0  0CF00400   [8]  41 9B 9B 86 2E 00 0F 9B
 (001.208787)  can0  0CF00203   [8]  C1 F9 13 FF F7 3A 24 03
 (001.209365)  can0  0CF00C03   [8]  76 04 95 2E FF FF FF FF
 (001.215613)  can0  18FEDF00   [8]  8A A0 28 7D 7D FF FF F5
 (001.215628)  can0  10FCFD00   [8]  FF FF FF FF D9 71 FF FF
 (001.219609)  can0  0CF00203   [8]  C1 1A 14 FF F7 62 24 03
 (001.220599)  can0  18FEC100   [8]  9D A9 3B 05 86 01 00 00
 (001.220996)  can0  0CF00300   [8]  D0 64 25 FF FF 0F 81 82
 (001.223354)  can0  0CF00331   [8]  FF FF FF FF FF FF FF FF
 (001.225138)  can0  18F00100   [8]  FF FF FF FF FF FF FF FF
 (001.227113)  can0  0CF00400   [8]  41 9B 9B 67 2E 00 0F 9B
 (001.228771)  can0  0CF00203   [8]  C1 1A 14 FF F7 62 24 03
 (001.229341)  can0  0C010305   [8]  FF FF FF FF FF F3 FF FF
 (001.229910)  can0  0CF00C03   [8]  70 04 70 2E FF FF FF FF
 (001.235705)  can0  18FEDF00   [8]  8A A0 28 7D 7D FF FF F5
 (001.238748)  can0  0CF00203   [8]  C1 2A 14 FF F7 73 24 03
 (001.240476)  can0  0CF00300   [8]  D0 64 25 FF FF 0F 80 82
 (001.241040)  can0  0CF00A00   [8]  2C 04 E9 17 FF FF FF FF
 (001.241641)  can0  18FEF000   [8]  FF FF FF C0 2B FF FF FF
 (001.242211)  can0  18F00E00   [8]  F6 31 FF FF D5 9F FF FF
 (001.245264)  can0  18FE5600   [8]  96 43 FF FF 1F 1F 00 FF
 (001.245714)  can0  18F03300   [8]  FF FF FF FF FF FF FF FF
 (001.247639)  can0  0CF00400   [8]  31 9B 9B 97 2E 00 0F 9B
 (001.248796)  can0  0CF00203   [8]  C1 2A 14 FF F7 73 24 03
 (001.249380)  can0  0CF00C03   [8]  73 04 A3 2E FF FF FF FF
 (001.249978)  can0  18F00503   [8]  7F 12 07 7F 35 20 32 43
 (001.250550)  can0  18FCF200   [8]  E1 FF FF FF FF FF FF FF
 (001.251119)  can0  18FE4A03   [8]  03 0F 4F FF FF F3 FF FF
 (001.255887)  can0  18FEDF00   [8]  8A A0 28 7D 7D FF FF F5
 (001.255897)  can0  18F00F00   [8]  2C 0F FF FF D5 9F FF FF
 (001.258779)  can0  0CF00203   [8]  C1 1E 14 FF F7 6E 24 03
 (001.260518)  can0  0CF00300   [8]  D0 64 25 FF FF 0F 80 82
 (001.261091)  can0  18FEF100   [8]  FF EC 16 FC FF 68 00 CF
 (001.265153)  can0  18FD7B00   [8]  00 FF A0 BC 00 00 53 57
 (001.267457)  can0  0CF00400   [8]  11 9B 9B C2 2E 00 0F 9B
 (001.268793)  can0  0CF00203   [8]  C1 1E 14 FF F7 6E 24 03
 (001.269373)  can0  0CF00C03   [8]  6E 04 A6 2E FF FF FF FF
 (001.270126)  can0  10FDA300   [8]  FF FF 33 FF FF FF FF FF
 (001.270657)  can0  18F00029   [8]  F0 7D 7D F3 29 FF FF 37
 (001.273415)  can0  18F00131   [8]  FF FF FF 3F 00 FF FF FF
 (001.273935)  can0  18FEF131   [8]  F3 FF FF C3 CC FF FF F0
 (001.274550)  can0  18FEF031   [8]  FF FF FF FF FF FC CC FF
 (001.275139)  can0  18FF4831   [8]  00 00 FF FF 00 00 00 00
 (001.275688)  can0  18FEDF00   [8]  8A A0 28 7D 7D FF FF F5
 (001.276323)  can0  18FEF231   [8]  FF FF FF FF FF FF FF FF
 (001.276895)  can0  0CF00331   [8]  FF FF FF FF FF FF FF FF
 (001.279412)  can0  0CF00203   [8]  C1 16 14 FF F7 71 24 03
 (001.279422)  can0  0C010305   [8]  FF FF FF FF FF F3 FF FF
 (001.280589)  can0  18FCDC00   [8]  9F FF FF FF 50 68 EC 16
 (001.281179)  can0  0CF00300   [8]  D0 64 25 FF FF 0F 82 82
 (001.281729)  can0  1CFE9200   [8]  FF F4 BB FF FF FF 3C 00
 (001.284803)  can0  18F0010B   [8]  CF FF F0 FF FF CD FF FF
 (001.287385)  can0  0CF00400   [8]  11 9B 9B D8 2E 00 0F 9B
 (001.288823)  can0  0CF00203   [8]  C1 16 14 FF F7 71 24 03
 (001.290125)  can0  0CF00C03   [8]  76 04 E6 2E FF FF FF FF
 (001.290133)  can0  0CF00A00   [8]  2C 04 06 18 FF FF FF FF
 (001.290689)  can0  18FD9400   [8]  FD 0C FF FF FF FF FF FF
 (001.291313)  can0  18FEDD00   [8]  FF 87 3D FF FF FF FF FF
 (001.291860)  can0  18F00E00   [8]  5C 31 FF FF D5 9F FF FF
 (001.294713)  can0  18FEBF0B   [8]  30 17 7E 7C 7E 7C FF FF
 (001.295323)  can0  18F03300   [8]  FF FF FF FF FF FF FF FF
 (001.295890)  can0  18FEDF00   [8]  8A A0 28 7D 7D FF FF F5
 (001.299183)  can0  0CF00203   [8]  C1 2D 14 FF F7 93 24 03
 (001.300581)  can0  18FEE000   [8]  0F 00 00 00 25 96 35 00
 (001.301107)  can0  0CF00300   [8]  D0 64 24 FF FF 0F 80 82
 (001.305085)  can0  18FEF200   [8]  AB 00 5B 05 AE 05 E1 FF
 (001.305694)  can0  18F00F00   [8]  22 0F FF FF D5 9F FF FF
 (001.307958)  can0  0CF00400   [8]  01 9B 9B AE 2E 00 0F 9B
 (001.308790)  can0  0CF00203   [8]  C1 2D 14 FF F7 93 24 03
 (001.310150)  can0  0CF00C03   [8]  72 04 BD 2E FF FF FF FF
 (001.310158)  can0  18FEE400   [8]  FF 3F FC FC 00 7F FF FF
 (001.315798)  can0  18FEDF00   [8]  8A A0 28 7D 7D FF FF F5
 (001.315807)  can0  10FCFD00   [8]  FF FF FF FF 5C 72 FF FF
 (001.316319)  can0  0CFD9200   [8]  F4 FF FF FF FF FF FF FF
 (001.319516)  can0  0CF00203   [8]  C1 4A 14 FF F7 B0 24 03
 (001.320609)  can0  0CF00300   [8]  D0 63 24 FF FF 0F 80 82
 (001.323372)  can0  0CF00331   [8]  FF FF FF FF FF FF FF FF
 (001.325140)  can0  18F00100   [8]  FF FF FF FF FF FF FF FF
 (001.327163)  can0  0CF00400   [8]  71 9B 9A C4 2E 00 0F 9B
 (001.328742)  can0  0CF00203   [8]  C1 4A 14 FF F7 B0 24 03
 (001.329329)  can0  0C010305   [8]  FF FF FF FF FF F3 FF FF
 (001.329911)  can0  0CF00C03   [8]  73 04 D2 2E FF FF FF FF
 (001.335762)  can0  18FEDF00   [8]  8A A0 28 7D 7D FF FF F5
 (001.338748)  can0  0CF00203   [8]  C1 4B 14 FF F7 B0 24 03
 (001.340740)  can0  0CF00300   [8]  D0 63 24 FF FF 0F 81 82
 (001.341050)  can0  0CF00A00   [8]  36 04 E0 17 FF FF FF FF
 (001.341845)  can0  18FEF000   [8]  FF FF FF C0 2B FF FF FF
 (001.342234)  can0  18FEBD00   [8]  00 F0 FF FF FF FF FF FF
 (001.342997)  can0  18F00E00   [8]  38 31 FF FF D5 9F FF FF
 (001.345253)  can0  18F03300   [8]  FF FF FF FF FF FF FF FF
 (001.347729)  can0  0CF00400   [8]  61 9B 9A EA 2E 00 0F 9B
 (001.348810)  can0  0CF00203   [8]  C1 4B 14 FF F7 B0 24 03
 (001.349379)  can0  0CF00C03   [8]  6D 04 CB 2E FF FF FF FF
 (001.350004)  can0  18F00503   [8]  7F 12 07 7F 35 20 32 43
 (001.350521)  can0  18FCF200   [8]  E1 FF FF FF FF FF FF FF
 (001.351152)  can0  18FE4A03   [8]  03 0F 4F FF FF F3 FF FF
 (001.355218)  can0  18FEDF00   [8]  8A A0 28 7D 7D FF FF F5
 (001.355753)  can0  18E0FF00   [8]  00 FF FF FF FF FF FF FF
 (001.356315)  can0  18F00F00   [8]  22 0F FF FF D5 9F FF FF
 (001.358717)  can0  0CF00203   [8]  C1 32 14 FF F7 9C 24 03
 (001.360545)  can0  18FD0700   [8]  43 0C FC FF FF FF FF FF
 (001.361110)  can0  0CF00300   [8]  D0 62 24 FF FF 0F 82 82
 (001.361687)  can0  18FEF100   [8]  FF 30 17 FC FF 68 00 CF
 (001.365211)  can0  18FEEE00   [8]  87 FF FF FF FF FF FF FF
 (001.367191)  can0  0CF00400   [8]  21 9A 9A E1 2E 00 0F 9A
 (001.368722)  can0  0CF00203   [8]  C1 32 14 FF F7 9C 24 03
 (001.369345)  can0  0CF00C03   [8]  75 04 F4 2E FF FF FF FF
 (001.370118)  can0  10FDA300   [8]  FF FF 33 FF FF FF FF FF
 (001.370675)  can0  18F00029   [8]  F0 7D 7D F3 29 FF FF 37
 (001.374122)  can0  18F00131   [8]  FF FF FF 3F 00 FF FF FF
 (001.374131)  can0  18FEF131   [8]  F3 FF FF C3 CC FF FF F0
 (001.374490)  can0  18FEF031   [8]  FF FF FF FF FF FC CC FF
 (001.375238)  can0  18FF4831   [8]  00 00 FF FF 00 00 00 00
 (001.375667)  can0  18FEDF00   [8]  8A A0 28 7D 7D FF FF F5
 (001.376807)  can0  18FEF231   [8]  FF FF FF FF FF FF FF FF
 (001.376838)  can0  0CF00331   [8]  FF FF FF FF FF FF FF FF
 (001.379119)  can0  0CF00203   [8]  C1 35 14 FF F7 A6 24 03
 (001.379338)  can0  0C010305   [8]  FF FF FF FF FF F3 FF FF
 (001.380777)  can0  18FCDC00   [8]  9F FF FF FF 50 68 30 17
 (001.381128)  can0  0CF00300   [8]  D0 5F 23 FF FF 0F 81 82
 (001.382618)  can0  1CFE9200   [8]  FF A0 BB FF FF FF 3A 00
 (001.382627)  can0  18FEF500   [8]  A9 FF FF 66 26 FF FF FF
 (001.384915)  can0  18F0010B   [8]  CF FF F0 FF FF CD FF FF
 (001.387213)  can0  0CF00400   [8]  11 99 99 A9 2E 00 0F 99
 (001.388772)  can0  0CF00203   [8]  C1 35 14 FF F7 A6 24 03
 (001.389378)  can0  0CF00C03   [8]  71 04 B9 2E FF FF FF FF
 (001.390137)  can0  14FC9800   [8]  FF 00 00 00 00 00 00 FF
 (001.390713)  can0  0CF00A00   [8]  36 04 06 18 FF FF FF FF
 (001.391312)  can0  18FD9400   [8]  FD 0C FF FF FF FF FF FF
 (001.391883)  can0  18F00E00   [8]  06 31 FF FF D5 9F FF FF
 (001.394932)  can0  18FEBF0B   [8]  30 17 7E 7C 7E 7E FF FF
 (001.395537)  can0  18F03300   [8]  FF FF FF FF FF FF FF FF
 (001.396093)  can0  18FEDF00   [8]  8A A0 28 7D 7D FF FF F5
 (001.399254)  can0  0CF00203   [8]  C1 4D 14 FF F7 C5 24 03
 (001.400631)  can0  18FEE000   [8]  0F 00 00 00 25 96 35 00
 (001.401085)  can0  0CF00300   [8]  D0 5C 22 FF FF 0F 82 82
 (001.401670)  can0  18FEA400   [8]  FF FF 98 2A FF FF C6 2D
 (001.405147)  can0  18FDB400   [8]  00 46 B0 44 FF FF FF FF
 (001.405698)  can0  18FEF200   [8]  C7 00 A1 04 AF 05 E2 FF
 (001.406445)  can0  18F00F00   [8]  22 0F FF FF D5 9F FF FF
 (001.407996)  can0  0CF00400   [8]  71 98 97 BA 2E 00 0F 98
 (001.408813)  can0  0CF00203   [8]  C1 4D 14 FF F7 C5 24 03
 (001.409424)  can0  0CF00C03   [8]  72 04 D9 2E FF FF FF FF
 (001.415759)  can0  18FEDF00   [8]  8A A0 28 7D 7D FF FF F5
 (001.415768)  can0  10FCFD00   [8]  FF FF FF FF 46 6A FF FF
 (001.419626)  can0  0CF00203   [8]  C1 55 14 FF F7 BE 24 03
 (001.420585)  can0  0CF00300   [8]  D0 5A 20 FF FF 0F 83 82
 (001.423349)  can0  0CF00331   [8]  FF FF FF FF FF FF FF FF
 (001.425136)  can0  18FD7C00   [8]  F8 83 00 00 C3 0F 03 FF
 (001.425706)  can0  18F00100   [8]  FF FF FF FF FF FF FF FF
 (001.427035)  can0  0CF00400   [8]  61 97 96 BE 2E 00 0F 97
 (001.428796)  can0  0CF00203   [8]  C1 55 14 FF F7 BE 24 03
 (001.429345)  can0  0C010305   [8]  FF FF FF FF FF F3 FF FF
 (001.429922)  can0  0CF00C03   [8]  6C 04 9E 2E FF FF FF FF
 (001.430496)  can0  18FDB300   [8]  FF FF 53 48 FF FF FF FF
 (001.435170)  can0  18FEDF00   [8]  8A A0 28 7D 7D FF FF F5
 (001.439153)  can0  0CF00203   [8]  C1 43 14 FF F7 AB 24 03
 (001.440699)  can0  0CF00300   [8]  D0 59 1F FF FF 0F 87 82
 (001.441089)  can0  0CF00A00   [8]  36 04 F3 17 FF FF FF FF
 (001.442522)  can0  18FEF000   [8]  FF FF FF C0 2B FF FF FF
 (001.442532)  can0  18F00E00   [8]  EC 30 FF FF D5 9F FF FF
 (001.445247)  can0  18F03300   [8]  FF FF FF FF FF FF FF FF
 (001.445721)  can0  18FE9A00   [8]  20 27 FF FF FF FF FF FF
 (001.447286)  can0  0CF00400   [8]  61 97 96 7E 2E 00 0F 97
 (001.448946)  can0  0CF00203   [8]  C1 43 14 FF F7 AB 24 03
 (001.449375)  can0  0CF00C03   [8]  71 04 9D 2E FF FF FF FF
 (001.450085)  can0  18F00503   [8]  7F 12 07 7F 35 20 32 43
 (001.450546)  can0  18FDB200   [8]  FF FF FF FF 0F 00 FF FF
 (001.451165)  can0  18FE4A03   [8]  03 0F 4F FF FF F3 FF FF
 (001.451703)  can0  18FCF200   [8]  E1 FF FF FF FF FF FF FF
 (001.455198)  can0  18FEDF00   [8]  8A A0 28 7D 7D FF FF F5
 (001.455776)  can0  18F00F00   [8]  22 0F FF FF D5 9F FF FF
 (001.458751)  can0  0CF00203   [8]  C1 3B 14 FF F7 B3 24 03
 (001.460535)  can0  0CF00300   [8]  D0 59 1F FF FF 0F 85 82
 (001.461110)  can0  18FEF100   [8]  FF 4C 17 FC FF 68 00 CF
 (001.467022)  can0  0CF00400   [8]  61 97 96 EC 2D 00 0F 97
 (001.468782)  can0  0CF00203   [8]  C1 3B 14 FF F7 B3 24 03
 (001.469374)  can0  0CF00C03   [8]  6C 04 FA 2D FF FF FF FF
 (001.470688)  can0  10FDA300   [8]  FF FF 35 FF FF FF FF FF
 (001.470697)  can0  18FE9900   [8]  FF FF FF FF FF FF FF FF
 (001.471322)  can0  18F00029   [8]  F0 7D 7D F3 29 FF FF 37
 (001.474055)  can0  18F00131   [8]  FF FF FF 3F 00 FF FF FF
 (001.474065)  can0  18FEF131   [8]  F3 FF FF C3 CC FF FF F0
 (001.474539)  can0  18FEF031   [8]  FF FF FF FF FF FC CC FF
 (001.475254)  can0  18FF4831   [8]  00 00 FF FF 00 00 00 00
 (001.475714)  can0  18FD8C00   [8]  FF FF 11 00 FF FF FF FF
 (001.476812)  can0  18FEF231   [8]  FF FF FF FF FF FF FF FF
 (001.476822)  can0  18FEDF00   [8]  8A A0 28 7D 7D FF FF F5
 (001.477576)  can0  0CF00331   [8]  FF FF FF FF FF FF FF FF
 (001.479195)  can0  0CF00203   [8]  C1 46 14 FF F7 C2 24 03
 (001.479288)  can0  0C010305   [8]  FF FF FF FF FF F3 FF FF
 (001.480901)  can0  18FCDC00   [8]  9F FF FF FF 50 68 4C 17
 (001.481144)  can0  0CF00300   [8]  D0 5A 1F FF FF 0F 86 82
 (001.482365)  can0  1CFE9200   [8]  FF F8 B9 FF FF FF 2C 00
 (001.485176)  can0  18F0010B   [8]  CF FF F0 FF FF CD FF FF
 (001.487071)  can0  0CF00400   [8]  21 97 97 A4 2D 00 0F 97
 (001.488784)  can0  0CF00203   [8]  C1 46 14 FF F7 C2 24 03
 (001.489367)  can0  0CF00C03   [8]  68 04 B1 2D FF FF FF FF
 (001.490143)  can0  0CF00A00   [8]  52 04 5D 17 FF FF FF FF
 (001.490723)  can0  18FD9400   [8]  63 0A FF FF FF FF FF FF
 (001.491347)  can0  18FEFC00   [8]  FF FF FF FF FF FF FF FF
 (001.491883)  can0  18F00E00   [8]  D2 30 FF FF D5 9F FF FF
 (001.495151)  can0  18FEBF0B   [8]  70 17 7E 7C 7C 7C FF FF
 (001.495751)  can0  18FD2000   [8]  00 46 FF FF FF FF FF FF
 (001.496372)  can0  18F03300   [8]  FF FF FF FF FF FF FF FF
 (001.496897)  can0  18FEDF00   [8]  8A A0 28 7D 7D FF FF F5
 (001.499053)  can0  0CF00203   [8]  C1 4E 14 FF F7 B4 24 03
 (001.500801)  can0  18FEE000   [8]  0F 00 00 00 25 96 35 00
 (001.501100)  can0  0CF00300   [8]  D0 5A 20 FF FF 0F 87 82
 (001.505882)  can0  18FEF200   [8]  AB 00 72 05 AE 05 E1 FF
 (001.505892)  can0  18F00F00   [8]  18 0F FF FF D5 9F FF FF
 (001.507253)  can0  0CF00400   [8]  31 97 97 67 2D 00 0F 97
 (001.508935)  can0  0CF00203   [8]  C1 4E 14 FF F7 B4 24 03
 (001.509371)  can0  0CF00C03   [8]  5E 04 45 2D FF FF FF FF
 (001.515770)  can0  18FEDF00   [8]  89 A0 28 7D 7D FF FF F5
 (001.515781)  can0  10FCFD00   [8]  FF FF FF FF 70 64 FF FF
 (001.518754)  can0  0CF00203   [8]  C1 3B 14 FF F7 8B 24 03
 (001.520499)  can0  18FD3E00   [8]  E3 42 FF E0 3C FF FF FF
 (001.521041)  can0  0CF00300   [8]  D0 5B 20 FF FF 0F 8A 82
 (001.523370)  can0  0CF00331   [8]  FF FF FF FF FF FF FF FF
 (001.525167)  can0  18F00100   [8]  FF FF FF FF FF FF FF FF
 (001.527095)  can0  0CF00400   [8]  41 98 97 13 2D 00 0F 98
 (001.528757)  can0  0CF00203   [8]  C1 3B 14 FF F7 8B 24 03
 (001.529353)  can0  0C010305   [8]  FF FF FF FF FF F3 FF FF
 (001.529903)  can0  0CF00C03   [8]  5E 04 36 2D FF FF FF FF
 (001.535182)  can0  18FEDF00   [8]  89 A0 28 7D 7D FF FF F5
 (001.539420)  can0  0CF00203   [8]  C1 35 14 FF F7 A0 24 03
 (001.540786)  can0  18FD4000   [8]  FF 3F 00 FF FF FF FF FF
 (001.541135)  can0  0CF00300   [8]  D0 5B 20 FF FF 0F 88 82
 (001.541868)  can0  0CF00A00   [8]  52 04 EC 16 FF FF FF FF
 (001.542321)  can0  18FEF000   [8]  FF FF FF C0 2B FF FF FF
 (001.543019)  can0  18F00E00   [8]  D2 30 FF FF D5 9F FF FF
 (001.543445)  can0  1CECFF00   [8]  20 0E 00 02 FF CA FE 00
 (001.545140)  can0  18F03300   [8]  FF FF FF FF FF FF FF FF
 (001.547560)  can0  0CF00400   [8]  61 98 97 C9 2C 00 0F 98
 (001.548789)  can0  0CF00203   [8]  C1 35 14 FF F7 A0 24 03
 (001.549436)  can0  0CF00C03   [8]  58 04 B2 2C FF FF FF FF
 (001.550050)  can0  18F00503   [8]  7F 12 07 7F 35 20 32 43
 (001.550615)  can0  18FCF200   [8]  E1 FF FF FF FF FF FF FF
 (001.551135)  can0  18FE4A03   [8]  03 0F 4F FF FF F3 FF FF
 (001.555188)  can0  18FEDF00   [8]  89 A0 28 7D 7D FF FF F5
 (001.555794)  can0  18F00F00   [8]  18 0F FF FF D5 9F FF FF
 (001.558748)  can0  0CF00203   [8]  C1 4F 14 FF F7 E3 24 03
 (001.560548)  can0  0CF00300   [8]  D0 5B 20 FF FF 0F 88 82
 (001.561125)  can0  18FEF100   [8]  FF 58 17 FC FF 68 00 CF
 (001.565191)  can0  18FCC500   [8]  E3 42 FF FF FF FF FF FF
 (001.565775)  can0  0CFD9200   [8]  F4 FF FF FF FF FF FF FF
 (001.567123)  can0  0CF00400   [8]  01 98 98 81 2C 00 0F 98
 (001.568833)  can0  0CF00203   [8]  C1 4F 14 FF F7 E3 24 03
 (001.569396)  can0  0CF00C03   [8]  4D 04 8D 2C FF FF FF FF
 (001.570671)  can0  10FDA300   [8]  FF FF 32 FF FF FF FF FF
 (001.570682)  can0  18F00029   [8]  F0 7D 7D F3 29 FF FF 37
 (001.574021)  can0  18F00131   [8]  FF FF FF 3F 00 FF FF FF
 (001.574030)  can0  18FEF131   [8]  F3 FF FF C3 CC FF FF F0
 (001.574542)  can0  18FEF031   [8]  FF FF FF FF FF FC CC FF
 (001.575986)  can0  18FF4831   [8]  00 00 FF FF 00 00 00 00
 (001.575996)  can0  18FEDF00   [8]  89 A0 28 7D 7D FF FF F5
 (001.576273)  can0  18FEF231   [8]  FF FF FF FF FF FF FF FF
 (001.576905)  can0  0CF00331   [8]  FF FF FF FF FF FF FF FF
 (001.579282)  can0  0CF00203   [8]  C1 7E 14 FF F7 21 25 03
 (001.579295)  can0  0C010305   [8]  FF FF FF FF FF F3 FF FF
 (001.580931)  can0  18FCDC00   [8]  9F FF FF FF 50 68 58 17
 (001.581149)  can0  0CF00300   [8]  D0 5B 21 FF FF 0F 88 82
 (001.582421)  can0  1CFE9200   [8]  FF 94 B7 FF FF FF 2E 00
 (001.585369)  can0  18F0010B   [8]  CF FF F0 FF FF CD FF FF
 (001.587020)  can0  0CF00400   [8]  01 98 98 73 2C 00 0F 98
 (001.588767)  can0  0CF00203   [8]  C1 7E 14 FF F7 21 25 03
 (001.589369)  can0  0CF00C03   [8]  43 04 65 2C FF FF FF FF
 (001.590112)  can0  0CF00A00   [8]  5E 03 4A 17 FF FF FF FF
 (001.590714)  can0  18FD9400   [8]  C9 07 FF FF FF FF FF FF
 (001.591317)  can0  18FEEF00   [8]  FF FF FF 41 A2 7D FF FA
 (001.591868)  can0  18F00E00   [8]  C2 30 FF FF D5 9F FF FF
 (001.592444)  can0  1CEBFF00   [8]  01 43 FF BF 00 09 08 54
 (001.595305)  can0  18F03300   [8]  FF FF FF FF FF FF FF FF
 (001.595720)  can0  18FEBF0B   [8]  90 17 7E 7C 7E 7A FF FF
 (001.596799)  can0  18FEDF00   [8]  89 A0 28 7D 7D FF FF F5
 (001.599060)  can0  0CF00203   [8]  C1 8C 14 FF F7 27 25 03
 (001.600825)  can0  18FEE000   [8]  0F 00 00 00 25 96 35 00
 (001.601058)  can0  0CF00300   [8]  D0 5B 21 FF FF 0F 89 82
 (001.605251)  can0  18FEF200   [8]  A9 00 81 05 AE 05 E1 FF
 (001.605738)  can0  18F00F00   [8]  18 0F FF FF D5 9F FF FF
 (001.607207)  can0  0CF00400   [8]  11 98 98 46 2C 00 0F 98
 (001.608914)  can0  0CF00203   [8]  C1 8C 14 FF F7 27 25 03
 (001.609366)  can0  0CF00C03   [8]  3D 04 58 2C FF FF FF FF
 (001.610824)  can0  18FEDB00   [8]  FF FF 54 62 FF FF FF FF
 (001.615887)  can0  18FEDF00   [8]  89 A0 28 7D 7D FF FF F5
 (001.615898)  can0  10FCFD00   [8]  FF FF FF FF 19 63 FF FF
 (001.618765)  can0  0CF00203   [8]  C1 80 14 FF F7 13 25 03
 (001.620560)  can0  0CF00300   [8]  D0 5B 21 FF FF 0F 88 82
 (001.623341)  can0  0CF00331   [8]  FF FF FF FF FF FF FF FF
 (001.625197)  can0  18F00100   [8]  FF FF FF FF FF FF FF FF
 (001.627077)  can0  0CF00400   [8]  31 98 98 44 2C 00 0F 98
 (001.628831)  can0  0CF00203   [8]  C1 80 14 FF F7 13 25 03
 (001.629374)  can0  0C010305   [8]  FF FF FF FF FF F3 FF FF
 (001.629920)  can0  0CF00C03   [8]  42 04 49 2C FF FF FF FF
 (001.630497)  can0  18FEF600   [8]  FF 14 62 FF FF FF FF FF
 (001.635813)  can0  18FEDF00   [8]  89 A0 28 7D 7D FF FF F5
 (001.639356)  can0  0CF00203   [8]  C1 68 14 FF F7 EC 24 03
 (001.640794)  can0  0CF00300   [8]  D0 5C 21 FF FF 0F 87 82
 (001.641161)  can0  0CF00A00   [8]  58 02 22 18 FF FF FF FF
 (001.641860)  can0  18FEF000   [8]  FF FF FF C0 2B FF FF FF
 (001.642321)  can0  18F00E00   [8]  92 30 FF FF D5 9F FF FF
 (001.645199)  can0  18F03300   [8]  FF FF FF FF FF FF FF FF
 (001.647655)  can0  0CF00400   [8]  51 99 98 11 2C 00 0F 99
 (001.647665)  can0  1CEBFF00   [8]  02 00 09 08 ED 14 1F 01
 (001.648835)  can0  0CF00203   [8]  C1 68 14 FF F7 EC 24 03
 (001.649425)  can0  0CF00C03   [8]  40 04 FB 2B FF FF FF FF
 (001.650042)  can0  18F00503   [8]  7F 12 07 7F 35 20 32 43
 (001.650617)  can0  18FCF200   [8]  E1 FF FF FF FF FF FF FF
 (001.651168)  can0  18FE4A03   [8]  03 0F 4F FF FF F3 FF FF
 (001.651794)  can0  18FD9503   [8]  CC FF FF AF FF FF FF FF
 (001.652569)  can0  18FEF803   [8]  FF FF FF FF 3A 2C FF FF
 (001.655325)  can0  18FEDF00   [8]  89 A0 28 7D 7D FF FF F5
 (001.655898)  can0  18FDC600   [8]  FC 04 FF FF FF FF FF FF
 (001.656475)  can0  18F00F00   [8]  18 0F FF FF D5 9F FF FF
 (001.658746)  can0  0CF00203   [8]  C1 4D 14 FF F7 CD 24 03
 (001.660543)  can0  0CF00300   [8]  D0 5C 21 FF FF 0F 87 82
 (001.661123)  can0  18FEF100   [8]  FF 80 17 FC FF 68 00 CF
 (001.667803)  can0  0CF00400   [8]  51 99 98 0F 2C 00 0F 99
 (001.668788)  can0  0CF00203   [8]  C1 4D 14 FF F7 CD 24 03
 (001.669488)  can0  0CF00C03   [8]  40 04 24 2C FF FF FF FF
 (001.670274)  can0  10FDA300   [8]  FF FF 35 FF FF FF FF FF
 (001.670731)  can0  18F00029   [8]  F0 7D 7D F3 29 FF FF 37
 (001.674111)  can0  18F00131   [8]  FF FF FF 3F 00 FF FF FF
 (001.674122)  can0  18FEF131   [8]  F3 FF FF C3 CC FF FF F0
 (001.674540)  can0  18FEF031   [8]  FF FF FF FF FF FC CC FF
 (001.675183)  can0  18FF4831   [8]  00 00 FF FF 00 00 00 00
 (001.675744)  can0  18FEDF00   [8]  89 A0 28 7D 7D FF FF F5
 (001.676366)  can0  18FEF231   [8]  FF FF FF FF FF FF FF FF
 (001.676892)  can0  0CF00331   [8]  FF FF FF FF FF FF FF FF
 (001.679210)  can0  0CF00203   [8]  C1 57 14 FF F7 D0 24 03
 (001.679282)  can0  0C010305   [8]  FF FF FF FF FF F3 FF FF
 (001.680750)  can0  18FCDC00   [8]  9F FF FF FF 50 68 80 17
 (001.681184)  can0  0CF00300   [8]  D0 5C 21 FF FF 0F 88 82
 (001.681750)  can0  1CFE9200   [8]  FF 78 B9 FF FF FF 30 00
 (001.685589)  can0  18F0010B   [8]  CF FF F0 FF FF CD FF FF
 (001.687048)  can0  0CF00400   [8]  51 99 98 1D 2C 00 0F 99
 (001.688820)  can0  0CF00203   [8]  C1 57 14 FF F7 D0 24 03
 (001.689379)  can0  0CF00C03   [8]  3E 04 15 2C FF FF FF FF
 (001.690281)  can0  0CF00A00   [8]  3B 02 0F 18 FF FF FF FF
 (001.690771)  can0  18FD9400   [8]  C9 07 FF FF FF FF FF FF
 (001.691347)  can0  18F00E00   [8]  46 30 FF FF D5 9F FF FF
 (001.695293)  can0  18F03300   [8]  FF FF FF FF FF FF FF FF
 (001.695773)  can0  18FEBF0B   [8]  A0 17 7D 7D 7B 85 FF FF
 (001.696399)  can0  18FEDF00   [8]  89 A0 28 7D 7D FF FF F5
 (001.699561)  can0  0CF00203   [8]  C1 82 14 FF F7 22 25 03
 (001.700540)  can0  18FEE000   [8]  0F 00 00 00 25 96 35 00
 (001.701112)  can0  0CF00300   [8]  D0 5C 21 FF FF 0F 88 82
 (001.705201)  can0  18FEF200   [8]  92 00 6E 06 AF 05 E1 FF
 (001.705727)  can0  18F00F00   [8]  18 0F FF FF D5 9F FF FF
 (001.707284)  can0  0CF00400   [8]  61 99 98 22 2C 00 0F 99
 (001.708923)  can0  0CF00203   [8]  C1 82 14 FF F7 22 25 03
 (001.709362)  can0  0CF00C03   [8]  35 04 0F 2C FF FF FF FF
 (001.715182)  can0  18FEDF00   [8]  89 A0 28 7D 7D FF FF F5
 (001.715767)  can0  10FCFD00   [8]  FF FF FF FF D9 63 FF FF
 (001.718744)  can0  0CF00203   [8]  C1 B2 14 FF F7 7F 25 03
 (001.720564)  can0  0CF00300   [8]  D0 5C 21 FF FF 0F 87 82
 (001.723539)  can0  0CF00331   [8]  FF FF FF FF FF FF FF FF
 (001.725196)  can0  18F00100   [8]  FF FF FF FF FF FF FF FF
 (001.727096)  can0  0CF00400   [8]  61 99 98 F0 2B 00 0F 99
 (001.728803)  can0  0CF00203   [8]  C1 B2 14 FF F7 7F 25 03
 (001.729351)  can0  0C010305   [8]  FF FF FF FF FF F3 FF FF
 (001.729923)  can0  0CF00C03   [8]  31 04 13 2C FF FF FF FF
 (001.735781)  can0  18FEDF00   [8]  89 A0 28 7D 7D FF FF F5
 (001.739359)  can0  0CF00203   [8]  C1 B3 14 FF F7 8B 25 03
 (001.740802)  can0  0CF00300   [8]  D0 5C 21 FF FF 0F 88 82
 (001.741159)  can0  0CF00A00   [8]  03 02 5A 18 FF FF FF FF
 (001.741896)  can0  18FEF000   [8]  FF FF FF C0 2B FF FF FF
 (001.742345)  can0  18F00E00   [8]  16 30 FF FF D5 9F FF FF
 (001.745246)  can0  18F03300   [8]  FF FF FF FF FF FF FF FF
 (001.747095)  can0  0CF00400   [8]  51 99 98 14 2C 00 0F 99
 (001.748787)  can0  0CF00203   [8]  C1 B3 14 FF F7 8B 25 03
 (001.749367)  can0  0CF00C03   [8]  2B 04 FF 2B FF FF FF FF
 (001.749966)  can0  18F00503   [8]  7F 12 07 7F 35 20 32 43
 (001.750567)  can0  18FCF200   [8]  E1 FF FF FF FF FF FF FF
 (001.751111)  can0  18FE4A03   [8]  03 0F 4F FF FF F3 FF FF
 (001.755374)  can0  18FEDF00   [8]  89 A0 28 7D 7D FF FF F5
 (001.755820)  can0  18F00F00   [8]  18 0F FF FF D5 9F FF FF
 (001.758755)  can0  0CF00203   [8]  C1 AA 14 FF F7 6E 25 03
 (001.760531)  can0  0CF00300   [8]  D0 5C 21 FF FF 0F 88 82
 (001.761146)  can0  18FEF100   [8]  FF A4 17 FC FF 68 00 CF
 (001.767263)  can0  0CF00400   [8]  41 99 98 41 2C 00 0F 99
 (001.768975)  can0  0CF00203   [8]  C1 AA 14 FF F7 6E 25 03
 (001.769375)  can0  0CF00C03   [8]  2F 04 5F 2C FF FF FF FF
 (001.770687)  can0  10FDA300   [8]  FF FF 34 FF FF FF FF FF
 (001.770698)  can0  18F00029   [8]  F0 7D 7D F3 29 FF FF 37
 (001.774039)  can0  18F00131   [8]  FF FF FF 3F 00 FF FF FF
 (001.774049)  can0  18FEF131   [8]  F3 FF FF C3 CC FF FF F0
 (001.774546)  can0  18FEF031   [8]  FF FF FF FF FF FC CC FF
 (001.775257)  can0  18FF4831   [8]  00 00 FF FF 00 00 00 00
 (001.775720)  can0  18FEDF00   [8]  89 A0 28 7D 7D FF FF F5
 (001.776377)  can0  18FEF231   [8]  FF FF FF FF FF FF FF FF
 (001.776904)  can0  0CF00331   [8]  FF FF FF FF FF FF FF FF
 (001.779088)  can0  0CF00203   [8]  C1 B7 14 FF F7 75 25 03
 (001.779295)  can0  0C010305   [8]  FF FF FF FF FF F3 FF FF
 (001.780730)  can0  18FCDC00   [8]  9F FF FF FF 50 68 A4 17
 (001.781318)  can0  0CF00300   [8]  D0 5C 21 FF FF 0F 88 82
 (001.781864)  can0  1CFE9200   [8]  FF D4 B7 FF FF FF 32 00
 (001.785817)  can0  18F0010B   [8]  CF FF F0 FF FF CD FF FF
 (001.787067)  can0  0CF00400   [8]  41 99 98 54 2C 00 0F 99
 (001.788764)  can0  0CF00203   [8]  C1 B7 14 FF F7 75 25 03
 (001.789331)  can0  0CF00C03   [8]  30 04 35 2C FF FF FF FF
 (001.790301)  can0  0CF00A00   [8]  32 02 47 18 FF FF FF FF
 (001.790789)  can0  18FD9400   [8]  C9 07 FF FF FF FF FF FF
 (001.791372)  can0  18F00E00   [8]  0E 30 FF FF D5 9F FF FF
 (001.795199)  can0  18F03300   [8]  FF FF FF FF FF FF FF FF
 (001.795874)  can0  18FEDF00   [8]  89 A0 28 7D 7D FF FF F5
 (001.796349)  can0  18FEBF0B   [8]  F0 17 7E 7C 80 7A FF FF
 (001.798746)  can0  0CF00203   [8]  C1 C7 14 FF F7 99 25 03
 (001.800660)  can0  18FEE000   [8]  0F 00 00 00 25 96 35 00
 (001.801160)  can0  0CF00300   [8]  D0 5C 21 FF FF 0F 88 82
 (001.805188)  can0  18FEF200   [8]  97 00 35 06 AE 05 E1 FF
 (001.805742)  can0  18F00F00   [8]  18 0F FF FF D5 9F FF FF
 (001.807182)  can0  0CF00400   [8]  31 98 98 33 2C 00 0F 98
 (001.808801)  can0  0CF00203   [8]  C1 C7 14 FF F7 99 25 03
 (001.809383)  can0  0CF00C03   [8]  2F 04 41 2C FF FF FF FF
 (001.813896)  can0  18FECA31   [8]  00 FF 00 00 00 00 FF FF
 (001.814439)  can0  18F11031   [8]  00 00 FF FF FF FF FF FF
 (001.815185)  can0  18FEDF00   [8]  89 A0 28 7D 7D FF FF F5
 (001.815761)  can0  10FCFD00   [8]  FF FF FF FF 99 63 FF FF
 (001.816361)  can0  0CFD9200   [8]  F4 FF FF FF FF FF FF FF
 (001.818738)  can0  0CF00203   [8]  C1 C2 14 FF F7 9D 25 03
 (001.820558)  can0  0CF00300   [8]  D0 5C 21 FF FF 0F 88 82
 (001.823512)  can0  0CF00331   [8]  FF FF FF FF FF FF FF FF
 (001.825215)  can0  18F00100   [8]  FF FF FF FF FF FF FF FF
 (001.827071)  can0  0CF00400   [8]  41 98 98 3C 2C 00 0F 98
 (001.828791)  can0  0CF00203   [8]  C1 C2 14 FF F7 9D 25 03
 (001.829324)  can0  0C010305   [8]  FF FF FF FF FF F3 FF FF
 (001.830021)  can0  0CF00C03   [8]  31 04 34 2C FF FF FF FF
 (001.835246)  can0  18FEDF00   [8]  89 A0 28 7D 7D FF FF F5
 (001.839292)  can0  0CF00203   [8]  C1 BB 14 FF F7 96 25 03
 (001.840803)  can0  0CF00300   [8]  D0 5C 21 FF FF 0F 88 82
 (001.841109)  can0  0CF00A00   [8]  45 02 34 18 FF FF FF FF
 (001.841821)  can0  18FEF000   [8]  FF FF FF C0 2B FF FF FF
 (001.842271)  can0  18F00E00   [8]  24 30 FF FF D5 9F FF FF
 (001.845238)  can0  18F03300   [8]  FF FF FF FF FF FF FF FF
 (001.847096)  can0  0CF00400   [8]  31 98 98 5C 2C 00 0F 98
 (001.848779)  can0  0CF00203   [8]  C1 BB 14 FF F7 96 25 03
 (001.849369)  can0  0CF00C03   [8]  2D 04 3F 2C FF FF FF FF
 (001.849968)  can0  18F00503   [8]  7F 12 07 7F 35 20 32 43
 (001.850542)  can0  18FCF200   [8]  E1 FF FF FF FF FF FF FF
 (001.851111)  can0  18FE4A03   [8]  03 0F 4F FF FF F3 FF FF
 (001.855358)  can0  18FEDF00   [8]  89 A0 28 7D 7D FF FF F5
 (001.855823)  can0  18F00F00   [8]  22 0F FF FF D5 9F FF FF
 (001.858753)  can0  0CF00203   [8]  C1 C4 14 FF F7 96 25 03
 (001.860597)  can0  0CF00300   [8]  D0 5C 21 FF FF 0F 89 82
 (001.861171)  can0  18FEF100   [8]  FF C8 17 FC FF 68 00 CF
 (001.867710)  can0  0CF00400   [8]  31 98 98 51 2C 00 0F 98
 (001.868823)  can0  0CF00203   [8]  C1 C4 14 FF F7 96 25 03
 (001.869516)  can0  0CF00C03   [8]  31 04 72 2C FF FF FF FF
 (001.870293)  can0  10FDA300   [8]  FF FF 33 FF FF FF FF FF
 (001.870750)  can0  18F00029   [8]  F0 7D 7D F3 29 FF FF 37
 (001.874068)  can0  18F00131   [8]  FF FF FF 3F 00 FF FF FF
 (001.874079)  can0  18FEF131   [8]  F3 FF FF C3 CC FF FF F0
 (001.874547)  can0  18FEF031   [8]  FF FF FF FF FF FC CC FF
 (001.875145)  can0  18FF4831   [8]  00 00 FF FF 00 00 00 00
 (001.875720)  can0  18FEDF00   [8]  89 A0 28 7D 7D FF FF F5
 (001.876317)  can0  18FEF231   [8]  FF FF FF FF FF FF FF FF
 (001.876901)  can0  0CF00331   [8]  FF FF FF FF FF FF FF FF
 (001.879077)  can0  0CF00203   [8]  C1 D5 14 FF F7 AD 25 03
 (001.879268)  can0  0C010305   [8]  FF FF FF FF FF F3 FF FF
 (001.880639)  can0  18FCDC00   [8]  9F FF FF FF 50 68 C8 17
 (001.881214)  can0  0CF00300   [8]  D0 5B 21 FF FF 0F 88 82
 (001.881798)  can0  1CFE9200   [8]  FF B0 B7 FF FF FF 32 00
 (001.886049)  can0  18F0010B   [8]  CF FF F0 FF FF CD FF FF
 (001.887100)  can0  0CF00400   [8]  21 98 98 32 2C 00 0F 98
 (001.888822)  can0  0CF00203   [8]  C1 D5 14 FF F7 AD 25 03
 (001.889372)  can0  0CF00C03   [8]  2D 04 1E 2C FF FF FF FF
 (001.890303)  can0  14FC9800   [8]  FF 00 00 00 00 00 00 FF
 (001.890789)  can0  0CF00A00   [8]  6A 02 0F 18 FF FF FF FF
 (001.891389)  can0  18FD9400   [8]  C9 07 FF FF FF FF FF FF
 (001.891936)  can0  18F00E00   [8]  72 30 FF FF D5 9F FF FF
 (001.895205)  can0  18F03300   [8]  FF FF FF FF FF FF FF FF
 (001.896522)  can0  18FEDF00   [8]  89 A0 28 7D 7D FF FF F5
 (001.896530)  can0  18FEBF0B   [8]  F0 17 7E 7C 78 7C FF FF
 (001.898937)  can0  0CF00203   [8]  C1 D1 14 FF F7 B0 25 03
 (001.900815)  can0  18FEE000   [8]  0F 00 00 00 25 96 35 00
 (001.901120)  can0  0CF00300   [8]  D0 5B 21 FF FF 0F 88 82
 (001.905195)  can0  18FDB400   [8]  20 46 99 44 FF FF FF FF
 (001.905780)  can0  18FEF200   [8]  99 00 2E 06 AF 05 E1 FF
 (001.906374)  can0  18F00F00   [8]  22 0F FF FF D5 9F FF FF
 (001.907196)  can0  0CF00400   [8]  21 98 98 2F 2C 00 0F 98
 (001.908797)  can0  0CF00203   [8]  C1 D1 14 FF F7 B0 25 03
 (001.909965)  can0  0CF00C03   [8]  2E 04 38 2C FF FF FF FF
 (001.915210)  can0  18FEDF00   [8]  89 A0 28 7D 7D FF FF F5
 (001.915796)  can0  10FCFD00   [8]  FF FF FF FF 96 62 FF FF
 (001.918730)  can0  0CF00203   [8]  C1 BC 14 FF F7 98 25 03
 (001.920587)  can0  0CF00300   [8]  D0 5B 21 FF FF 0F 89 82
 (001.923510)  can0  0CF00331   [8]  FF FF FF FF FF FF FF FF
 (001.925245)  can0  18F00100   [8]  FF FF FF FF FF FF FF FF
 (001.927125)  can0  0CF00400   [8]  01 98 98 48 2C 00 0F 98
 (001.928839)  can0  0CF00203   [8]  C1 BC 14 FF F7 98 25 03
 (001.929331)  can0  0C010305   [8]  FF FF FF FF FF F3 FF FF
 (001.929920)  can0  0CF00C03   [8]  2F 04 35 2C FF FF FF FF
 (001.930493)  can0  18FDB300   [8]  FF FF 59 48 FF FF FF FF
 (001.935640)  can0  18FEDF00   [8]  89 A0 28 7D 7D FF FF F5
 (001.939166)  can0  0CF00203   [8]  C1 BE 14 FF F7 93 25 03
 (001.940651)  can0  0CF00300   [8]  D0 5B 21 FF FF 0F 89 82
 (001.941114)  can0  0CF00A00   [8]  74 02 D7 17 FF FF FF FF
 (001.942586)  can0  18FEF000   [8]  FF FF FF C0 2B FF FF FF
 (001.942598)  can0  18F00E00   [8]  B2 30 FF FF D5 9F FF FF
 (001.945221)  can0  18F03300   [8]  FF FF FF FF FF FF FF FF
 (001.947070)  can0  0CF00400   [8]  11 98 98 48 2C 00 0F 98
 (001.948784)  can0  0CF00203   [8]  C1 BE 14 FF F7 93 25 03
 (001.949362)  can0  0CF00C03   [8]  2E 04 58 2C FF FF FF FF
 (001.949979)  can0  18F00503   [8]  7F 12 07 7F 35 20 32 43
 (001.950569)  can0  18FDB200   [8]  FF FF FF FF 0F 00 FF FF
 (001.951112)  can0  18FE4A03   [8]  03 0F 4F FF FF F3 FF FF
 (001.951699)  can0  18FCF200   [8]  E1 FF FF FF FF FF FF FF
 (001.955305)  can0  18FEDF00   [8]  89 A0 28 7D 7D FF FF F5
 (001.955842)  can0  18F00F00   [8]  22 0F FF FF D5 9F FF FF
 (001.958750)  can0  0CF00203   [8]  C1 D6 14 FF F7 B2 25 03
 (001.960558)  can0  0CF00300   [8]  D0 5B 21 FF FF 0F 88 82
 (001.961170)  can0  18FEF100   [8]  FF E8 17 FC FF 68 00 CF
 (001.967676)  can0  0CF00400   [8]  11 98 98 52 2C 00 0F 98
 (001.968806)  can0  0CF00203   [8]  C1 D6 14 FF F7 B2 25 03
 (001.969380)  can0  0CF00C03   [8]  31 04 56 2C FF FF FF FF
 (001.970660)  can0  10FDA300   [8]  FF FF 34 FF FF FF FF FF
 (001.970729)  can0  18F00029   [8]  F0 7D 7D F3 29 FF FF 37
 (001.974050)  can0  18F00131   [8]  FF FF FF 3F 00 FF FF FF
 (001.974061)  can0  18E0FF31   [8]  00 FF FF FF FF F0 FF FF
 (001.974555)  can0  18FEF131   [8]  F3 FF FF C3 CC FF FF F0
 (001.975914)  can0  18FEF031   [8]  FF FF FF FF FF FC CC FF
 (001.975923)  can0  18FD8C00   [8]  FF FF 12 00 FF FF FF FF
 (001.976320)  can0  18FEFC31   [8]  FF 76 FF FF FF FF 00 FF
 (001.976866)  can0  18FEDF00   [8]  89 A0 28 7D 7D FF FF F5
 (001.977445)  can0  18FEAE31   [8]  FF FF 61 61 FF FF FF FF
 (001.978016)  can0  18FEF731   [8]  FF FF FF FF 1A 01 FF FF
 (001.978617)  can0  18FF4831   [8]  00 00 FF FF 00 00 00 00
 (001.979191)  can0  0CF00203   [8]  C1 DD 14 FF F7 BC 25 03
 (001.979773)  can0  0C010305   [8]  FF FF FF FF FF F3 FF FF
 (001.980367)  can0  18FD8331   [8]  F8 FF FF FF FF FF FF FF
 (001.980904)  can0  18FCDC00   [8]  9F FF FF FF 50 68 E8 17
 (001.981502)  can0  18FEF831   [8]  FF FF FF FF FF FF FF FF
 (001.982069)  can0  0CF00300   [8]  D0 5B 21 FF FF 0F 87 82
 (001.982657)  can0  18FEF231   [8]  FF FF FF FF FF FF FF FF
 (001.983207)  can0  1CFE9200   [8]  FF C0 B7 FF FF FF 30 00
 (001.983805)  can0  18FEFA31   [8]  FF C1 C2 FF FF FF FF FF
 (001.984363)  can0  18FEC131   [8]  B5 43 67 06 FF FF FF FF
 (001.985009)  can0  0CF00331   [8]  FF FF FF FF FF FF FF FF
 (001.986323)  can0  18F0010B   [8]  CF FF F0 FF FF CD FF FF
 (001.987324)  can0  0CF00400   [8]  11 98 98 31 2C 00 0F 98
 (001.988812)  can0  0CF00203   [8]  C1 DD 14 FF F7 BC 25 03
 (001.989357)  can0  0CF00C03   [8]  2B 04 0B 2C FF FF FF FF
 (001.990241)  can0  0CF00A00   [8]  AC 02 D7 17 FF FF FF FF
 (001.990805)  can0  18FD9400   [8]  C9 07 FF FF FF FF FF FF
 (001.991385)  can0  18F00E00   [8]  0A 31 FF FF D5 9F FF FF
 (001.995195)  can0  18FD2000   [8]  20 46 FF FF FF FF FF FF
 (001.995952)  can0  18F03300   [8]  FF FF FF FF FF FF FF FF
 (001.996360)  can0  18FEBF0B   [8]  F0 17 7E 7C 7E 7C FF FF
 (001.996976)  can0  18FEDF00   [8]  89 A0 28 7D 7D FF FF F5
 (001.998931)  can0  0CF00203   [8]  C1 CB 14 FF F7 AA 25 03
 (002.000656)  can0  18FEE000   [8]  0F 00 00 00 25 96 35 00
 (002.001154)  can0  0CF00300   [8]  D0 5B 21 FF FF 0F 88 82
 (002.005354)  can0  18FEF200   [8]  98 00 45 06 AE 05 E1 FF
 (002.005795)  can0  18F00F00   [8]  18 0F FF FF D5 9F FF FF
 (002.007269)  can0  0CF00400   [8]  11 98 98 3F 2C 00 0F 98
 (002.008813)  can0  0CF00203   [8]  C1 CB 14 FF F7 AA 25 03
 (002.009385)  can0  0CF00C03   [8]  29 04 4F 2C FF FF FF FF
 (002.015221)  can0  18FEDF00   [8]  89 A0 28 7D 7D FF FF F5
 (002.015809)  can0  10FCFD00   [8]  FF FF FF FF A0 62 FF FF
 (002.018788)  can0  0CF00203   [8]  C1 C4 14 FF F7 AA 25 03
 (002.020671)  can0  18FD3E00   [8]  E9 42 FF E3 3C FF FF FF
 (002.021147)  can0  0CF00300   [8]  D0 5B 21 FF FF 0F 88 82
 (002.023537)  can0  0CF00331   [8]  FF FF FF FF FF FF FF FF
 (002.025252)  can0  18F00100   [8]  FF FF FF FF FF FF FF FF
 (002.027148)  can0  0CF00400   [8]  01 98 98 3F 2C 00 0F 98
 (002.028797)  can0  0CF00203   [8]  C1 C4 14 FF F7 AA 25 03
 (002.029391)  can0  0C010305   [8]  FF FF FF FF FF F3 FF FF
 (002.029894)  can0  0CF00C03   [8]  2C 04 36 2C FF FF FF FF
 (002.035282)  can0  18FEDF00   [8]  89 A0 28 7D 7D FF FF F5
 (002.038921)  can0  0CF00203   [8]  C1 EA 14 FF F7 E1 25 03
 (002.040691)  can0  18FD4000   [8]  FF 3F 00 FF FF FF FF FF
 (002.041265)  can0  0CF00300   [8]  D0 5B 21 FF FF 0F 88 82
 (002.041810)  can0  0CF00A00   [8]  AC 02 CD 17 FF FF FF FF
 (002.042371)  can0  18FEF000   [8]  FF FF FF C0 2B FF FF FF
 (002.042943)  can0  18F00E00   [8]  9E 31 FF FF D5 9F FF FF
 (002.045241)  can0  18F03300   [8]  FF FF FF FF FF FF FF FF
 (002.047111)  can0  0CF00400   [8]  01 98 98 4E 2C 00 0F 98
 (002.048754)  can0  0CF00203   [8]  C1 EA 14 FF F7 E1 25 03
 (002.049372)  can0  0CF00C03   [8]  27 04 47 2C FF FF FF FF
 (002.049975)  can0  18F00503   [8]  7F 12 07 7F 35 20 32 43
 (002.050695)  can0  18FCF200   [8]  E1 FF FF FF FF FF FF FF
 (002.051118)  can0  18FE4A03   [8]  03 0F 4F FF FF F3 FF FF
 (002.055426)  can0  18FEDF00   [8]  89 A0 28 7D 7D FF FF F5
 (002.055843)  can0  18F00F00   [8]  18 0F FF FF D5 9F FF FF
 (002.058743)  can0  0CF00203   [8]  C1 17 15 FF F7 28 26 03
 (002.060582)  can0  0CF00300   [8]  D0 5B 21 FF FF 0F 87 82
 (002.061169)  can0  18FEF100   [8]  FF F4 17 FC FF 68 00 CF
 (002.065255)  can0  18FCC500   [8]  E9 42 FF FF FF FF FF FF
 (002.065847)  can0  0CFD9200   [8]  F4 FF FF FF FF FF FF FF
 (002.067146)  can0  0CF00400   [8]  11 98 98 1F 2C 00 0F 98
 (002.068910)  can0  0CF00203   [8]  C1 17 15 FF F7 28 26 03
 (002.069345)  can0  0CF00C03   [8]  24 04 41 2C FF FF FF FF
 (002.070338)  can0  10FDA300   [8]  FF FF 33 FF FF FF FF FF
 (002.070672)  can0  18F00029   [8]  F0 7D 7D F3 29 FF FF 37
 (002.073547)  can0  18F00131   [8]  FF FF FF 3F 00 FF FF FF
 (002.073943)  can0  18FEF131   [8]  F3 FF FF C3 CC FF FF F0
 (002.074546)  can0  18FEF031   [8]  FF FF FF FF FF FC CC FF
 (002.075140)  can0  18FF4831   [8]  00 00 FF FF 00 00 00 00
 (002.075717)  can0  18FEDF00   [8]  89 A0 28 7D 7D FF FF F5
 (002.076321)  can0  18FEF231   [8]  FF FF FF FF FF FF FF FF
 (002.076886)  can0  0CF00331   [8]  FF FF FF FF FF FF FF FF
 (002.078747)  can0  0CF00203   [8]  C1 22 15 FF F7 45 26 03
 (002.079346)  can0  0C010305   [8]  FF FF FF FF FF F3 FF FF
 (002.079917)  can0  18FECA03   [8]  00 FF 00 00 00 00 FF FF
 (002.080672)  can0  18FCDC00   [8]  9F FF FF FF 50 68 F4 17
 (002.081252)  can0  0CF00300   [8]  D0 5B 21 FF FF 0F 88 82
 (002.081826)  can0  1CFE9200   [8]  FF EC B6 FF FF FF 30 00
 (002.086970)  can0  18F0010B   [8]  CF FF F0 FF FF CD FF FF
 (002.087120)  can0  0CF00400   [8]  01 98 98 3D 2C 00 0F 98
 (002.088784)  can0  0CF00203   [8]  C1 22 15 FF F7 45 26 03
 (002.089349)  can0  0CF00C03   [8]  1C 04 2E 2C FF FF FF FF
 (002.090244)  can0  0CF00A00   [8]  AC 02 B1 17 FF FF FF FF
 (002.090807)  can0  18FD9400   [8]  C9 07 FF FF FF FF FF FF
 (002.091392)  can0  18FEEF00   [8]  FF FF FF 40 9F 7D FF FA
 (002.091966)  can0  18F00E00   [8]  CE 31 FF FF D5 9F FF FF
 (002.095246)  can0  18F03300   [8]  FF FF FF FF FF FF FF FF
 (002.096548)  can0  18FEDF00   [8]  89 A0 28 7D 7D FF FF F5
 (002.096556)  can0  18FEBF0B   [8]  20 18 7F 7B 7B 7B FF FF
 (002.098965)  can0  0CF00203   [8]  C1 01 15 FF F7 12 26 03
 (002.100968)  can0  18FEE000   [8]  0F 00 00 00 25 96 35 00
 (002.101205)  can0  0CF00300   [8]  D0 5B 21 FF FF 0F 87 82
 (002.105249)  can0  18FEF200   [8]  96 00 62 06 AF 05 E1 FF
 (002.105807)  can0  18F00F00   [8]  18 0F FF FF D5 9F FF FF
 (002.107156)  can0  0CF00400   [8]  01 98 98 57 2C 00 0F 98
 (002.108760)  can0  0CF00203   [8]  C1 01 15 FF F7 12 26 03
 (002.109343)  can0  0CF00C03   [8]  24 04 6A 2C FF FF FF FF
 (002.110250)  can0  18FEDB00   [8]  FF FF AD 63 FF FF FF FF
 (002.115235)  can0  18FEDF00   [8]  89 A0 28 7D 7D FF FF F5
 (002.115828)  can0  10FCFD00   [8]  FF FF FF FF 80 62 FF FF
 (002.118960)  can0  0CF00203   [8]  C1 D8 14 FF F7 B5 25 03
 (002.120659)  can0  0CF00300   [8]  D0 5B 21 FF FF 0F 88 82
 (002.123373)  can0  0CF00331   [8]  FF FF FF FF FF FF FF FF
 (002.126052)  can0  18F00100   [8]  FF FF FF FF FF FF FF FF
 (002.127670)  can0  0CF00400   [8]  01 98 98 54 2C 00 0F 98
 (002.128790)  can0  0CF00203   [8]  C1 D8 14 FF F7 B5 25 03
 (002.129330)  can0  0C010305   [8]  FF FF FF FF FF F3 FF FF
 (002.129905)  can0  0CF00C03   [8]  2C 04 29 2C FF FF FF FF
 (002.130498)  can0  18FEF600   [8]  FF 14 62 FF FF FF FF FF
 (002.135772)  can0  18FEDF00   [8]  89 A0 28 7D 7D FF FF F5
 (002.138746)  can0  0CF00203   [8]  C1 AD 14 FF F7 58 25 03
 (002.140594)  can0  0CF00300   [8]  D0 5B 21 FF FF 0F 87 82
 (002.141166)  can0  0CF00A00   [8]  99 02 B1 17 FF FF FF FF
 (002.141743)  can0  18FEF000   [8]  FF FF FF C0 2B FF FF FF
 (002.142320)  can0  18F00E00   [8]  00 32 FF FF D5 9F FF FF
 (002.145235)  can0  18F03300   [8]  FF FF FF FF FF FF FF FF
 (002.147099)  can0  0CF00400   [8]  11 98 98 0D 2C 00 0F 98
 (002.148787)  can0  0CF00203   [8]  C1 AD 14 FF F7 58 25 03
 (002.149351)  can0  0CF00C03   [8]  37 04 31 2C FF FF FF FF
 (002.149996)  can0  18F00503   [8]  7F 12 07 7F 35 20 32 43
 (002.150543)  can0  18FCF200   [8]  E1 FF FF FF FF FF FF FF
 (002.151170)  can0  18FE4A03   [8]  03 0F 4F FF FF F3 FF FF
 (002.156055)  can0  18FEDF00   [8]  89 A0 28 7D 7D FF FF F5
 (002.156064)  can0  18FDC600   [8]  FC 04 FF FF FF FF FF FF
 (002.156445)  can0  18F00F00   [8]  18 0F FF FF D5 9F FF FF
 (002.159607)  can0  0CF00203   [8]  C1 93 14 FF F7 3B 25 03
 (002.160836)  can0  0CF00300   [8]  D0 5B 21 FF FF 0F 88 82
 (002.161195)  can0  18FEF100   [8]  FF 0C 18 FC FF 68 00 CF
 (002.167795)  can0  0CF00400   [8]  11 98 98 1D 2C 00 0F 98
 (002.168790)  can0  0CF00203   [8]  C1 93 14 FF F7 3B 25 03
 (002.169496)  can0  0CF00C03   [8]  37 04 04 2C FF FF FF FF
 (002.170547)  can0  10FDA300   [8]  FF FF 33 FF FF FF FF FF
 (002.170735)  can0  18F00029   [8]  F0 7D 7D F3 29 FF FF 37
 (002.173370)  can0  18F00131   [8]  FF FF FF 3F 00 FF FF FF
 (002.173941)  can0  18FEF131   [8]  F3 FF FF C3 CC FF FF F0
 (002.174541)  can0  18FEF031   [8]  FF FF FF FF FF FC CC FF
 (002.175100)  can0  18FF4831   [8]  00 00 FF FF 00 00 00 00
 (002.175675)  can0  18FEDF00   [8]  89 A0 28 7D 7D FF FF F5
 (002.176275)  can0  18FEF231   [8]  FF FF FF FF FF FF FF FF
 (002.176916)  can0  0CF00331   [8]  FF FF FF FF FF FF FF FF
 (002.178698)  can0  0CF00203   [8]  C1 B8 14 FF F7 A4 25 03
 (002.179356)  can0  0C010305   [8]  FF FF FF FF FF F3 FF FF
 (002.180728)  can0  18FCDC00   [8]  9F FF FF FF 50 68 0C 18
 (002.181321)  can0  0CF00300   [8]  D0 5B 21 FF FF 0F 87 82
 (002.181853)  can0  1CFE9200   [8]  FF 74 B7 FF FF FF 30 00
 (002.186964)  can0  18F0010B   [8]  CF FF F0 FF FF CD FF FF
 (002.187314)  can0  0CF00400   [8]  11 98 98 37 2C 00 0F 98
 (002.188827)  can0  0CF00203   [8]  C1 B8 14 FF F7 A4 25 03
 (002.189338)  can0  0CF00C03   [8]  28 04 24 2C FF FF FF FF
 (002.190274)  can0  0CF00A00   [8]  99 02 8C 17 FF FF FF FF
 (002.190852)  can0  18FD9400   [8]  C9 07 FF FF FF FF FF FF
 (002.191447)  can0  18F00E00   [8]  1A 32 FF FF D5 9F FF FF
 (002.195627)  can0  18F03300   [8]  FF FF FF FF FF FF FF FF
 (002.195734)  can0  18FEDF00   [8]  89 A0 28 7D 7D FF FF F5
 (002.196816)  can0  18FEBF0B   [8]  20 18 7D 7D 7D 7B FF FF
 (002.199113)  can0  0CF00203   [8]  C1 0A 15 FF F7 39 26 03
 (002.200755)  can0  18FEF700   [8]  FF FF FF FF 17 01 FF FF
 (002.201198)  can0  18FEE000   [8]  0F 00 00 00 25 96 35 00
 (002.201693)  can0  0CF00300   [8]  D0 5B 21 FF FF 0F 88 82
 (002.205217)  can0  18FEF200   [8]  95 00 72 06 AE 05 E1 FF
 (002.205793)  can0  18F00F00   [8]  18 0F FF FF D5 9F FF FF
 (002.207118)  can0  0CF00400   [8]  11 98 98 3A 2C 00 0F 98
 (002.208703)  can0  0CF00203   [8]  C1 0A 15 FF F7 39 26 03
 (002.209378)  can0  0CF00C03   [8]  20 04 4C 2C FF FF FF FF
 (002.215396)  can0  18FEDF00   [8]  89 A0 28 7D 7D FF FF F5
 (002.215855)  can0  10FCFD00   [8]  FF FF FF FF 76 62 FF FF
 (002.218723)  can0  0CF00203   [8]  C1 36 15 FF F7 62 26 03
 (002.220598)  can0  18FEC100   [8]  9E A9 3B 05 86 01 00 00
 (002.221142)  can0  0CF00300   [8]  D0 5B 21 FF FF 0F 87 82
 (002.224236)  can0  0CF00331   [8]  FF FF FF FF FF FF FF FF
 (002.225921)  can0  18F00100   [8]  FF FF FF FF FF FF FF FF
 (002.227550)  can0  0CF00400   [8]  21 98 98 1E 2C 00 0F 98
 (002.228795)  can0  0CF00203   [8]  C1 36 15 FF F7 62 26 03
 (002.229331)  can0  0C010305   [8]  FF FF FF FF FF F3 FF FF
 (002.229950)  can0  0CF00C03   [8]  1A 04 13 2C FF FF FF FF
 (002.235718)  can0  18FEDF00   [8]  89 A0 28 7D 7D FF FF F5
 (002.238745)  can0  0CF00203   [8]  C1 24 15 FF F7 20 26 03
 (002.240563)  can0  0CF00300   [8]  D0 5D 21 FF FF 0F 87 82
 (002.241124)  can0  0CF00A00   [8]  B5 02 95 17 FF FF FF FF
 (002.241698)  can0  18FEF000   [8]  FF FF FF C0 2B FF FF FF
 (002.242315)  can0  18F00E00   [8]  32 32 FF FF D5 9F FF FF
 (002.245248)  can0  18FE5600   [8]  96 43 FF FF 1F 1F 00 FF
 (002.245847)  can0  18F03300   [8]  FF FF FF FF FF FF FF FF
 (002.247434)  can0  0CF00400   [8]  71 99 98 23 2C 00 0F 99
 (002.248790)  can0  0CF00203   [8]  C1 24 15 FF F7 20 26 03
 (002.249371)  can0  0CF00C03   [8]  22 04 3C 2C FF FF FF FF
 (002.249969)  can0  18F00503   [8]  7F 12 07 7F 35 20 32 43
 (002.250546)  can0  18FCF200   [8]  E1 FF FF FF FF FF FF FF
 (002.251121)  can0  18FE4A03   [8]  03 0F 4F FF FF F3 FF FF
 (002.256060)  can0  18FEDF00   [8]  89 A0 28 7D 7D FF FF F5
 (002.256071)  can0  18F00F00   [8]  18 0F FF FF D5 9F FF FF
 (002.259599)  can0  0CF00203   [8]  C1 05 15 FF F7 0A 26 03
 (002.260800)  can0  0CF00300   [8]  D0 5E 22 FF FF 0F 87 82
 (002.261246)  can0  18FEF100   [8]  FF 24 18 FC FF 68 00 CF
 (002.265356)  can0  18FD7B00   [8]  00 FF A1 BC 00 00 54 57
 (002.267750)  can0  0CF00400   [8]  21 99 99 40 2C 00 0F 99
 (002.268745)  can0  0CF00203   [8]  C1 05 15 FF F7 0A 26 03
 (002.269343)  can0  0CF00C03   [8]  21 04 23 2C FF FF FF FF
 (002.270194)  can0  10FDA300   [8]  FF FF 33 FF FF FF FF FF
 (002.270748)  can0  18F00029   [8]  F0 7D 7D F3 29 FF FF 37
 (002.273328)  can0  18F00131   [8]  FF FF FF 3F 00 FF FF FF
 (002.273946)  can0  18FEF131   [8]  F3 FF FF C3 CC FF FF F0
 (002.274473)  can0  18FEF031   [8]  FF FF FF FF FF FC CC FF
 (002.275133)  can0  18FF4831   [8]  00 00 FF FF 00 00 00 00
 (002.275673)  can0  18FEDF00   [8]  89 A0 28 7D 7D FF FF F5
 (002.276321)  can0  18FEF231   [8]  FF FF FF FF FF FF FF FF
 (002.276845)  can0  0CF00331   [8]  FF FF FF FF FF FF FF FF
 (002.278746)  can0  0CF00203   [8]  C1 FE 14 FF F7 1D 26 03
 (002.279325)  can0  0C010305   [8]  FF FF FF FF FF F3 FF FF
 (002.280965)  can0  18FCDC00   [8]  9F FF FF FF 50 68 24 18
 (002.281272)  can0  0CF00300   [8]  D0 5F 22 FF FF 0F 86 82
 (002.281850)  can0  1CFE9200   [8]  FF 7C B7 FF FF FF 30 00
 (002.287336)  can0  18F0010B   [8]  CF FF F0 FF FF CD FF FF
 (002.287459)  can0  0CF00400   [8]  41 99 99 5A 2C 00 0F 99
 (002.288843)  can0  0CF00203   [8]  C1 FE 14 FF F7 1D 26 03
 (002.289343)  can0  0CF00C03   [8]  20 04 6A 2C FF FF FF FF
 (002.290901)  can0  0CF00A00   [8]  B5 02 95 17 FF FF FF FF
 (002.290912)  can0  18FD9400   [8]  C9 07 FF FF FF FF FF FF
 (002.291419)  can0  18FEDD00   [8]  FF 34 3C FF FF FF FF FF
 (002.291944)  can0  18F00E00   [8]  64 32 FF FF D5 9F FF FF
 (002.295578)  can0  18F03300   [8]  FF FF FF FF FF FF FF FF
 (002.295856)  can0  18FEDF00   [8]  89 A0 28 7D 7D FF FF F5
 (002.297003)  can0  18FEBF0B   [8]  50 18 7E 7C 7E 7E FF FF
 (002.299434)  can0  0CF00203   [8]  C1 2A 15 FF F7 61 26 03
 (002.300826)  can0  18FEE000   [8]  0F 00 00 00 25 96 35 00
 (002.301223)  can0  0CF00300   [8]  D0 5F 23 FF FF 0F 85 82
 (002.305232)  can0  18FEF200   [8]  95 00 73 06 AE 05 E1 FF
 (002.305775)  can0  18F00F00   [8]  18 0F FF FF D5 9F FF FF
 (002.307160)  can0  0CF00400   [8]  41 99 99 7A 2C 00 0F 99
 (002.308761)  can0  0CF00203   [8]  C1 2A 15 FF F7 61 26 03
 (002.309344)  can0  0CF00C03   [8]  21 04 71 2C FF FF FF FF
 (002.310226)  can0  18FEE400   [8]  FF 3F FC FC 00 7F FF FF
 (002.315225)  can0  18FEDF00   [8]  89 A0 28 7D 7D FF FF F5
 (002.315793)  can0  10FCFD00   [8]  FF FF FF FF A3 66 FF FF
 (002.316387)  can0  0CFD9200   [8]  F4 FF FF FF FF FF FF FF
 (002.318887)  can0  0CF00203   [8]  C1 53 15 FF F7 94 26 03
 (002.320591)  can0  0CF00300   [8]  D0 5F 23 FF FF 0F 84 82
 (002.324128)  can0  0CF00331   [8]  FF FF FF FF FF FF FF FF
 (002.325916)  can0  18F00100   [8]  FF FF FF FF FF FF FF FF
 (002.327635)  can0  0CF00400   [8]  51 9A 99 8F 2C 00 0F 9A
 (002.328794)  can0  0CF00203   [8]  C1 53 15 FF F7 94 26 03
 (002.329320)  can0  0C010305   [8]  FF FF FF FF FF F3 FF FF
 (002.329900)  can0  0CF00C03   [8]  19 04 75 2C FF FF FF FF
 (002.335324)  can0  18FEDF00   [8]  89 A0 28 7D 7D FF FF F5
 (002.338678)  can0  0CF00203   [8]  C1 60 15 FF F7 AF 26 03
 (002.340647)  can0  0CF00300   [8]  D0 5F 23 FF FF 0F 85 82
 (002.341236)  can0  0CF00A00   [8]  C8 02 8C 17 FF FF FF FF
 (002.341844)  can0  18FEF000   [8]  FF FF FF C0 2B FF FF FF
 (002.342393)  can0  18FEBD00   [8]  00 F0 FF FF FF FF FF FF
 (002.342992)  can0  18F00E00   [8]  7E 32 FF FF D5 9F FF FF
 (002.345383)  can0  18F03300   [8]  FF FF FF FF FF FF FF FF
 (002.347902)  can0  0CF00400   [8]  41 99 99 C3 2C 00 0F 99
 (002.348815)  can0  0CF00203   [8]  C1 60 15 FF F7 AF 26 03
 (002.349332)  can0  0CF00C03   [8]  1B 04 D5 2C FF FF FF FF
 (002.349945)  can0  18F00503   [8]  7F 12 07 7F 35 20 32 43
 (002.350524)  can0  18FCF200   [8]  E1 FF FF FF FF FF FF FF
 (002.351097)  can0  18FE4A03   [8]  03 0F 4F FF FF F3 FF FF
 (002.355812)  can0  18FEDF00   [8]  89 A0 28 7D 7D FF FF F5
 (002.355861)  can0  18E0FF00   [8]  00 FF FF FF FF FF FF FF
 (002.356511)  can0  18F00F00   [8]  22 0F FF FF D5 9F FF FF
 (002.358946)  can0  0CF00203   [8]  C1 57 15 FF F7 AE 26 03
 (002.360931)  can0  18FD0700   [8]  43 0C FC FF FF FF FF FF
 (002.361213)  can0  0CF00300   [8]  D0 5F 23 FF FF 0F 84 82
 (002.361791)  can0  18FEF100   [8]  FF 60 18 FC FF 68 00 CF
 (002.366124)  can0  18FEEE00   [8]  87 FF FF FF FF FF FF FF
 (002.367195)  can0  0CF00400   [8]  31 99 99 D9 2C 00 0F 99
 (002.368769)  can0  0CF00203   [8]  C1 57 15 FF F7 AE 26 03
 (002.369341)  can0  0CF00C03   [8]  1B 04 C4 2C FF FF FF FF
 (002.370240)  can0  10FDA300   [8]  FF FF 32 FF FF FF FF FF
 (002.370755)  can0  18F00029   [8]  F0 7D 7D F3 29 FF FF 37
