name,type,start_time,duration,"identifier","num_data_bytes","extended","data","crc","ack"
"CAN","identifier_field",2023-08-25T05:27:11.752721116+00:00,0.000144,0x000000000CF00400,,true,,,
"CAN","control_field",2023-08-25T05:27:11.752869116+00:00,1.2e-05,,0x0000000000000008,,,,
"CAN","data_field",2023-08-25T05:27:11.752885116+00:00,3.2e-05,,,,0xFE,,
"CAN","data_field",2023-08-25T05:27:11.752921116+00:00,3.2e-05,,,,0x7D,,
"CAN","data_field",2023-08-25T05:27:11.752957116+00:00,3.2e-05,,,,0x7D,,
"CAN","data_field",2023-08-25T05:27:11.752993116+00:00,3.2e-05,,,,0x00,,
"CAN","data_field",2023-08-25T05:27:11.753029116+00:00,3.6e-05,,,,0x00,,
"CAN","data_field",2023-08-25T05:27:11.753069116+00:00,3.2e-05,,,,0x00,,
"CAN","data_field",2023-08-25T05:27:11.753105116+00:00,3.2e-05,,,,0xFF,,
"CAN","data_field",2023-08-25T05:27:11.753141116+00:00,3.2e-05,,,,0x7D,,
"CAN","crc_field",2023-08-25T05:27:11.753177116+00:00,6e-05,,,,,0x0000000000006D3F,
"CAN","ack_field",2023-08-25T05:27:11.753245116+00:00,4e-06,,,,,,true
"CAN","identifier_field",2023-08-25T05:27:11.755429212+00:00,0.00014,0x0000000008FE6E0B,,true,,,
"CAN","control_field",2023-08-25T05:27:11.755573212+00:00,1.2e-05,,0x0000000000000008,,,,
"CAN","data_field",2023-08-25T05:27:11.755589212+00:00,3.6e-05,,,,0x00,,
"CAN","data_field",2023-08-25T05:27:11.755629212+00:00,3.2e-05,,,,0x00,,
"CAN","data_field",2023-08-25T05:27:11.755665212+00:00,3.6e-05,,,,0x00,,
"CAN","data_field",2023-08-25T05:27:11.755705212+00:00,3.2e-05,,,,0x00,,
"CAN","data_field",2023-08-25T05:27:11.755745212+00:00,3.2e-05,,,,0x00,,
"CAN","data_field",2023-08-25T05:27:11.755781212+00:00,3.6e-05,,,,0x00,,
"CAN","data_field",2023-08-25T05:27:11.755821212+00:00,3.2e-05,,,,0x00,,
"CAN","data_field",2023-08-25T05:27:11.755857212+00:00,3.6e-05,,,,0x00,,
"CAN","crc_field",2023-08-25T05:27:11.755897212+00:00,5.6e-05,,,,,0x0000000000001522,
"CAN","ack_field",2023-08-25T05:27:11.755961212+00:00,4e-06,,,,,,true
"CAN","identifier_field",2023-08-25T05:27:11.762729268+00:00,0.000144,0x000000000CF00300,,true,,,
"CAN","control_field",2023-08-25T05:27:11.762877268+00:00,1.2e-05,,0x0000000000000008,,,,
"CAN","data_field",2023-08-25T05:27:11.762893268+00:00,3.2e-05,,,,0xF9,,
"CAN","data_field",2023-08-25T05:27:11.762929268+00:00,3.2e-05,,,,0xFE,,
"CAN","data_field",2023-08-25T05:27:11.762965268+00:00,3.2e-05,,,,0x00,,
"CAN","data_field",2023-08-25T05:27:11.763001268+00:00,3.2e-05,,,,0xFF,,
"CAN","data_field",2023-08-25T05:27:11.763037268+00:00,3.6e-05,,,,0xFF,,
"CAN","data_field",2023-08-25T05:27:11.763077268+00:00,3.2e-05,,,,0xFF,,
"CAN","data_field",2023-08-25T05:27:11.763113268+00:00,3.6e-05,,,,0xFF,,
"CAN","data_field",2023-08-25T05:27:11.763153268+00:00,3.2e-05,,,,0xFF,,
"CAN","crc_field",2023-08-25T05:27:11.763193268+00:00,5.6e-05,,,,,0x0000000000001B78,
"CAN","ack_field",2023-08-25T05:27:11.763257268+00:00,4e-06,,,,,,true
"CAN","identifier_field",2023-08-25T05:27:11.763357484+00:00,0.000148,0x0000000018EBFF00,,true,,,
"CAN","control_field",2023-08-25T05:27:11.763509484+00:00,1.2e-05,,0x0000000000000008,,,,
"CAN","data_field",2023-08-25T05:27:11.763525484+00:00,3.2e-05,,,,0x02,,
"CAN","data_field",2023-08-25T05:27:11.763561484+00:00,3.2e-05,,,,0x00,,
"CAN","data_field",2023-08-25T05:27:11.763597484+00:00,3.2e-05,,,,0x04,,
"CAN","data_field",2023-08-25T05:27:11.763633484+00:00,3.2e-05,,,,0x01,,
"CAN","data_field",2023-08-25T05:27:11.763669484+00:00,2.8e-05,,,,0x78,,
"CAN","data_field",2023-08-25T05:27:11.763701484+00:00,3.2e-05,,,,0x02,,
"CAN","data_field",2023-08-25T05:27:11.763737484+00:00,3.2e-05,,,,0x03,,
"CAN","data_field",2023-08-25T05:27:11.763773484+00:00,3.2e-05,,,,0x01,,
"CAN","crc_field",2023-08-25T05:27:11.763809484+00:00,5.6e-05,,,,,0x00000000000047B8,
"CAN","ack_field",2023-08-25T05:27:11.763873484+00:00,4e-06,,,,,,true
"CAN","identifier_field",2023-08-25T05:27:11.772869156+00:00,0.000144,0x000000000CF00400,,true,,,
"CAN","control_field",2023-08-25T05:27:11.773017156+00:00,1.2e-05,,0x0000000000000008,,,,
"CAN","data_field",2023-08-25T05:27:11.773033156+00:00,3.2e-05,,,,0xFE,,
"CAN","data_field",2023-08-25T05:27:11.773069156+00:00,3.2e-05,,,,0x7D,,
"CAN","data_field",2023-08-25T05:27:11.773105156+00:00,3.2e-05,,,,0x7D,,
"CAN","data_field",2023-08-25T05:27:11.773141156+00:00,3.2e-05,,,,0x00,,
"CAN","data_field",2023-08-25T05:27:11.773177156+00:00,3.6e-05,,,,0x00,,
"CAN","data_field",2023-08-25T05:27:11.773217156+00:00,3.2e-05,,,,0x00,,
"CAN","data_field",2023-08-25T05:27:11.773253156+00:00,3.2e-05,,,,0xFF,,
"CAN","data_field",2023-08-25T05:27:11.773289156+00:00,3.2e-05,,,,0x7D,,
"CAN","crc_field",2023-08-25T05:27:11.773325156+00:00,6e-05,,,,,0x0000000000006D3F,
"CAN","ack_field",2023-08-25T05:27:11.773393156+00:00,4e-06,,,,,,true
"CAN","identifier_field",2023-08-25T05:27:11.773493380+00:00,0.000144,0x0000000018F00100,,true,,,
"CAN","control_field",2023-08-25T05:27:11.773641380+00:00,1.2e-05,,0x0000000000000008,,,,
"CAN","data_field",2023-08-25T05:27:11.773657380+00:00,3.2e-05,,,,0xFF,,
"CAN","data_field",2023-08-25T05:27:11.773693380+00:00,3.6e-05,,,,0xFF,,
"CAN","data_field",2023-08-25T05:27:11.773733380+00:00,3.2e-05,,,,0xFF,,
"CAN","data_field",2023-08-25T05:27:11.773769380+00:00,3.2e-05,,,,0xCF,,
"CAN","data_field",2023-08-25T05:27:11.773805380+00:00,3.2e-05,,,,0x00,,
"CAN","data_field",2023-08-25T05:27:11.773841380+00:00,3.2e-05,,,,0xFF,,
"CAN","data_field",2023-08-25T05:27:11.773877380+00:00,3.6e-05,,,,0xFF,,
"CAN","data_field",2023-08-25T05:27:11.773917380+00:00,3.2e-05,,,,0xFF,,
"CAN","crc_field",2023-08-25T05:27:11.773953380+00:00,6e-05,,,,,0x0000000000002FC2,
"CAN","ack_field",2023-08-25T05:27:11.774021380+00:00,4e-06,,,,,,true
"CAN","identifier_field",2023-08-25T05:27:11.775509476+00:00,0.00014,0x0000000008FE6E0B,,true,,,
"CAN","control_field",2023-08-25T05:27:11.775653476+00:00,1.2e-05,,0x0000000000000008,,,,
"CAN","data_field",2023-08-25T05:27:11.775669476+00:00,3.6e-05,,,,0x00,,
"CAN","data_field",2023-08-25T05:27:11.775709476+00:00,3.2e-05,,,,0x00,,
"CAN","data_field",2023-08-25T05:27:11.775745476+00:00,3.6e-05,,,,0x00,,
"CAN","data_field",2023-08-25T05:27:11.775785476+00:00,3.2e-05,,,,0x00,,
"CAN","data_field",2023-08-25T05:27:11.775825476+00:00,3.2e-05,,,,0x00,,
"CAN","data_field",2023-08-25T05:27:11.775861476+00:00,3.6e-05,,,,0x00,,
"CAN","data_field",2023-08-25T05:27:11.775901476+00:00,3.2e-05,,,,0x00,,
"CAN","data_field",2023-08-25T05:27:11.775937476+00:00,3.6e-05,,,,0x00,,
"CAN","crc_field",2023-08-25T05:27:11.775977476+00:00,5.6e-05,,,,,0x0000000000001522,
"CAN","ack_field",2023-08-25T05:27:11.776041476+00:00,4e-06,,,,,,true
"CAN","identifier_field",2023-08-25T05:27:11.782673580+00:00,0.000144,0x0000000018FEEF00,,true,,,
"CAN","control_field",2023-08-25T05:27:11.782821580+00:00,1.2e-05,,0x0000000000000008,,,,
"CAN","data_field",2023-08-25T05:27:11.782837580+00:00,3.2e-05,,,,0xFF,,
"CAN","data_field",2023-08-25T05:27:11.782873580+00:00,3.6e-05,,,,0xFF,,
"CAN","data_field",2023-08-25T05:27:11.782913580+00:00,3.2e-05,,,,0xFF,,
"CAN","data_field",2023-08-25T05:27:11.782949580+00:00,3.6e-05,,,,0xFE,,
"CAN","data_field",2023-08-25T05:27:11.782989580+00:00,3.2e-05,,,,0xFF,,
"CAN","data_field",2023-08-25T05:27:11.783025580+00:00,3.6e-05,,,,0xFF,,
"CAN","data_field",2023-08-25T05:27:11.783065580+00:00,3.2e-05,,,,0xFF,,
"CAN","data_field",2023-08-25T05:27:11.783101580+00:00,3.6e-05,,,,0xFF,,
"CAN","crc_field",2023-08-25T05:27:11.783141580+00:00,5.6e-05,,,,,0x00000000000069ED,
"CAN","ack_field",2023-08-25T05:27:11.783205580+00:00,4e-06,,,,,,true
"CAN","identifier_field",2023-08-25T05:27:11.785573484+00:00,0.000136,0x0000000018F0010B,,true,,,
"CAN","control_field",2023-08-25T05:27:11.785713484+00:00,1.2e-05,,0x0000000000000008,,,,
"CAN","data_field",2023-08-25T05:27:11.785729484+00:00,2.8e-05,,,,0xCF,,
"CAN","data_field",2023-08-25T05:27:11.785761484+00:00,3.6e-05,,,,0xFF,,
"CAN","data_field",2023-08-25T05:27:11.785801484+00:00,3.2e-05,,,,0xF0,,
"CAN","data_field",2023-08-25T05:27:11.785837484+00:00,3.2e-05,,,,0xFF,,
"CAN","data_field",2023-08-25T05:27:11.785873484+00:00,3.6e-05,,,,0xFF,,
"CAN","data_field",2023-08-25T05:27:11.785913484+00:00,2.8e-05,,,,0xDC,,
"CAN","data_field",2023-08-25T05:27:11.785945484+00:00,3.2e-05,,,,0xFF,,
"CAN","data_field",2023-08-25T05:27:11.785981484+00:00,3.6e-05,,,,0xFF,,
"CAN","crc_field",2023-08-25T05:27:11.786021484+00:00,5.6e-05,,,,,0x00000000000056AC,
"CAN","ack_field",2023-08-25T05:27:11.786085484+00:00,4e-06,,,,,,true
"CAN","identifier_field",2023-08-25T05:27:11.792765484+00:00,0.000144,0x000000000CF00400,,true,,,
"CAN","control_field",2023-08-25T05:27:11.792913484+00:00,1.2e-05,,0x0000000000000008,,,,
"CAN","data_field",2023-08-25T05:27:11.792929484+00:00,3.2e-05,,,,0xFE,,
"CAN","data_field",2023-08-25T05:27:11.792965484+00:00,3.2e-05,,,,0x7D,,
"CAN","data_field",2023-08-25T05:27:11.793001484+00:00,3.2e-05,,,,0x7D,,
"CAN","data_field",2023-08-25T05:27:11.793037484+00:00,3.2e-05,,,,0x00,,
"CAN","data_field",2023-08-25T05:27:11.793073484+00:00,3.6e-05,,,,0x00,,
"CAN","data_field",2023-08-25T05:27:11.793113484+00:00,3.2e-05,,,,0x00,,
"CAN","data_field",2023-08-25T05:27:11.793149484+00:00,3.2e-05,,,,0xFF,,
"CAN","data_field",2023-08-25T05:27:11.793185484+00:00,3.2e-05,,,,0x7D,,
"CAN","crc_field",2023-08-25T05:27:11.793221484+00:00,6e-05,,,,,0x0000000000006D3F,
"CAN","ack_field",2023-08-25T05:27:11.793289484+00:00,4e-06,,,,,,true
"CAN","identifier_field",2023-08-25T05:27:11.795625492+00:00,0.00014,0x0000000018FEBF0B,,true,,,
"CAN","control_field",2023-08-25T05:27:11.795769492+00:00,1.2e-05,,0x0000000000000008,,,,
"CAN","data_field",2023-08-25T05:27:11.795785492+00:00,3.6e-05,,,,0x00,,
"CAN","data_field",2023-08-25T05:27:11.795825492+00:00,3.2e-05,,,,0x00,,
"CAN","data_field",2023-08-25T05:27:11.795861492+00:00,3.6e-05,,,,0x7D,,
"CAN","data_field",2023-08-25T05:27:11.795901492+00:00,3.2e-05,,,,0x7D,,
"CAN","data_field",2023-08-25T05:27:11.795937492+00:00,3.2e-05,,,,0x7D,,
"CAN","data_field",2023-08-25T05:27:11.795973492+00:00,3.2e-05,,,,0x7D,,
"CAN","data_field",2023-08-25T05:27:11.796009492+00:00,3.2e-05,,,,0xFF,,
"CAN","data_field",2023-08-25T05:27:11.796045492+00:00,3.6e-05,,,,0xFF,,
"CAN","crc_field",2023-08-25T05:27:11.796085492+00:00,6e-05,,,,,0x0000000000007D87,
"CAN","ack_field",2023-08-25T05:27:11.796153492+00:00,4e-06,,,,,,true
"CAN","identifier_field",2023-08-25T05:27:11.796209476+00:00,0.00014,0x0000000008FE6E0B,,true,,,
"CAN","control_field",2023-08-25T05:27:11.796353476+00:00,1.2e-05,,0x0000000000000008,,,,
"CAN","data_field",2023-08-25T05:27:11.796369476+00:00,3.6e-05,,,,0x00,,
"CAN","data_field",2023-08-25T05:27:11.796409476+00:00,3.2e-05,,,,0x00,,
"CAN","data_field",2023-08-25T05:27:11.796445476+00:00,3.6e-05,,,,0x00,,
"CAN","data_field",2023-08-25T05:27:11.796485476+00:00,3.2e-05,,,,0x00,,
"CAN","data_field",2023-08-25T05:27:11.796525476+00:00,3.2e-05,,,,0x00,,
"CAN","data_field",2023-08-25T05:27:11.796561476+00:00,3.6e-05,,,,0x00,,
"CAN","data_field",2023-08-25T05:27:11.796601476+00:00,3.2e-05,,,,0x00,,
"CAN","data_field",2023-08-25T05:27:11.796637476+00:00,3.6e-05,,,,0x00,,
"CAN","crc_field",2023-08-25T05:27:11.796677476+00:00,5.6e-05,,,,,0x0000000000001522,
"CAN","ack_field",2023-08-25T05:27:11.796741476+00:00,4e-06,,,,,,true
"CAN","identifier_field",2023-08-25T05:27:11.802781404+00:00,0.000144,0x0000000018FEF000,,true,,,
"CAN","control_field",2023-08-25T05:27:11.802933404+00:00,1.2e-05,,0x0000000000000008,,,,
"CAN","data_field",2023-08-25T05:27:11.802949404+00:00,3.2e-05,,,,0xFF,,
"CAN","data_field",2023-08-25T05:27:11.802985404+00:00,3.6e-05,,,,0xFF,,
"CAN","data_field",2023-08-25T05:27:11.803025404+00:00,3.2e-05,,,,0xFF,,
"CAN","data_field",2023-08-25T05:27:11.803061404+00:00,3.2e-05,,,,0x00,,
"CAN","data_field",2023-08-25T05:27:11.803097404+00:00,3.6e-05,,,,0x00,,
"CAN","data_field",2023-08-25T05:27:11.803137404+00:00,2.8e-05,,,,0xF0,,
"CAN","data_field",2023-08-25T05:27:11.803169404+00:00,2.8e-05,,,,0xCC,,
"CAN","data_field",2023-08-25T05:27:11.803201404+00:00,3.2e-05,,,,0xFF,,
"CAN","crc_field",2023-08-25T05:27:11.803237404+00:00,6e-05,,,,,0x0000000000006A72,
"CAN","ack_field",2023-08-25T05:27:11.803305404+00:00,4e-06,,,,,,true
"CAN","identifier_field",2023-08-25T05:27:11.803405620+00:00,0.00014,0x0000000018F0000F,,true,,,
"CAN","control_field",2023-08-25T05:27:11.803549620+00:00,1.2e-05,,0x0000000000000008,,,,
"CAN","data_field",2023-08-25T05:27:11.803565620+00:00,3.2e-05,,,,0xC0,,
"CAN","data_field",2023-08-25T05:27:11.803601620+00:00,3.2e-05,,,,0x7D,,
"CAN","data_field",2023-08-25T05:27:11.803637620+00:00,3.2e-05,,,,0xFF,,
"CAN","data_field",2023-08-25T05:27:11.803673620+00:00,3.6e-05,,,,0xFF,,
"CAN","data_field",2023-08-25T05:27:11.803713620+00:00,2.8e-05,,,,0x0F,,
"CAN","data_field",2023-08-25T05:27:11.803745620+00:00,3.6e-05,,,,0xFF,,
"CAN","data_field",2023-08-25T05:27:11.803785620+00:00,3.2e-05,,,,0xFF,,
"CAN","data_field",2023-08-25T05:27:11.803825620+00:00,3.2e-05,,,,0xFF,,
"CAN","crc_field",2023-08-25T05:27:11.803861620+00:00,5.6e-05,,,,,0x00000000000028A2,
"CAN","ack_field",2023-08-25T05:27:11.803925620+00:00,4e-06,,,,,,true
"CAN","identifier_field",2023-08-25T05:27:11.812785316+00:00,0.000144,0x000000000CF00400,,true,,,
"CAN","control_field",2023-08-25T05:27:11.812933316+00:00,1.2e-05,,0x0000000000000008,,,,
"CAN","data_field",2023-08-25T05:27:11.812949316+00:00,3.2e-05,,,,0xFE,,
"CAN","data_field",2023-08-25T05:27:11.812985316+00:00,3.2e-05,,,,0x7D,,
"CAN","data_field",2023-08-25T05:27:11.813021316+00:00,3.2e-05,,,,0x7D,,
"CAN","data_field",2023-08-25T05:27:11.813057316+00:00,3.2e-05,,,,0x00,,
"CAN","data_field",2023-08-25T05:27:11.813093316+00:00,3.6e-05,,,,0x00,,
"CAN","data_field",2023-08-25T05:27:11.813133316+00:00,3.2e-05,,,,0x00,,
"CAN","data_field",2023-08-25T05:27:11.813169316+00:00,3.2e-05,,,,0xFF,,
"CAN","data_field",2023-08-25T05:27:11.813205316+00:00,3.2e-05,,,,0x7D,,
"CAN","crc_field",2023-08-25T05:27:11.813241316+00:00,6e-05,,,,,0x0000000000006D3F,
"CAN","ack_field",2023-08-25T05:27:11.813309316+00:00,4e-06,,,,,,true
"CAN","identifier_field",2023-08-25T05:27:11.813409532+00:00,0.000144,0x000000000CF00300,,true,,,
"CAN","control_field",2023-08-25T05:27:11.813557532+00:00,1.2e-05,,0x0000000000000008,,,,
"CAN","data_field",2023-08-25T05:27:11.813573532+00:00,3.2e-05,,,,0xF9,,
"CAN","data_field",2023-08-25T05:27:11.813609532+00:00,3.2e-05,,,,0xFE,,
"CAN","data_field",2023-08-25T05:27:11.813645532+00:00,3.2e-05,,,,0x00,,
"CAN","data_field",2023-08-25T05:27:11.813681532+00:00,3.2e-05,,,,0xFF,,
"CAN","data_field",2023-08-25T05:27:11.813717532+00:00,3.6e-05,,,,0xFF,,
"CAN","data_field",2023-08-25T05:27:11.813757532+00:00,3.2e-05,,,,0xFF,,
"CAN","data_field",2023-08-25T05:27:11.813793532+00:00,3.6e-05,,,,0xFF,,
"CAN","data_field",2023-08-25T05:27:11.813833532+00:00,3.2e-05,,,,0xFF,,
"CAN","crc_field",2023-08-25T05:27:11.813873532+00:00,5.6e-05,,,,,0x0000000000001B78,
"CAN","ack_field",2023-08-25T05:27:11.813937532+00:00,4e-06,,,,,,true
"CAN","identifier_field",2023-08-25T05:27:11.815741508+00:00,0.00014,0x0000000008FE6E0B,,true,,,
"CAN","control_field",2023-08-25T05:27:11.815885508+00:00,1.2e-05,,0x0000000000000008,,,,
"CAN","data_field",2023-08-25T05:27:11.815901508+00:00,3.6e-05,,,,0x00,,
"CAN","data_field",2023-08-25T05:27:11.815941508+00:00,3.2e-05,,,,0x00,,
"CAN","data_field",2023-08-25T05:27:11.815977508+00:00,3.6e-05,,,,0x00,,
"CAN","data_field",2023-08-25T05:27:11.816017508+00:00,3.2e-05,,,,0x00,,
"CAN","data_field",2023-08-25T05:27:11.816057508+00:00,3.2e-05,,,,0x00,,
"CAN","data_field",2023-08-25T05:27:11.816093508+00:00,3.6e-05,,,,0x00,,
"CAN","data_field",2023-08-25T05:27:11.816133508+00:00,3.2e-05,,,,0x00,,
"CAN","data_field",2023-08-25T05:27:11.816169508+00:00,3.6e-05,,,,0x00,,
"CAN","crc_field",2023-08-25T05:27:11.816209508+00:00,5.6e-05,,,,,0x0000000000001522,
"CAN","ack_field",2023-08-25T05:27:11.816273508+00:00,4e-06,,,,,,true
"CAN","identifier_field",2023-08-25T05:27:11.822769476+00:00,0.000144,0x0000000018FEF100,,true,,,
"CAN","control_field",2023-08-25T05:27:11.822917476+00:00,1.2e-05,,0x0000000000000008,,,,
"CAN","data_field",2023-08-25T05:27:11.822933476+00:00,3.2e-05,,,,0xFF,,
"CAN","data_field",2023-08-25T05:27:11.822969476+00:00,3.2e-05,,,,0x00,,
"CAN","data_field",2023-08-25T05:27:11.823005476+00:00,3.6e-05,,,,0x00,,
"CAN","data_field",2023-08-25T05:27:11.823045476+00:00,2.8e-05,,,,0x50,,
"CAN","data_field",2023-08-25T05:27:11.823077476+00:00,3.6e-05,,,,0x00,,
"CAN","data_field",2023-08-25T05:27:11.823117476+00:00,3.2e-05,,,,0x00,,
"CAN","data_field",2023-08-25T05:27:11.823157476+00:00,3.2e-05,,,,0x00,,
"CAN","data_field",2023-08-25T05:27:11.823193476+00:00,3.2e-05,,,,0xC0,,
"CAN","crc_field",2023-08-25T05:27:11.823229476+00:00,5.6e-05,,,,,0x0000000000001D08,
"CAN","ack_field",2023-08-25T05:27:11.823293476+00:00,4e-06,,,,,,true
"CAN","identifier_field",2023-08-25T05:27:11.823393692+00:00,0.000148,0x0000000018EBFF00,,true,,,
"CAN","control_field",2023-08-25T05:27:11.823545692+00:00,1.2e-05,,0x0000000000000008,,,,
"CAN","data_field",2023-08-25T05:27:11.823561692+00:00,3.2e-05,,,,0x03,,
"CAN","data_field",2023-08-25T05:27:11.823597692+00:00,2.8e-05,,,,0x6F,,
"CAN","data_field",2023-08-25T05:27:11.823629692+00:00,3.2e-05,,,,0x00,,
"CAN","data_field",2023-08-25T05:27:11.823665692+00:00,3.2e-05,,,,0x02,,
"CAN","data_field",2023-08-25T05:27:11.823701692+00:00,3.2e-05,,,,0x01,,
"CAN","data_field",2023-08-25T05:27:11.823737692+00:00,2.8e-05,,,,0x5B,,
"CAN","data_field",2023-08-25T05:27:11.823769692+00:00,3.2e-05,,,,0x00,,
"CAN","data_field",2023-08-25T05:27:11.823805692+00:00,3.2e-05,,,,0x04,,
"CAN","crc_field",2023-08-25T05:27:11.823841692+00:00,5.6e-05,,,,,0x000000000000795F,
"CAN","ack_field",2023-08-25T05:27:11.823909692+00:00,4e-06,,,,,,true
"CAN","identifier_field",2023-08-25T05:27:11.832881380+00:00,0.000144,0x000000000CF00400,,true,,,
"CAN","control_field",2023-08-25T05:27:11.833029380+00:00,1.2e-05,,0x0000000000000008,,,,
"CAN","data_field",2023-08-25T05:27:11.833045380+00:00,3.2e-05,,,,0xFE,,
"CAN","data_field",2023-08-25T05:27:11.833081380+00:00,3.2e-05,,,,0x7D,,
"CAN","data_field",2023-08-25T05:27:11.833117380+00:00,3.2e-05,,,,0x7D,,
"CAN","data_field",2023-08-25T05:27:11.833153380+00:00,3.2e-05,,,,0x00,,
"CAN","data_field",2023-08-25T05:27:11.833189380+00:00,3.6e-05,,,,0x00,,
"CAN","data_field",2023-08-25T05:27:11.833229380+00:00,3.2e-05,,,,0x00,,
"CAN","data_field",2023-08-25T05:27:11.833265380+00:00,3.2e-05,,,,0xFF,,
"CAN","data_field",2023-08-25T05:27:11.833301380+00:00,3.2e-05,,,,0x7D,,
"CAN","crc_field",2023-08-25T05:27:11.833337380+00:00,6e-05,,,,,0x0000000000006D3F,
"CAN","ack_field",2023-08-25T05:27:11.833405380+00:00,4e-06,,,,,,true
"CAN","identifier_field",2023-08-25T05:27:11.835849276+00:00,0.00014,0x0000000008FE6E0B,,true,,,
"CAN","control_field",2023-08-25T05:27:11.835993276+00:00,1.2e-05,,0x0000000000000008,,,,
"CAN","data_field",2023-08-25T05:27:11.836009276+00:00,3.6e-05,,,,0x00,,
"CAN","data_field",2023-08-25T05:27:11.836049276+00:00,3.2e-05,,,,0x00,,
"CAN","data_field",2023-08-25T05:27:11.836085276+00:00,3.6e-05,,,,0x00,,
"CAN","data_field",2023-08-25T05:27:11.836125276+00:00,3.2e-05,,,,0x00,,
"CAN","data_field",2023-08-25T05:27:11.836165276+00:00,3.2e-05,,,,0x00,,
"CAN","data_field",2023-08-25T05:27:11.836201276+00:00,3.6e-05,,,,0x00,,
"CAN","data_field",2023-08-25T05:27:11.836241276+00:00,3.2e-05,,,,0x00,,
"CAN","data_field",2023-08-25T05:27:11.836277276+00:00,3.6e-05,,,,0x00,,
"CAN","crc_field",2023-08-25T05:27:11.836317276+00:00,5.6e-05,,,,,0x0000000000001522,
"CAN","ack_field",2023-08-25T05:27:11.836381276+00:00,4e-06,,,,,,true
"CAN","identifier_field",2023-08-25T05:27:11.842797308+00:00,0.000144,0x0000000018FEF200,,true,,,
"CAN","control_field",2023-08-25T05:27:11.842945308+00:00,1.2e-05,,0x0000000000000008,,,,
"CAN","data_field",2023-08-25T05:27:11.842961308+00:00,3.6e-05,,,,0x00,,
"CAN","data_field",2023-08-25T05:27:11.843001308+00:00,3.2e-05,,,,0x00,,
"CAN","data_field",2023-08-25T05:27:11.843037308+00:00,3.6e-05,,,,0x00,,
