name,type,start_time,duration,"identifier","extended","num_data_bytes","data","crc","ack"
"CAN","identifier_field",0.001598125,0.00014,0x0000000018F03300,true,,,,
"CAN","control_field",0.001742125,1.2e-05,,,0x0000000000000008,,,
"CAN","data_field",0.001758125,3.2e-05,,,,0xFF,,
"CAN","data_field",0.001794125,3.6e-05,,,,0xFF,,
"CAN","data_field",0.001834125,3.2e-05,,,,0xFF,,
"CAN","data_field",0.001870125,3.6e-05,,,,0xFF,,
"CAN","data_field",0.001910125,3.2e-05,,,,0xFF,,
"CAN","data_field",0.001950125,3.2e-05,,,,0xFF,,
"CAN","data_field",0.001986125,3.6e-05,,,,0xFF,,
"CAN","data_field",0.002026125,3.2e-05,,,,0xFF,,
"CAN","crc_field",0.002062125,6.4e-05,,,,,0x000000000000480D,
"CAN","ack_field",0.002134125,4e-06,,,,,,true
"CAN","identifier_field",0.003394625,0.000144,0x000000000CF00400,true,,,,
"CAN","control_field",0.003542625,1.2e-05,,,0x0000000000000008,,,
"CAN","data_field",0.003558625,2.8e-05,,,,0x70,,
"CAN","data_field",0.003590625,3.6e-05,,,,0x7D,,
"CAN","data_field",0.003630625,2.8e-05,,,,0x89,,
"CAN","data_field",0.003662625,2.8e-05,,,,0x16,,
"CAN","data_field",0.003694625,2.8e-05,,,,0x19,,
"CAN","data_field",0.003726625,3.2e-05,,,,0x00,,
"CAN","data_field",0.003762625,3.2e-05,,,,0x0F,,
"CAN","data_field",0.003798625,3.2e-05,,,,0x8A,,
"CAN","crc_field",0.003834625,5.6e-05,,,,,0x0000000000005951,
"CAN","ack_field",0.003898625,4e-06,,,,,,true
"CAN","identifier_field",0.006595375,0.000144,0x0000000018FCF200,true,,,,
"CAN","control_field",0.006743375,1.2e-05,,,0x0000000000000008,,,
"CAN","data_field",0.006759375,2.8e-05,,,,0xE1,,
"CAN","data_field",0.006791375,3.2e-05,,,,0xFF,,
"CAN","data_field",0.006827375,3.6e-05,,,,0xFF,,
"CAN","data_field",0.006867375,3.2e-05,,,,0xFF,,
"CAN","data_field",0.006907375,3.2e-05,,,,0xFF,,
"CAN","data_field",0.006943375,3.6e-05,,,,0xFF,,
"CAN","data_field",0.006983375,3.2e-05,,,,0xFF,,
"CAN","data_field",0.007019375,3.6e-05,,,,0xFF,,
"CAN","crc_field",0.007059375,5.6e-05,,,,,0x0000000000002DA6,
"CAN","ack_field",0.007123375,4e-06,,,,,,true
"CAN","identifier_field",0.0094676875,0.00014,0x000000000CF00203,true,,,,
"CAN","control_field",0.0096116875,1.2e-05,,,0x0000000000000008,,,
"CAN","data_field",0.0096276875,3.2e-05,,,,0xC0,,
"CAN","data_field",0.0096636875,3.2e-05,,,,0x00,,
"CAN","data_field",0.0096996875,3.6e-05,,,,0x00,,
"CAN","data_field",0.0097396875,3.2e-05,,,,0xFF,,
"CAN","data_field",0.0097756875,3.2e-05,,,,0xF7,,
"CAN","data_field",0.0098116875,2.8e-05,,,,0x3B,,
"CAN","data_field",0.0098436875,2.8e-05,,,,0x18,,
"CAN","data_field",0.0098756875,3.2e-05,,,,0x03,,
"CAN","crc_field",0.0099116875,5.6e-05,,,,,0x000000000000054B,
"CAN","ack_field",0.0099756875,4e-06,,,,,,true
"CAN","identifier_field",0.0100759375,0.00014,0x000000000CF00C03,true,,,,
"CAN","control_field",0.0102199375,1.2e-05,,,0x0000000000000008,,,
"CAN","data_field",0.0102359375,2.8e-05,,,,0xF1,,
"CAN","data_field",0.0102679375,3.2e-05,,,,0x03,,
"CAN","data_field",0.0103039375,2.8e-05,,,,0x58,,
"CAN","data_field",0.0103359375,3.2e-05,,,,0x19,,
"CAN","data_field",0.0103719375,3.2e-05,,,,0xFF,,
"CAN","data_field",0.0104079375,3.6e-05,,,,0xFF,,
"CAN","data_field",0.0104479375,3.2e-05,,,,0xFF,,
"CAN","data_field",0.0104879375,3.2e-05,,,,0xFF,,
"CAN","crc_field",0.0105239375,6.4e-05,,,,,0x0000000000003F7D,
"CAN","ack_field",0.0105959375,4e-06,,,,,,true
"CAN","identifier_field",0.0120325,0.000148,0x0000000018FEDF00,true,,,,
"CAN","control_field",0.0121845,1.2e-05,,,0x0000000000000008,,,
"CAN","data_field",0.0122005,2.8e-05,,,,0x84,,
"CAN","data_field",0.0122325,2.8e-05,,,,0xA0,,
"CAN","data_field",0.0122685,2.8e-05,,,,0x28,,
"CAN","data_field",0.0123005,3.2e-05,,,,0x7D,,
"CAN","data_field",0.0123365,3.2e-05,,,,0x7D,,
"CAN","data_field",0.0123725,3.2e-05,,,,0xFF,,
"CAN","data_field",0.0124085,3.6e-05,,,,0xFF,,
"CAN","data_field",0.0124485,3.2e-05,,,,0xF0,,
"CAN","crc_field",0.0124845,5.6e-05,,,,,0x0000000000004B5B,
"CAN","ack_field",0.0125485,4e-06,,,,,,true
"CAN","identifier_field",0.012604875,0.000144,0x0000000018E0FF00,true,,,,
"CAN","control_field",0.012752875,1.2e-05,,,0x0000000000000008,,,
"CAN","data_field",0.012768875,3.6e-05,,,,0x00,,
"CAN","data_field",0.012808875,3.2e-05,,,,0xFF,,
"CAN","data_field",0.012844875,3.6e-05,,,,0xFF,,
"CAN","data_field",0.012884875,3.2e-05,,,,0xFF,,
"CAN","data_field",0.012920875,3.6e-05,,,,0xFF,,
"CAN","data_field",0.012960875,3.2e-05,,,,0xFF,,
"CAN","data_field",0.013000875,3.2e-05,,,,0xFF,,
"CAN","data_field",0.013036875,3.6e-05,,,,0xFF,,
"CAN","crc_field",0.013076875,5.6e-05,,,,,0x0000000000005EBA,
"CAN","ack_field",0.013140875,4e-06,,,,,,true
"CAN","identifier_field",0.0131971875,0.000144,0x0000000018F00F00,true,,,,
"CAN","control_field",0.0133451875,1.2e-05,,,0x0000000000000008,,,
"CAN","data_field",0.0133611875,3.2e-05,,,,0xFF,,
"CAN","data_field",0.0133971875,3.6e-05,,,,0xFF,,
"CAN","data_field",0.0134371875,3.2e-05,,,,0xFF,,
"CAN","data_field",0.0134731875,3.6e-05,,,,0xFF,,
"CAN","data_field",0.0135131875,3.2e-05,,,,0xFF,,
"CAN","data_field",0.0135531875,3.2e-05,,,,0xFF,,
"CAN","data_field",0.0135891875,3.6e-05,,,,0xFF,,
"CAN","data_field",0.0136291875,3.2e-05,,,,0xFF,,
"CAN","crc_field",0.0136651875,6e-05,,,,,0x0000000000007AF3,
"CAN","ack_field",0.0137331875,4e-06,,,,,,true
"CAN","identifier_field",0.0166740625,0.000144,0x000000000CF00300,true,,,,
"CAN","control_field",0.0168220625,1.2e-05,,,0x0000000000000008,,,
"CAN","data_field",0.0168380625,2.8e-05,,,,0xD1,,
"CAN","data_field",0.0168700625,3.2e-05,,,,0x00,,
"CAN","data_field",0.0169060625,3.2e-05,,,,0x16,,
"CAN","data_field",0.0169420625,3.2e-05,,,,0xFF,,
"CAN","data_field",0.0169780625,3.6e-05,,,,0xFF,,
"CAN","data_field",0.0170180625,2.8e-05,,,,0x0F,,
"CAN","data_field",0.0170500625,3.2e-05,,,,0x8C,,
"CAN","data_field",0.0170860625,3.2e-05,,,,0x7E,,
"CAN","crc_field",0.0171220625,5.6e-05,,,,,0x0000000000002EA7,
"CAN","ack_field",0.0171860625,4e-06,,,,,,true
"CAN","identifier_field",0.017242375,0.000144,0x0000000018FEF100,true,,,,
"CAN","control_field",0.017390375,1.2e-05,,,0x0000000000000008,,,
"CAN","data_field",0.017406375,3.2e-05,,,,0xFF,,
"CAN","data_field",0.017442375,3.2e-05,,,,0x00,,
"CAN","data_field",0.017478375,3.6e-05,,,,0x00,,
"CAN","data_field",0.017518375,3.2e-05,,,,0xFC,,
"CAN","data_field",0.017554375,3.2e-05,,,,0xFF,,
"CAN","data_field",0.017590375,2.8e-05,,,,0x3D,,
"CAN","data_field",0.017622375,3.2e-05,,,,0x00,,
"CAN","data_field",0.017658375,2.8e-05,,,,0xCF,,
"CAN","crc_field",0.017690375,6.4e-05,,,,,0x000000000000497C,
"CAN","ack_field",0.017762375,4e-06,,,,,,true
"CAN","identifier_field",0.01862275,0.000136,0x0000000018F0010B,true,,,,
"CAN","control_field",0.01876275,1.2e-05,,,0x0000000000000008,,,
"CAN","data_field",0.01877875,2.8e-05,,,,0xCF,,
"CAN","data_field",0.01881075,3.6e-05,,,,0xFF,,
"CAN","data_field",0.01885075,3.2e-05,,,,0xF0,,
"CAN","data_field",0.01888675,3.2e-05,,,,0xFF,,
"CAN","data_field",0.01892275,3.6e-05,,,,0xFF,,
"CAN","data_field",0.01896275,2.8e-05,,,,0xCD,,
"CAN","data_field",0.01899475,3.2e-05,,,,0xFF,,
"CAN","data_field",0.01903075,3.6e-05,,,,0xFF,,
"CAN","crc_field",0.01907075,5.6e-05,,,,,0x000000000000459B,
"CAN","ack_field",0.01913475,4e-06,,,,,,true
"CAN","identifier_field",0.0195150625,0.00014,0x000000000CF00203,true,,,,
"CAN","control_field",0.0196590625,1.2e-05,,,0x0000000000000008,,,
"CAN","data_field",0.0196750625,3.2e-05,,,,0xC0,,
"CAN","data_field",0.0197110625,3.2e-05,,,,0x00,,
"CAN","data_field",0.0197470625,3.6e-05,,,,0x00,,
"CAN","data_field",0.0197870625,3.2e-05,,,,0xFF,,
"CAN","data_field",0.0198230625,3.2e-05,,,,0xF7,,
"CAN","data_field",0.0198590625,2.8e-05,,,,0x3C,,
"CAN","data_field",0.0198910625,3.2e-05,,,,0x18,,
"CAN","data_field",0.0199270625,3.2e-05,,,,0x03,,
"CAN","crc_field",0.0199630625,5.6e-05,,,,,0x0000000000001B8C,
"CAN","ack_field",0.0200270625,4e-06,,,,,,true
"CAN","identifier_field",0.020563125,0.000144,0x000000000C010305,true,,,,
"CAN","control_field",0.020711125,1.2e-05,,,0x0000000000000008,,,
"CAN","data_field",0.020727125,3.2e-05,,,,0xFF,,
"CAN","data_field",0.020763125,3.6e-05,,,,0xFF,,
"CAN","data_field",0.020803125,3.2e-05,,,,0xFF,,
"CAN","data_field",0.020839125,3.6e-05,,,,0xFF,,
"CAN","data_field",0.020879125,3.2e-05,,,,0xFF,,
"CAN","data_field",0.020919125,2.8e-05,,,,0xF3,,
"CAN","data_field",0.020951125,3.2e-05,,,,0xFF,,
"CAN","data_field",0.020991125,3.2e-05,,,,0xFF,,
"CAN","crc_field",0.021027125,6.4e-05,,,,,0x000000000000007D,
"CAN","ack_field",0.021099125,4e-06,,,,,,true
"CAN","identifier_field",0.0216435625,0.000144,0x0000000018FEEE00,true,,,,
"CAN","control_field",0.0217915625,1.2e-05,,,0x0000000000000008,,,
"CAN","data_field",0.0218075625,3.2e-05,,,,0x7D,,
"CAN","data_field",0.0218435625,3.2e-05,,,,0xFF,,
"CAN","data_field",0.0218795625,3.6e-05,,,,0xFF,,
"CAN","data_field",0.0219195625,3.2e-05,,,,0xFF,,
"CAN","data_field",0.0219595625,3.2e-05,,,,0xFF,,
"CAN","data_field",0.0219955625,3.6e-05,,,,0xFF,,
"CAN","data_field",0.0220355625,3.2e-05,,,,0xFF,,
"CAN","data_field",0.0220715625,3.6e-05,,,,0xFF,,
"CAN","crc_field",0.0221115625,5.6e-05,,,,,0x00000000000050A0,
"CAN","ack_field",0.0221795625,4e-06,,,,,,true
"CAN","identifier_field",0.023436125,0.000144,0x000000000CF00400,true,,,,
"CAN","control_field",0.023584125,1.2e-05,,,0x0000000000000008,,,
"CAN","data_field",0.023600125,2.8e-05,,,,0x50,,
"CAN","data_field",0.023632125,3.6e-05,,,,0x7D,,
"CAN","data_field",0.023672125,2.8e-05,,,,0x89,,
"CAN","data_field",0.023704125,2.8e-05,,,,0x25,,
"CAN","data_field",0.023736125,2.8e-05,,,,0x19,,
"CAN","data_field",0.023768125,3.2e-05,,,,0x00,,
"CAN","data_field",0.023804125,3.2e-05,,,,0x0F,,
"CAN","data_field",0.023840125,3.2e-05,,,,0x8A,,
"CAN","crc_field",0.023876125,5.6e-05,,,,,0x0000000000005170,
"CAN","ack_field",0.023940125,4e-06,,,,,,true
"CAN","identifier_field",0.026612875,0.000144,0x0000000010FDA300,true,,,,
"CAN","control_field",0.026760875,1.2e-05,,,0x0000000000000008,,,
"CAN","data_field",0.026776875,3.2e-05,,,,0xFF,,
"CAN","data_field",0.026812875,3.6e-05,,,,0xFF,,
"CAN","data_field",0.026852875,2.8e-05,,,,0x12,,
"CAN","data_field",0.026884875,3.2e-05,,,,0xFF,,
"CAN","data_field",0.026920875,3.6e-05,,,,0xFF,,
"CAN","data_field",0.026960875,3.2e-05,,,,0xFF,,
"CAN","data_field",0.026996875,3.6e-05,,,,0xFF,,
"CAN","data_field",0.027036875,3.2e-05,,,,0xFF,,
"CAN","crc_field",0.027076875,5.6e-05,,,,,0x00000000000054B1,
"CAN","ack_field",0.027140875,4e-06,,,,,,true
"CAN","identifier_field",0.02719725,0.00014,0x0000000018F00029,true,,,,
"CAN","control_field",0.02734125,1.2e-05,,,0x0000000000000008,,,
"CAN","data_field",0.02735725,2.8e-05,,,,0xF0,,
"CAN","data_field",0.02738925,3.6e-05,,,,0x7D,,
"CAN","data_field",0.02742925,3.2e-05,,,,0x7D,,
"CAN","data_field",0.02746525,3.2e-05,,,,0xF3,,
"CAN","data_field",0.02750125,2.8e-05,,,,0x29,,
"CAN","data_field",0.02753325,3.2e-05,,,,0xFF,,
"CAN","data_field",0.02756925,3.6e-05,,,,0xFF,,
"CAN","data_field",0.02760925,2.8e-05,,,,0x3C,,
"CAN","crc_field",0.02764125,5.6e-05,,,,,0x000000000000684D,
"CAN","ack_field",0.02770525,4e-06,,,,,,true
"CAN","identifier_field",0.0286535625,0.00014,0x0000000018FEBF0B,true,,,,
"CAN","control_field",0.0287975625,1.2e-05,,,0x0000000000000008,,,
"CAN","data_field",0.0288135625,3.6e-05,,,,0x00,,
"CAN","data_field",0.0288535625,3.2e-05,,,,0x00,,
"CAN","data_field",0.0288895625,3.6e-05,,,,0x7D,,
"CAN","data_field",0.0289295625,3.2e-05,,,,0x7D,,
"CAN","data_field",0.0289655625,3.2e-05,,,,0x7D,,
"CAN","data_field",0.0290015625,3.2e-05,,,,0x7D,,
"CAN","data_field",0.0290375625,3.2e-05,,,,0xFF,,
"CAN","data_field",0.0290735625,3.6e-05,,,,0xFF,,
"CAN","crc_field",0.0291135625,6e-05,,,,,0x0000000000007D87,
"CAN","ack_field",0.0291815625,4e-06,,,,,,true
"CAN","identifier_field",0.029477625,0.00014,0x000000000CF00203,true,,,,
"CAN","control_field",0.029621625,1.2e-05,,,0x0000000000000008,,,
"CAN","data_field",0.029637625,3.2e-05,,,,0xC0,,
"CAN","data_field",0.029673625,3.2e-05,,,,0x00,,
"CAN","data_field",0.029709625,3.6e-05,,,,0x00,,
"CAN","data_field",0.029749625,3.2e-05,,,,0xFF,,
"CAN","data_field",0.029785625,3.2e-05,,,,0xF7,,
"CAN","data_field",0.029821625,2.8e-05,,,,0x3C,,
"CAN","data_field",0.029853625,3.2e-05,,,,0x18,,
"CAN","data_field",0.029889625,3.2e-05,,,,0x03,,
"CAN","crc_field",0.029925625,5.6e-05,,,,,0x0000000000001B8C,
"CAN","ack_field",0.029989625,4e-06,,,,,,true
"CAN","identifier_field",0.0300859375,0.00014,0x000000000CF00C03,true,,,,
"CAN","control_field",0.0302299375,1.2e-05,,,0x0000000000000008,,,
"CAN","data_field",0.0302459375,2.8e-05,,,,0xEE,,
"CAN","data_field",0.0302779375,3.2e-05,,,,0x03,,
"CAN","data_field",0.0303139375,2.8e-05,,,,0x26,,
"CAN","data_field",0.0303459375,2.8e-05,,,,0x19,,
"CAN","data_field",0.0303779375,3.2e-05,,,,0xFF,,
"CAN","data_field",0.0304139375,3.6e-05,,,,0xFF,,
"CAN","data_field",0.0304539375,3.2e-05,,,,0xFF,,
"CAN","data_field",0.0304939375,3.2e-05,,,,0xFF,,
"CAN","crc_field",0.0305299375,6.4e-05,,,,,0x0000000000005FC1,
"CAN","ack_field",0.0306019375,4e-06,,,,,,true
"CAN","identifier_field",0.0307021875,0.00014,0x0000000018F00503,true,,,,
"CAN","control_field",0.0308461875,1.2e-05,,,0x0000000000000008,,,
"CAN","data_field",0.0308621875,3.2e-05,,,,0x7D,,
"CAN","data_field",0.0308981875,3.2e-05,,,,0x00,,
"CAN","data_field",0.0309341875,3.6e-05,,,,0x00,,
"CAN","data_field",0.0309741875,3.2e-05,,,,0x7D,,
"CAN","data_field",0.0310101875,2.8e-05,,,,0x4E,,
"CAN","data_field",0.0310421875,2.8e-05,,,,0x20,,
"CAN","data_field",0.0310781875,2.8e-05,,,,0x4E,,
"CAN","data_field",0.0311101875,2.8e-05,,,,0x43,,
"CAN","crc_field",0.0311421875,5.6e-05,,,,,0x0000000000001129,
"CAN","ack_field",0.0312061875,4e-06,,,,,,true
"CAN","identifier_field",0.0313064375,0.00014,0x0000000018FE4A03,true,,,,
"CAN","control_field",0.0314504375,1.2e-05,,,0x0000000000000008,,,
"CAN","data_field",0.0314664375,3.2e-05,,,,0x03,,
"CAN","data_field",0.0315024375,2.8e-05,,,,0x1F,,
"CAN","data_field",0.0315384375,2.8e-05,,,,0x4F,,
"CAN","data_field",0.0315704375,3.6e-05,,,,0xFF,,
"CAN","data_field",0.0316104375,3.2e-05,,,,0xFF,,
"CAN","data_field",0.0316504375,2.8e-05,,,,0xF3,,
"CAN","data_field",0.0316824375,3.2e-05,,,,0xFF,,
"CAN","data_field",0.0317224375,3.2e-05,,,,0xFF,,
"CAN","crc_field",0.0317584375,6e-05,,,,,0x00000000000063D5,
"CAN","ack_field",0.0318264375,4e-06,,,,,,true
"CAN","identifier_field",0.03208275,0.000148,0x0000000018FEDF00,true,,,,
"CAN","control_field",0.03223475,1.2e-05,,,0x0000000000000008,,,
"CAN","data_field",0.03225075,2.8e-05,,,,0x84,,
"CAN","data_field",0.03228275,2.8e-05,,,,0xA0,,
"CAN","data_field",0.03231875,2.8e-05,,,,0x28,,
"CAN","data_field",0.03235075,3.2e-05,,,,0x7D,,
"CAN","data_field",0.03238675,3.2e-05,,,,0x7D,,
"CAN","data_field",0.03242275,3.2e-05,,,,0xFF,,
"CAN","data_field",0.03245875,3.6e-05,,,,0xFF,,
"CAN","data_field",0.03249875,3.2e-05,,,,0xF0,,
"CAN","crc_field",0.03253475,5.6e-05,,,,,0x0000000000004B5B,
"CAN","ack_field",0.03259875,4e-06,,,,,,true
"CAN","identifier_field",0.03665575,0.000144,0x0000000018FCDC00,true,,,,
"CAN","control_field",0.03680375,1.2e-05,,,0x0000000000000008,,,
"CAN","data_field",0.03681975,2.8e-05,,,,0x9F,,
"CAN","data_field",0.03685575,3.2e-05,,,,0xFF,,
"CAN","data_field",0.03689175,3.6e-05,,,,0xFF,,
"CAN","data_field",0.03693175,3.2e-05,,,,0xFF,,
"CAN","data_field",0.03696775,3.2e-05,,,,0xF8,,
"CAN","data_field",0.03700375,3.6e-05,,,,0x3D,,
"CAN","data_field",0.03704375,3.2e-05,,,,0x00,,
"CAN","data_field",0.03707975,3.6e-05,,,,0x00,,
"CAN","crc_field",0.03711975,6e-05,,,,,0x00000000000006E4,
"CAN","ack_field",0.03718775,4e-06,,,,,,true
"CAN","identifier_field",0.0372440625,0.000144,0x000000000CF00300,true,,,,
"CAN","control_field",0.0373920625,1.2e-05,,,0x0000000000000008,,,
"CAN","data_field",0.0374080625,2.8e-05,,,,0xD1,,
"CAN","data_field",0.0374400625,3.2e-05,,,,0x00,,
"CAN","data_field",0.0374760625,3.2e-05,,,,0x16,,
"CAN","data_field",0.0375120625,3.2e-05,,,,0xFF,,
"CAN","data_field",0.0375480625,3.6e-05,,,,0xFF,,
"CAN","data_field",0.0375880625,2.8e-05,,,,0x0F,,
"CAN","data_field",0.0376200625,3.2e-05,,,,0x8C,,
"CAN","data_field",0.0376560625,3.2e-05,,,,0x7E,,
"CAN","crc_field",0.0376920625,5.6e-05,,,,,0x0000000000002EA7,
"CAN","ack_field",0.0377560625,4e-06,,,,,,true
"CAN","identifier_field",0.0378084375,0.000144,0x000000001CFE9200,true,,,,
"CAN","control_field",0.0379564375,1.2e-05,,,0x0000000000000008,,,
"CAN","data_field",0.0379724375,3.2e-05,,,,0xFF,,
"CAN","data_field",0.0380084375,3.2e-05,,,,0xC4,,
"CAN","data_field",0.0380444375,2.8e-05,,,,0x92,,
"CAN","data_field",0.0380764375,3.2e-05,,,,0xFF,,
"CAN","data_field",0.0381124375,3.6e-05,,,,0xFF,,
"CAN","data_field",0.0381524375,3.2e-05,,,,0xFF,,
"CAN","data_field",0.0381884375,2.8e-05,,,,0x0A,,
"CAN","data_field",0.0382204375,3.2e-05,,,,0x00,,
"CAN","crc_field",0.0382564375,6e-05,,,,,0x0000000000000E86,
"CAN","ack_field",0.0383244375,4e-06,,,,,,true
"CAN","identifier_field",0.0383766875,0.000136,0x000000000CF00331,true,,,,
"CAN","control_field",0.0385166875,1.2e-05,,,0x0000000000000008,,,
"CAN","data_field",0.0385326875,3.2e-05,,,,0xFF,,
"CAN","data_field",0.0385686875,3.6e-05,,,,0xFF,,
"CAN","data_field",0.0386086875,3.2e-05,,,,0xFF,,
"CAN","data_field",0.0386446875,3.6e-05,,,,0xFF,,
"CAN","data_field",0.0386846875,3.2e-05,,,,0xFF,,
"CAN","data_field",0.0387246875,3.2e-05,,,,0xFF,,
"CAN","data_field",0.0387606875,3.6e-05,,,,0xFF,,
"CAN","data_field",0.0388006875,3.2e-05,,,,0xFF,,
"CAN","crc_field",0.0388366875,5.6e-05,,,,,0x00000000000022DE,
"CAN","ack_field",0.0389006875,4e-06,,,,,,true
"CAN","identifier_field",0.038952875,0.000144,0x0000000018FEF500,true,,,,
"CAN","control_field",0.039100875,1.2e-05,,,0x0000000000000008,,,
"CAN","data_field",0.039116875,2.8e-05,,,,0xA7,,
"CAN","data_field",0.039148875,3.6e-05,,,,0xFF,,
"CAN","data_field",0.039188875,3.2e-05,,,,0xFF,,
"CAN","data_field",0.039224875,3.2e-05,,,,0x93,,
"CAN","data_field",0.039260875,2.8e-05,,,,0x23,,
"CAN","data_field",0.039292875,3.2e-05,,,,0xFF,,
"CAN","data_field",0.039332875,3.2e-05,,,,0xFF,,
"CAN","data_field",0.039368875,3.6e-05,,,,0xFF,,
"CAN","crc_field",0.039408875,6e-05,,,,,0x000000000000087F,
"CAN","ack_field",0.039476875,4e-06,,,,,,true
"CAN","identifier_field",0.03952925,0.00014,0x000000000CF00203,true,,,,
"CAN","control_field",0.03967325,1.2e-05,,,0x0000000000000008,,,
"CAN","data_field",0.03968925,3.2e-05,,,,0xC0,,
"CAN","data_field",0.03972525,3.2e-05,,,,0x00,,
"CAN","data_field",0.03976125,3.6e-05,,,,0x00,,
"CAN","data_field",0.03980125,3.2e-05,,,,0xFF,,
"CAN","data_field",0.03983725,3.2e-05,,,,0xF7,,
"CAN","data_field",0.03987325,3.2e-05,,,,0x3F,,
"CAN","data_field",0.03990925,2.8e-05,,,,0x18,,
"CAN","data_field",0.03994125,3.2e-05,,,,0x03,,
"CAN","crc_field",0.03997725,5.6e-05,,,,,0x0000000000004E29,
"CAN","ack_field",0.04004125,4e-06,,,,,,true
"CAN","identifier_field",0.0434140625,0.000144,0x000000000CF00400,true,,,,
"CAN","control_field",0.0435620625,1.2e-05,,,0x0000000000000008,,,
"CAN","data_field",0.0435780625,3.2e-05,,,,0x40,,
"CAN","data_field",0.0436140625,3.2e-05,,,,0x7D,,
"CAN","data_field",0.0436500625,2.8e-05,,,,0x89,,
"CAN","data_field",0.0436820625,2.8e-05,,,,0x29,,
"CAN","data_field",0.0437140625,2.8e-05,,,,0x19,,
"CAN","data_field",0.0437460625,3.2e-05,,,,0x00,,
"CAN","data_field",0.0437820625,3.2e-05,,,,0x0F,,
"CAN","data_field",0.0438180625,3.2e-05,,,,0x8A,,
"CAN","crc_field",0.0438540625,5.6e-05,,,,,0x000000000000256A,
"CAN","ack_field",0.0439180625,4e-06,,,,,,true
"CAN","identifier_field",0.046618875,0.000144,0x0000000014FC9800,true,,,,
"CAN","control_field",0.046766875,1.2e-05,,,0x0000000000000008,,,
"CAN","data_field",0.046782875,3.2e-05,,,,0xFF,,
"CAN","data_field",0.046818875,3.2e-05,,,,0x00,,
"CAN","data_field",0.046854875,3.6e-05,,,,0x00,,
"CAN","data_field",0.046894875,3.2e-05,,,,0x00,,
"CAN","data_field",0.046930875,3.6e-05,,,,0x00,,
"CAN","data_field",0.046970875,3.2e-05,,,,0x00,,
"CAN","data_field",0.047010875,3.2e-05,,,,0x00,,
"CAN","data_field",0.047046875,3.2e-05,,,,0xFF,,
"CAN","crc_field",0.047082875,6e-05,,,,,0x0000000000000440,
"CAN","ack_field",0.047150875,4e-06,,,,,,true
