 (000.000000)  can0  0CF00C03   [8]  EA 03 96 16 FF FF FF FF
 (000.000003)  can0  18F00F00   [8]  76 0F FF FF D5 9F FF FF
 (000.002695)  can0  18FEBF0B   [8]  00 00 7D 7D 7D 7D FF FF
 (000.003319)  can0  0CF00300   [8]  D1 00 0E FF FF 0F 69 7E
 (000.003931)  can0  18FEF100   [8]  FF 00 00 FC FF 68 00 CF
 (000.007792)  can0  0CF00203   [8]  C0 00 00 FF F7 52 16 03
 (000.009610)  can0  0CF00331   [8]  FF FF FF FF FF FF FF FF
 (000.010237)  can0  0CF00400   [8]  00 7D 85 9F 16 00 0F 85
 (000.013354)  can0  10FDA300   [8]  FF FF 13 FF FF FF FF FF
 (000.013613)  can0  18FE9900   [8]  FF FF FF FF FF FF FF FF
 (000.014190)  can0  18F00029   [8]  F0 7D 7D F3 29 FF FF 3C
 (000.017782)  can0  0CF00203   [8]  C0 00 00 FF F7 52 16 03
 (000.018302)  can0  18FD8C00   [8]  FF FF 00 00 FF FF FF FF
 (000.018871)  can0  0CF00C03   [8]  E9 03 7C 16 FF FF FF FF
 (000.019443)  can0  18FEDF00   [8]  84 A0 28 7D 7F FF FF F5
 (000.023434)  can0  18FCDC00   [8]  9F FF FF FF 50 68 00 00
 (000.023983)  can0  0CF00300   [8]  D1 00 0E FF FF 0F 68 7E
 (000.024595)  can0  1CFE9200   [8]  FF 9C 90 FF FF FF 00 00
 (000.027757)  can0  0CF00203   [8]  C0 00 00 FF F7 52 16 03
 (000.029947)  can0  0CF00400   [8]  70 7D 84 B0 16 00 0F 85
 (000.033245)  can0  0CF00A00   [8]  84 03 87 05 FF FF FF FF
 (000.033635)  can0  18FD9400   [8]  C9 14 FF FF FF FF FF FF
 (000.034238)  can0  18FEFC00   [8]  FF FF FF FF FF FF FF FF
 (000.034807)  can0  18F00E00   [8]  0C 25 FF FF D5 9F FF FF
 (000.037776)  can0  0CF00203   [8]  C0 00 00 FF F7 52 16 03
 (000.038350)  can0  18FD2000   [8]  B9 3D FF FF FF FF FF FF
 (000.039040)  can0  0CF00C03   [8]  F0 03 DB 16 FF FF FF FF
 (000.039501)  can0  18F03300   [8]  FF FF FF FF FF FF FF FF
 (000.040047)  can0  18FEDF00   [8]  84 A0 28 7D 7F FF FF F5
 (000.043607)  can0  18FEE000   [8]  CC 2C 01 00 15 96 35 00
 (000.043878)  can0  0CF00300   [8]  D1 00 0E FF FF 0F 69 7E
 (000.047675)  can0  0C010305   [8]  FF FF FF FF FF F3 FF FF
 (000.047830)  can0  0CF00203   [8]  C0 00 00 FF F7 51 16 03
 (000.049116)  can0  18FEF200   [8]  15 00 00 00 C2 09 E1 FF
 (000.049124)  can0  18F00F00   [8]  76 0F FF FF D5 9F FF FF
 (000.049983)  can0  0CF00400   [8]  70 7D 84 AC 16 00 0F 85
 (000.057821)  can0  0CF00203   [8]  C0 00 00 FF F7 51 16 03
 (000.058415)  can0  18FEDF00   [8]  84 A0 28 7D 7F FF FF F5
 (000.059088)  can0  0CF00C03   [8]  EC 03 C3 16 FF FF FF FF
 (000.059580)  can0  10FCFD00   [8]  FF FF FF FF 00 32 FF FF
 (000.060799)  can0  18F00131   [8]  FF FF FF 3F 00 FF FF FF
 (000.060802)  can0  18F00503   [8]  7D 00 00 7D 4E 20 4E 43
 (000.061156)  can0  18FEF131   [8]  F3 FF FF C3 CC FF FF F0
 (000.061826)  can0  18FE4A03   [8]  03 1F 4F FF FF F3 FF FF
 (000.062360)  can0  18FEF031   [8]  FF FF FF FF FF FC CC FF
 (000.062999)  can0  18FF4831   [8]  00 00 FF FF 00 00 00 00
 (000.063602)  can0  18FEF231   [8]  FF FF FF FF FF FF FF FF
 (000.064102)  can0  18FD3E00   [8]  F0 41 FF DC 3E FF FF FF
 (000.064732)  can0  0CF00331   [8]  FF FF FF FF FF FF FF FF
 (000.065631)  can0  0CF00300   [8]  D1 00 0E FF FF 0F 69 7E
 (000.068099)  can0  0CF00203   [8]  C0 00 00 FF F7 53 16 03
 (000.068309)  can0  18F00100   [8]  FF FF FF FF FF FF FF FF
 (000.070793)  can0  0CF00400   [8]  00 7D 85 AC 16 00 0F 85
 (000.077779)  can0  0CF00203   [8]  C0 00 00 FF F7 53 16 03
 (000.079162)  can0  18FEDF00   [8]  84 A0 28 7D 7F FF FF F5
 (000.079169)  can0  0CF00C03   [8]  EA 03 71 16 FF FF FF FF
 (000.083423)  can0  18FD4000   [8]  FF 3F 00 FF FF FF FF FF
 (000.083987)  can0  0CF00300   [8]  D1 00 0E FF FF 0F 69 7E
 (000.084553)  can0  0CF00A00   [8]  84 03 74 05 FF FF FF FF
 (000.085152)  can0  18FEF000   [8]  FF FF FF A9 16 FF FF FF
 (000.085721)  can0  18F00E00   [8]  18 25 FF FF D5 9F FF FF
 (000.086303)  can0  1CECFF00   [8]  20 0E 00 02 FF CA FE 00
 (000.087787)  can0  0CF00203   [8]  C0 00 00 FF F7 58 16 03
 (000.088331)  can0  18F03300   [8]  FF FF FF FF FF FF FF FF
 (000.089886)  can0  0CF00400   [8]  70 7D 84 A4 16 00 0F 85
 (000.093601)  can0  18F0010B   [8]  CF FF F0 FF FF CD FF FF
 (000.093609)  can0  18FCF200   [8]  E1 FF FF FF FF FF FF FF
 (000.097707)  can0  0C010305   [8]  FF FF FF FF FF F3 FF FF
 (000.097739)  can0  0CF00203   [8]  C0 00 00 FF F7 58 16 03
 (000.098393)  can0  18FEDF00   [8]  84 A0 28 7D 7F FF FF F5
 (000.098957)  can0  0CF00C03   [8]  EC 03 99 16 FF FF FF FF
 (000.099582)  can0  18F00F00   [8]  76 0F FF FF D5 9F FF FF
 (000.103111)  can0  18FEBF0B   [8]  00 00 7D 7D 7D 7D FF FF
 (000.103472)  can0  0CF00300   [8]  D1 00 0E FF FF 0F 68 7E
 (000.104111)  can0  18FEF100   [8]  FF 00 00 FC FF 68 00 CF
 (000.108480)  can0  0CF00203   [8]  C0 00 00 FF F7 5A 16 03
 (000.108490)  can0  18FCC500   [8]  F0 41 FF FF FF FF FF FF
 (000.108927)  can0  0CFD9200   [8]  F4 FF FA FF FF FF FF FF
 (000.109598)  can0  0CF00331   [8]  FF FF FF FF FF FF FF FF
 (000.110233)  can0  0CF00400   [8]  20 7D 85 91 16 00 0F 85
 (000.113436)  can0  10FDA300   [8]  FF FF 13 FF FF FF FF FF
 (000.113589)  can0  18F00029   [8]  F0 7D 7D F3 29 FF FF 3C
 (000.117849)  can0  0CF00203   [8]  C0 00 00 FF F7 5A 16 03
 (000.118426)  can0  18FEDF00   [8]  84 A0 28 7D 7F FF FF F5
 (000.118997)  can0  0CF00C03   [8]  EF 03 D7 16 FF FF FF FF
 (000.123373)  can0  18FCDC00   [8]  9F FF FF FF 50 68 00 00
 (000.124056)  can0  0CF00300   [8]  D1 00 0F FF FF 0F 69 7E
 (000.124605)  can0  1CFE9200   [8]  FF 88 90 FF FF FF 00 00
 (000.127826)  can0  0CF00203   [8]  C0 00 00 FF F7 59 16 03
 (000.129961)  can0  0CF00400   [8]  10 7D 85 98 16 00 0F 85
 (000.133704)  can0  0CF00A00   [8]  96 03 62 05 FF FF FF FF
 (000.133711)  can0  18FD9400   [8]  63 17 FF FF FF FF FF FF
 (000.134376)  can0  18FEEF00   [8]  FF FF FF 1E 36 7D FF FA
 (000.134748)  can0  18F00E00   [8]  18 25 FF FF D5 9F FF FF
 (000.136264)  can0  1CEBFF00   [8]  01 43 FF BF 00 09 08 54
 (000.137792)  can0  0CF00203   [8]  C0 00 00 FF F7 59 16 03
 (000.139205)  can0  18F03300   [8]  FF FF FF FF FF FF FF FF
 (000.139210)  can0  0CF00C03   [8]  E9 03 89 16 FF FF FF FF
 (000.139490)  can0  18FEDF00   [8]  84 A0 28 7D 7F FF FF F5
 (000.143615)  can0  18FEE000   [8]  CC 2C 01 00 15 96 35 00
 (000.143966)  can0  0CF00300   [8]  D1 00 0F FF FF 0F 6A 7E
 (000.147279)  can0  0C010305   [8]  FF FF FF FF FF F3 FF FF
 (000.147818)  can0  0CF00203   [8]  C0 00 00 FF F7 56 16 03
 (000.148402)  can0  18FEF200   [8]  10 00 00 00 C2 09 E1 FF
 (000.148932)  can0  18F00F00   [8]  76 0F FF FF D5 9F FF FF
 (000.149884)  can0  0CF00400   [8]  10 7D 85 9F 16 00 0F 85
 (000.153111)  can0  18FEDB00   [8]  FF FF 9D 31 FF FF FF FF
 (000.157792)  can0  0CF00203   [8]  C0 00 00 FF F7 56 16 03
 (000.158357)  can0  18FEDF00   [8]  84 A0 28 7D 7F FF FF F5
 (000.158924)  can0  0CF00C03   [8]  EA 03 4B 16 FF FF FF FF
 (000.159505)  can0  10FCFD00   [8]  FF FF FF FF 00 32 FF FF
 (000.160114)  can0  18F00131   [8]  FF FF FF 3F 00 FF FF FF
 (000.161404)  can0  18F00503   [8]  7D 00 00 7D 4E 20 4E 43
 (000.161411)  can0  18FEF131   [8]  F3 FF FF C3 CC FF FF F0
 (000.161779)  can0  18FE4A03   [8]  03 1F 4F FF FF F3 FF FF
 (000.162362)  can0  18FEF031   [8]  FF FF FF FF FF FC CC FF
 (000.163074)  can0  18FF4831   [8]  00 00 FF FF 00 00 00 00
 (000.163573)  can0  18FEF231   [8]  FF FF FF FF FF FF FF FF
 (000.164172)  can0  0CF00300   [8]  D1 00 0E FF FF 0F 69 7E
 (000.164749)  can0  0CF00331   [8]  FF FF FF FF FF FF FF FF
 (000.168076)  can0  0CF00203   [8]  C0 00 00 FF F7 57 16 03
 (000.168307)  can0  18F00100   [8]  FF FF FF FF FF FF FF FF
 (000.170814)  can0  0CF00400   [8]  00 7D 85 A4 16 00 0F 85
 (000.173120)  can0  18FEF600   [8]  FF 00 64 FF FF FF FF FF
 (000.177780)  can0  0CF00203   [8]  C0 00 00 FF F7 57 16 03
 (000.178330)  can0  18FEDF00   [8]  84 A0 28 7D 7F FF FF F5
 (000.178926)  can0  0CF00C03   [8]  ED 03 CC 16 FF FF FF FF
 (000.183438)  can0  0CF00300   [8]  D1 00 0E FF FF 0F 68 7E
 (000.184057)  can0  0CF00A00   [8]  A0 03 74 05 FF FF FF FF
 (000.184617)  can0  18FEF000   [8]  FF FF FF A3 16 FF FF FF
 (000.185579)  can0  18F00E00   [8]  18 25 FF FF D5 9F FF FF
 (000.187845)  can0  0CF00203   [8]  C0 00 00 FF F7 57 16 03
 (000.188317)  can0  18F03300   [8]  FF FF FF FF FF FF FF FF
 (000.189886)  can0  0CF00400   [8]  00 7D 85 A8 16 00 0F 85
 (000.190499)  can0  1CEBFF00   [8]  02 00 09 08 ED 14 1F 01
 (000.193787)  can0  18FCF200   [8]  E1 FF FF FF FF FF FF FF
 (000.193797)  can0  18F0010B   [8]  CF FF F0 FF FF CD FF FF
 (000.197797)  can0  0C010305   [8]  FF FF FF FF FF F3 FF FF
 (000.197809)  can0  0CF00203   [8]  C0 00 00 FF F7 57 16 03
 (000.198346)  can0  18FEDF00   [8]  84 A0 28 7D 7F FF FF F5
 (000.198934)  can0  0CF00C03   [8]  EC 03 FA 16 FF FF FF FF
 (000.199548)  can0  18FDC600   [8]  FC 04 FF FF FF FF FF FF
 (000.200105)  can0  18F00F00   [8]  76 0F FF FF D5 9F FF FF
 (000.203209)  can0  18FEBF0B   [8]  00 00 7D 7D 7D 7D FF FF
 (000.203771)  can0  0CF00300   [8]  D1 00 0E FF FF 0F 68 7E
 (000.204283)  can0  18FEF100   [8]  FF 00 00 FC FF 68 00 CF
 (000.208429)  can0  0CF00203   [8]  C0 00 00 FF F7 56 16 03
 (000.209548)  can0  0CF00331   [8]  FF FF FF FF FF FF FF FF
 (000.210082)  can0  0CF00400   [8]  70 7D 84 B2 16 00 0F 85
 (000.213029)  can0  10FDA300   [8]  FF FF 13 FF FF FF FF FF
 (000.213622)  can0  18F00029   [8]  F0 7D 7D F3 29 FF FF 3C
 (000.217786)  can0  0CF00203   [8]  C0 00 00 FF F7 56 16 03
 (000.218360)  can0  18FEDF00   [8]  84 A0 28 7D 7F FF FF F5
 (000.218934)  can0  0CF00C03   [8]  EA 03 7A 16 FF FF FF FF
 (000.223395)  can0  18FCDC00   [8]  9F FF FF FF 50 68 00 00
 (000.224004)  can0  0CF00300   [8]  D1 00 0E FF FF 0F 69 7E
 (000.224536)  can0  1CFE9200   [8]  FF 1C 90 FF FF FF 00 00
 (000.228605)  can0  0CF00203   [8]  C0 00 00 FF F7 56 16 03
 (000.229920)  can0  0CF00400   [8]  60 7D 84 AE 16 00 0F 85
 (000.233797)  can0  0CF00A00   [8]  A0 03 58 05 FF FF FF FF
 (000.233807)  can0  18FD9400   [8]  C9 14 FF FF FF FF FF FF
 (000.234214)  can0  18F00E00   [8]  18 25 FF FF D5 9F FF FF
 (000.237796)  can0  0CF00203   [8]  C0 00 00 FF F7 56 16 03
 (000.238315)  can0  18F03300   [8]  FF FF FF FF FF FF FF FF
 (000.239066)  can0  0CF00C03   [8]  EA 03 75 16 FF FF FF FF
 (000.239463)  can0  18FEDF00   [8]  84 A0 28 7D 7F FF FF F5
 (000.243360)  can0  18FEE000   [8]  CC 2C 01 00 15 96 35 00
 (000.243900)  can0  0CF00300   [8]  D1 00 0E FF FF 0F 69 7E
 (000.247262)  can0  0C010305   [8]  FF FF FF FF FF F3 FF FF
 (000.247803)  can0  0CF00203   [8]  C0 00 00 FF F7 5B 16 03
 (000.248337)  can0  18FEF200   [8]  15 00 00 00 C3 09 E1 FF
 (000.248912)  can0  18F00F00   [8]  76 0F FF FF D5 9F FF FF
 (000.249988)  can0  0CF00400   [8]  60 7D 84 AD 16 00 0F 85
 (000.257733)  can0  0CF00203   [8]  C0 00 00 FF F7 5B 16 03
 (000.258360)  can0  18FEDF00   [8]  84 A0 28 7D 7F FF FF F5
 (000.258934)  can0  0CF00C03   [8]  EF 03 E1 16 FF FF FF FF
 (000.259493)  can0  10FCFD00   [8]  FF FF FF FF 00 32 FF FF
 (000.260022)  can0  18F00131   [8]  FF FF FF 3F 00 FF FF FF
 (000.261301)  can0  18F00503   [8]  7D 00 00 7D 4E 20 4E 43
 (000.261309)  can0  18FEF131   [8]  F3 FF FF C3 CC FF FF F0
 (000.261740)  can0  18FE4A03   [8]  03 1F 4F FF FF F3 FF FF
 (000.263082)  can0  18FEF031   [8]  FF FF FF FF FF FC CC FF
 (000.263091)  can0  18FF4831   [8]  00 00 FF FF 00 00 00 00
 (000.263557)  can0  18FEF231   [8]  FF FF FF FF FF FF FF FF
 (000.264136)  can0  0CF00300   [8]  D1 00 0E FF FF 0F 69 7E
 (000.264754)  can0  0CF00331   [8]  FF FF FF FF FF FF FF FF
 (000.268066)  can0  0CF00203   [8]  C0 00 00 FF F7 5F 16 03
 (000.268310)  can0  18F00100   [8]  FF FF FF FF FF FF FF FF
 (000.270807)  can0  0CF00400   [8]  70 7D 84 9D 16 00 0F 85
 (000.277739)  can0  0CF00203   [8]  C0 00 00 FF F7 5F 16 03
 (000.278272)  can0  18FEDF00   [8]  84 A0 28 7D 7F FF FF F5
 (000.278872)  can0  0CF00C03   [8]  E9 03 CD 16 FF FF FF FF
 (000.283735)  can0  0CF00300   [8]  D1 00 0E FF FF 0F 69 7E
 (000.284028)  can0  0CF00A00   [8]  A0 03 74 05 FF FF FF FF
 (000.284636)  can0  18FEF000   [8]  FF FF FF A4 16 FF FF FF
 (000.285178)  can0  18F00E00   [8]  18 25 FF FF D5 9F FF FF
 (000.287944)  can0  0CF00203   [8]  C0 00 00 FF F7 5C 16 03
 (000.288305)  can0  18F03300   [8]  FF FF FF FF FF FF FF FF
 (000.289890)  can0  0CF00400   [8]  70 7D 84 A6 16 00 0F 85
 (000.293765)  can0  18FCF200   [8]  E1 FF FF FF FF FF FF FF
 (000.293775)  can0  18F0010B   [8]  CF FF F0 FF FF CD FF FF
 (000.297797)  can0  0C010305   [8]  FF FF FF FF FF F3 FF FF
 (000.297807)  can0  0CF00203   [8]  C0 00 00 FF F7 5C 16 03
 (000.298389)  can0  18FEDF00   [8]  84 A0 28 7D 7F FF FF F5
 (000.298932)  can0  0CF00C03   [8]  EA 03 55 16 FF FF FF FF
 (000.299531)  can0  18F00F00   [8]  76 0F FF FF D5 9F FF FF
 (000.303684)  can0  18FEBF0B   [8]  00 00 7D 7D 7D 7D FF FF
 (000.303926)  can0  0CF00300   [8]  D1 00 0E FF FF 0F 6A 7E
 (000.304569)  can0  18FEF100   [8]  FF 00 00 FC FF 68 00 CF
 (000.308127)  can0  0CF00203   [8]  C0 00 00 FF F7 5D 16 03
 (000.309584)  can0  0CF00331   [8]  FF FF FF FF FF FF FF FF
 (000.310106)  can0  0CF00400   [8]  70 7D 84 A4 16 00 0F 85
 (000.313104)  can0  10FDA300   [8]  FF FF 13 FF FF FF FF FF
 (000.313682)  can0  18F00029   [8]  F0 7D 7D F3 29 FF FF 3C
 (000.317785)  can0  0CF00203   [8]  C0 00 00 FF F7 5D 16 03
 (000.318359)  can0  18FEDF00   [8]  84 A0 28 7D 7F FF FF F5
 (000.318938)  can0  0CF00C03   [8]  ED 03 AF 16 FF FF FF FF
 (000.323420)  can0  18FCDC00   [8]  9F FF FF FF 50 68 00 00
 (000.324009)  can0  0CF00300   [8]  D1 00 0E FF FF 0F 6A 7E
 (000.324646)  can0  1CFE9200   [8]  FF B4 8F FF FF FF 00 00
 (000.328478)  can0  0CF00203   [8]  C0 00 00 FF F7 5E 16 03
 (000.329937)  can0  0CF00400   [8]  70 7D 84 AB 16 00 0F 85
 (000.333429)  can0  0CF00A00   [8]  CF 03 33 05 FF FF FF FF
 (000.333613)  can0  18FD9400   [8]  63 17 FF FF FF FF FF FF
 (000.334355)  can0  18F00E00   [8]  18 25 FF FF D5 9F FF FF
 (000.337777)  can0  0CF00203   [8]  C0 00 00 FF F7 5E 16 03
 (000.338365)  can0  18F03300   [8]  FF FF FF FF FF FF FF FF
 (000.338935)  can0  0CF00C03   [8]  EE 03 F8 16 FF FF FF FF
 (000.339509)  can0  18FEDF00   [8]  84 A0 28 7D 7F FF FF F5
 (000.343434)  can0  18FEE000   [8]  CC 2C 01 00 15 96 35 00
 (000.343980)  can0  0CF00300   [8]  D1 00 0E FF FF 0F 69 7E
 (000.347238)  can0  0C010305   [8]  FF FF FF FF FF F3 FF FF
 (000.347833)  can0  0CF00203   [8]  C0 00 00 FF F7 60 16 03
 (000.348399)  can0  18FEF200   [8]  15 00 00 00 C2 09 E1 FF
 (000.348995)  can0  18F00F00   [8]  76 0F FF FF D5 9F FF FF
 (000.349943)  can0  0CF00400   [8]  60 7D 84 B8 16 00 0F 85
 (000.357777)  can0  0CF00203   [8]  C0 00 00 FF F7 60 16 03
 (000.358361)  can0  18FEDF00   [8]  84 A0 28 7D 7F FF FF F5
 (000.358934)  can0  0CF00C03   [8]  E9 03 B1 16 FF FF FF FF
 (000.359560)  can0  10FCFD00   [8]  FF FF FF FF 00 32 FF FF
 (000.360084)  can0  18F00131   [8]  FF FF FF 3F 00 FF FF FF
 (000.360655)  can0  0CFD9200   [8]  F4 FF FA FF FF FF FF FF
 (000.361210)  can0  18F00503   [8]  7D 00 00 7D 4E 20 4E 43
 (000.361794)  can0  18FEF131   [8]  F3 FF FF C3 CC FF FF F0
 (000.362353)  can0  18FE4A03   [8]  03 1F 4F FF FF F3 FF FF
 (000.362999)  can0  18FEF031   [8]  FF FF FF FF FF FC CC FF
 (000.363496)  can0  18FD9503   [8]  CC FF FF AF FF FF FF FF
 (000.364107)  can0  0CF00300   [8]  D1 00 0E FF FF 0F 68 7E
 (000.364700)  can0  18FEF803   [8]  FF FF FF FF FC 2B FF FF
 (000.365286)  can0  18FF4831   [8]  00 00 FF FF 00 00 00 00
 (000.365840)  can0  18FEF231   [8]  FF FF FF FF FF FF FF FF
 (000.366432)  can0  0CF00331   [8]  FF FF FF FF FF FF FF FF
 (000.367757)  can0  0CF00203   [8]  C0 00 00 FF F7 5D 16 03
 (000.368314)  can0  18F00100   [8]  FF FF FF FF FF FF FF FF
 (000.370798)  can0  0CF00400   [8]  50 7D 84 C1 16 00 0F 85
 (000.377777)  can0  0CF00203   [8]  C0 00 00 FF F7 5D 16 03
 (000.378333)  can0  18FEDF00   [8]  84 A0 28 7D 7F FF FF F5
 (000.378886)  can0  0CF00C03   [8]  E9 03 6F 16 FF FF FF FF
 (000.383745)  can0  0CF00300   [8]  D1 00 0E FF FF 0F 69 7E
 (000.384070)  can0  0CF00A00   [8]  CF 03 33 05 FF FF FF FF
 (000.384680)  can0  18FEF000   [8]  FF FF FF BF 16 FF FF FF
 (000.385259)  can0  18F00E00   [8]  18 25 FF FF D5 9F FF FF
 (000.387757)  can0  0CF00203   [8]  C0 00 00 FF F7 62 16 03
 (000.388354)  can0  18F03300   [8]  FF FF FF FF FF FF FF FF
 (000.389937)  can0  0CF00400   [8]  50 7D 84 B2 16 00 0F 85
 (000.393611)  can0  18FCF200   [8]  E1 FF FF FF FF FF FF FF
 (000.393619)  can0  18F0010B   [8]  CF FF F0 FF FF CD FF FF
 (000.397673)  can0  0C010305   [8]  FF FF FF FF FF F3 FF FF
 (000.397750)  can0  0CF00203   [8]  C0 00 00 FF F7 62 16 03
 (000.398374)  can0  18FEDF00   [8]  84 A0 28 7D 7F FF FF F5
 (000.398959)  can0  0CF00C03   [8]  EF 03 E0 16 FF FF FF FF
 (000.399531)  can0  18F00F00   [8]  76 0F FF FF D5 9F FF FF
 (000.404022)  can0  0CF00300   [8]  D1 00 0E FF FF 0F 69 7E
 (000.404032)  can0  18FEBF0B   [8]  00 00 7D 7D 7D 7D FF FF
 (000.404627)  can0  18FEF100   [8]  FF 00 00 FC FF 68 00 CF
 (000.407764)  can0  0CF00203   [8]  C0 00 00 FF F7 65 16 03
 (000.409552)  can0  0CF00331   [8]  FF FF FF FF FF FF FF FF
 (000.410123)  can0  0CF00400   [8]  60 7D 84 AB 16 00 0F 85
 (000.413037)  can0  10FDA300   [8]  FF FF 13 FF FF FF FF FF
 (000.413605)  can0  18F00029   [8]  F0 7D 7D F3 29 FF FF 3C
 (000.417792)  can0  0CF00203   [8]  C0 00 00 FF F7 65 16 03
 (000.418358)  can0  18FEDF00   [8]  84 A0 28 7D 7F FF FF F5
 (000.418974)  can0  0CF00C03   [8]  EC 03 D6 16 FF FF FF FF
 (000.423416)  can0  18FCDC00   [8]  9F FF FF FF 50 68 00 00
 (000.424014)  can0  0CF00300   [8]  D1 00 0E FF FF 0F 68 7E
 (000.424647)  can0  1CFE9200   [8]  FF D4 8F FF FF FF 00 00
 (000.428454)  can0  0CF00203   [8]  C0 00 00 FF F7 67 16 03
 (000.430039)  can0  0CF00400   [8]  70 7D 84 98 16 00 0F 85
 (000.433300)  can0  14FC9800   [8]  FF 00 00 00 00 00 00 FF
 (000.433696)  can0  0CF00A00   [8]  CF 03 3C 05 FF FF FF FF
 (000.434310)  can0  18FD9400   [8]  C9 14 FF FF FF FF FF FF
 (000.434887)  can0  18F00E00   [8]  18 25 FF FF D5 9F FF FF
 (000.437751)  can0  0CF00203   [8]  C0 00 00 FF F7 67 16 03
 (000.438350)  can0  18F03300   [8]  FF FF FF FF FF FF FF FF
 (000.438947)  can0  0CF00C03   [8]  EA 03 4C 16 FF FF FF FF
 (000.439469)  can0  18FEDF00   [8]  84 A0 28 7D 7F FF FF F5
 (000.443354)  can0  18FEE000   [8]  CC 2C 01 00 15 96 35 00
 (000.443976)  can0  0CF00300   [8]  D1 00 0E FF FF 0F 68 7E
 (000.447866)  can0  0C010305   [8]  FF FF FF FF FF F3 FF FF
 (000.447876)  can0  0CF00203   [8]  C0 00 00 FF F7 66 16 03
 (000.448355)  can0  18FDB400   [8]  B3 3D 13 40 FF FF FF FF
 (000.449025)  can0  18FEF200   [8]  0F 00 00 00 C3 09 E1 FF
 (000.449474)  can0  18F00F00   [8]  6C 0F FF FF D5 9F FF FF
 (000.450947)  can0  0CF00400   [8]  00 7D 85 A0 16 00 0F 85
 (000.454036)  can0  18EAFF31   [3]  E5 FE 00
 (000.457785)  can0  0CF00203   [8]  C0 00 00 FF F7 66 16 03
 (000.458361)  can0  18FEE500   [8]  E0 5D 02 00 50 55 00 00
 (000.458927)  can0  0CF00C03   [8]  E9 03 73 16 FF FF FF FF
 (000.459476)  can0  18FEDF00   [8]  84 A0 28 7D 7F FF FF F5
 (000.460053)  can0  18F00131   [8]  FF FF FF 3F 00 FF FF FF
 (000.460689)  can0  10FCFD00   [8]  FF FF FF FF 00 32 FF FF
 (000.461210)  can0  18F00503   [8]  7D 00 00 7D 4E 20 4E 43
 (000.461797)  can0  18FEF131   [8]  F3 FF FF C3 CC FF FF F0
 (000.462331)  can0  18FE4A03   [8]  03 1F 4F FF FF F3 FF FF
 (000.462934)  can0  18FEF031   [8]  FF FF FF FF FF FC CC FF
 (000.463531)  can0  18FF4831   [8]  00 00 FF FF 00 00 00 00
 (000.464107)  can0  0CF00300   [8]  D1 00 0E FF FF 0F 69 7E
 (000.464680)  can0  18FEF231   [8]  FF FF FF FF FF FF FF FF
 (000.465283)  can0  0CF00331   [8]  FF FF FF FF FF FF FF FF
 (000.467908)  can0  0CF00203   [8]  C0 00 00 FF F7 62 16 03
 (000.468295)  can0  18F00100   [8]  FF FF FF FF FF FF FF FF
 (000.470723)  can0  0CF00400   [8]  70 7D 84 9C 16 00 0F 85
 (000.473100)  can0  18FDB300   [8]  FF FF F9 43 FF FF FF FF
 (000.477709)  can0  0CF00203   [8]  C0 00 00 FF F7 62 16 03
 (000.478341)  can0  18FEDF00   [8]  84 A0 28 7D 7F FF FF F5
 (000.478939)  can0  0CF00C03   [8]  EE 03 E5 16 FF FF FF FF
 (000.484344)  can0  0CF00300   [8]  D1 00 0E FF FF 0F 69 7E
 (000.484354)  can0  0CF00A00   [8]  BC 03 33 05 FF FF FF FF
 (000.484640)  can0  18FEF000   [8]  FF FF FF A2 16 FF FF FF
 (000.485260)  can0  18F00E00   [8]  18 25 FF FF D5 9F FF FF
 (000.487918)  can0  0CF00203   [8]  C0 00 00 FF F7 5D 16 03
 (000.488309)  can0  18F03300   [8]  FF FF FF FF FF FF FF FF
 (000.489939)  can0  0CF00400   [8]  00 7D 85 98 16 00 0F 85
 (000.493757)  can0  18FDB200   [8]  FF FF FF FF 02 00 FF FF
 (000.493766)  can0  18FCF200   [8]  E1 FF FF FF FF FF FF FF
 (000.494179)  can0  18F0010B   [8]  CF FF F0 FF FF CD FF FF
 (000.497792)  can0  0C010305   [8]  FF FF FF FF FF F3 FF FF
 (000.497802)  can0  0CF00203   [8]  C0 00 00 FF F7 5D 16 03
 (000.498389)  can0  18FEDF00   [8]  84 A0 28 7D 7F FF FF F5
 (000.498976)  can0  0CF00C03   [8]  E9 03 C4 16 FF FF FF FF
 (000.499476)  can0  18F00F00   [8]  6C 0F FF FF D5 9F FF FF
 (000.500870)  can0  18FECA31   [8]  00 FF 00 00 00 00 FF FF
 (000.500878)  can0  18F11031   [8]  00 00 FF FF FF FF FF FF
 (000.503533)  can0  0CF00300   [8]  D1 00 0E FF FF 0F 68 7E
 (000.504133)  can0  18FEBF0B   [8]  00 00 7D 7D 7D 7D FF FF
 (000.504626)  can0  18FEF100   [8]  FF 00 00 FC FF 68 00 CF
 (000.507700)  can0  0CF00203   [8]  C0 00 00 FF F7 5C 16 03
 (000.509561)  can0  0CF00331   [8]  FF FF FF FF FF FF FF FF
 (000.510063)  can0  0CF00400   [8]  70 7D 84 A3 16 00 0F 85
 (000.513135)  can0  10FDA300   [8]  FF FF 13 FF FF FF FF FF
 (000.513624)  can0  18F00029   [8]  F0 7D 7D F3 29 FF FF 3C
 (000.517801)  can0  0CF00203   [8]  C0 00 00 FF F7 5C 16 03
 (000.518314)  can0  18FD8C00   [8]  FF FF 00 00 FF FF FF FF
 (000.518935)  can0  0CF00C03   [8]  EA 03 52 16 FF FF FF FF
 (000.519505)  can0  18FEDF00   [8]  84 A0 28 7D 7F FF FF F5
 (000.523676)  can0  18FCDC00   [8]  9F FF FF FF 50 68 00 00
 (000.524022)  can0  0CF00300   [8]  D1 00 0E FF FF 0F 68 7E
 (000.524600)  can0  1CFE9200   [8]  FF 88 8F FF FF FF 00 00
 (000.528449)  can0  0CF00203   [8]  C0 00 00 FF F7 59 16 03
 (000.530095)  can0  0CF00400   [8]  50 7D 84 B7 16 00 0F 85
 (000.533318)  can0  0CF00A00   [8]  BC 03 46 05 FF FF FF FF
 (000.533680)  can0  18FD9400   [8]  C9 14 FF FF FF FF FF FF
 (000.534300)  can0  18F00E00   [8]  18 25 FF FF D5 9F FF FF
 (000.537706)  can0  0CF00203   [8]  C0 00 00 FF F7 59 16 03
 (000.538270)  can0  18FD2000   [8]  B3 3D FF FF FF FF FF FF
 (000.538873)  can0  0CF00C03   [8]  EE 03 B2 16 FF FF FF FF
 (000.539447)  can0  18F03300   [8]  FF FF FF FF FF FF FF FF
 (000.540019)  can0  18FEDF00   [8]  84 A0 28 7D 7F FF FF F5
 (000.543415)  can0  18FEE000   [8]  CC 2C 01 00 15 96 35 00
 (000.543988)  can0  0CF00300   [8]  D1 00 0E FF FF 0F 69 7E
 (000.547946)  can0  0C010305   [8]  FF FF FF FF FF F3 FF FF
 (000.547954)  can0  0CF00203   [8]  C0 00 00 FF F7 59 16 03
 (000.548363)  can0  18FEF200   [8]  14 00 00 00 C2 09 E1 FF
 (000.549024)  can0  18F00F00   [8]  6C 0F FF FF D5 9F FF FF
 (000.549967)  can0  0CF00400   [8]  60 7D 84 AF 16 00 0F 85
 (000.557791)  can0  0CF00203   [8]  C0 00 00 FF F7 59 16 03
 (000.558279)  can0  18FEDF00   [8]  84 A0 28 7D 7F FF FF F5
 (000.559055)  can0  0CF00C03   [8]  ED 03 F6 16 FF FF FF FF
 (000.559464)  can0  10FCFD00   [8]  FF FF FF FF 00 32 FF FF
 (000.560072)  can0  18F00131   [8]  FF FF FF 3F 00 FF FF FF
 (000.560578)  can0  18F00503   [8]  7D 00 00 7D 4E 20 4E 43
 (000.561247)  can0  18FEF131   [8]  F3 FF FF C3 CC FF FF F0
 (000.561780)  can0  18FE4A03   [8]  03 1F 4F FF FF F3 FF FF
 (000.562360)  can0  18FEF031   [8]  FF FF FF FF FF FC CC FF
 (000.562970)  can0  18FF4831   [8]  00 00 FF FF 00 00 00 00
 (000.563512)  can0  18FEF231   [8]  FF FF FF FF FF FF FF FF
 (000.564162)  can0  18FD3E00   [8]  EC 41 FF D9 3E FF FF FF
 (000.564717)  can0  0CF00331   [8]  FF FF FF FF FF FF FF FF
 (000.565316)  can0  0CF00300   [8]  D1 00 0E FF FF 0F 69 7E
 (000.567901)  can0  0CF00203   [8]  C0 00 00 FF F7 59 16 03
 (000.568346)  can0  18F00100   [8]  FF FF FF FF FF FF FF FF
 (000.570007)  can0  0CF00400   [8]  60 7D 84 B2 16 00 0F 85
 (000.577764)  can0  0CF00203   [8]  C0 00 00 FF F7 59 16 03
 (000.578328)  can0  18FEDF00   [8]  84 A0 28 7D 7F FF FF F5
 (000.578873)  can0  0CF00C03   [8]  E9 03 9B 16 FF FF FF FF
 (000.583602)  can0  18FD4000   [8]  FF 3F 00 FF FF FF FF FF
 (000.584101)  can0  0CF00300   [8]  D1 00 0E FF FF 0F 68 7E
 (000.584700)  can0  0CF00A00   [8]  BC 03 46 05 FF FF FF FF
 (000.585253)  can0  18FEF000   [8]  FF FF FF AE 16 FF FF FF
 (000.585822)  can0  18F00E00   [8]  18 25 FF FF D5 9F FF FF
 (000.588098)  can0  0CF00203   [8]  C0 00 00 FF F7 5D 16 03
 (000.588341)  can0  18F03300   [8]  FF FF FF FF FF FF FF FF
 (000.590051)  can0  0CF00400   [8]  60 7D 84 9F 16 00 0F 85
 (000.593341)  can0  18FCF200   [8]  E1 FF FF FF FF FF FF FF
 (000.593990)  can0  18F0010B   [8]  CF FF F0 FF FF CD FF FF
 (000.597788)  can0  0C010305   [8]  FF FF FF FF FF F3 FF FF
 (000.597797)  can0  0CF00203   [8]  C0 00 00 FF F7 5D 16 03
 (000.598407)  can0  18FEDF00   [8]  84 A0 28 7D 7F FF FF F5
 (000.598952)  can0  0CF00C03   [8]  E9 03 4A 16 FF FF FF FF
 (000.599540)  can0  18F00F00   [8]  6C 0F FF FF D5 9F FF FF
 (000.603432)  can0  0CF00300   [8]  D1 00 0E FF FF 0F 68 7E
 (000.604020)  can0  18FEBF0B   [8]  00 00 7D 7D 7D 7D FF FF
 (000.604654)  can0  18FEF100   [8]  FF 00 00 FC FF 68 00 CF
 (000.607720)  can0  0CF00203   [8]  C0 00 00 FF F7 61 16 03
 (000.608324)  can0  18FCC500   [8]  EC 41 FF FF FF FF FF FF
 (000.608933)  can0  0CFD9200   [8]  F4 FF FA FF FF FF FF FF
 (000.609534)  can0  0CF00331   [8]  FF FF FF FF FF FF FF FF
 (000.610133)  can0  0CF00400   [8]  10 7D 85 94 16 00 0F 85
 (000.613768)  can0  10FDA300   [8]  FF FF 13 FF FF FF FF FF
 (000.613778)  can0  18F00029   [8]  F0 7D 7D F3 29 FF FF 3C
 (000.617751)  can0  0CF00203   [8]  C0 00 00 FF F7 61 16 03
 (000.618298)  can0  18FEDF00   [8]  84 A0 28 7D 7F FF FF F5
 (000.619027)  can0  0CF00C03   [8]  ED 03 BF 16 FF FF FF FF
 (000.623729)  can0  18FCDC00   [8]  9F FF FF FF 50 68 00 00
 (000.624071)  can0  0CF00300   [8]  D1 00 0E FF FF 0F 69 7E
 (000.624605)  can0  1CFE9200   [8]  FF 80 8F FF FF FF 00 00
 (000.628407)  can0  0CF00203   [8]  C0 00 00 FF F7 5D 16 03
 (000.630126)  can0  0CF00400   [8]  00 7D 85 9A 16 00 0F 85
 (000.633432)  can0  0CF00A00   [8]  B2 03 3C 05 FF FF FF FF
 (000.633696)  can0  18FD9400   [8]  C9 14 FF FF FF FF FF FF
 (000.634309)  can0  18FEEF00   [8]  FF FF FF 1E 35 7D FF FA
 (000.634874)  can0  18F00E00   [8]  18 25 FF FF D5 9F FF FF
 (000.637702)  can0  0CF00203   [8]  C0 00 00 FF F7 5D 16 03
 (000.638315)  can0  18F03300   [8]  FF FF FF FF FF FF FF FF
 (000.638887)  can0  0CF00C03   [8]  E9 03 B8 16 FF FF FF FF
 (000.639435)  can0  18FEDF00   [8]  84 A0 28 7D 7F FF FF F5
 (000.643395)  can0  18FEE000   [8]  CC 2C 01 00 15 96 35 00
 (000.644011)  can0  0CF00300   [8]  D1 00 0E FF FF 0F 6A 7E
 (000.647867)  can0  0C010305   [8]  FF FF FF FF FF F3 FF FF
 (000.647876)  can0  0CF00203   [8]  C0 00 00 FF F7 58 16 03
 (000.648378)  can0  18FEF200   [8]  15 00 00 00 C3 09 E1 FF
 (000.649044)  can0  18F00F00   [8]  6C 0F FF FF D5 9F FF FF
 (000.650025)  can0  0CF00400   [8]  00 7D 85 9F 16 00 0F 85
 (000.653137)  can0  18FEDB00   [8]  FF FF 04 32 FF FF FF FF
 (000.657803)  can0  0CF00203   [8]  C0 00 00 FF F7 58 16 03
 (000.658304)  can0  18FEDF00   [8]  84 A0 28 7D 7F FF FF F5
 (000.659053)  can0  0CF00C03   [8]  EA 03 6B 16 FF FF FF FF
 (000.659455)  can0  10FCFD00   [8]  FF FF FF FF 00 32 FF FF
 (000.660205)  can0  18F00131   [8]  FF FF FF 3F 00 FF FF FF
 (000.660618)  can0  18F00503   [8]  7D 00 00 7D 4E 20 4E 43
 (000.661214)  can0  18E0FF31   [8]  FA FF FF FF FF F0 FF FF
 (000.661775)  can0  18FE4A03   [8]  03 1F 4F FF FF F3 FF FF
 (000.662349)  can0  18FEF131   [8]  F3 FF FF C3 CC FF FF F0
 (000.662958)  can0  18FEF031   [8]  FF FF FF FF FF FC CC FF
 (000.663505)  can0  18FEFC31   [8]  FF 77 FF FF FF FF 00 FF
 (000.664054)  can0  0CF00300   [8]  D1 00 0E FF FF 0F 6A 7E
 (000.664665)  can0  18FEAE31   [8]  FF FF 5C 5C FF FF FF FF
 (000.665175)  can0  18FEF731   [8]  FF FF FF FF 1A 01 FF FF
 (000.665780)  can0  18FF4831   [8]  00 00 FF FF 00 00 00 00
 (000.666379)  can0  18FD8331   [8]  F8 FF FF FF FF FF FF FF
 (000.666946)  can0  18FEF831   [8]  FF FF FF FF FF FF FF FF
 (000.667569)  can0  18FEF231   [8]  FF FF FF FF FF FF FF FF
 (000.668121)  can0  0CF00203   [8]  C0 00 00 FF F7 57 16 03
 (000.668697)  can0  18F00100   [8]  FF FF FF FF FF FF FF FF
 (000.669269)  can0  18FEFA31   [8]  FF B8 B9 FF FF FF FF FF
 (000.669877)  can0  18FEC131   [8]  2F 42 67 06 FF FF FF FF
 (000.670433)  can0  0CF00400   [8]  00 7D 85 98 16 00 0F 85
 (000.671011)  can0  0CF00331   [8]  FF FF FF FF FF FF FF FF
 (000.673212)  can0  18FEF600   [8]  FF 01 64 FF FF FF FF FF
 (000.677752)  can0  0CF00203   [8]  C0 00 00 FF F7 57 16 03
 (000.678331)  can0  18FEDF00   [8]  84 A0 28 7D 7F FF FF F5
 (000.678931)  can0  0CF00C03   [8]  EB 03 A0 16 FF FF FF FF
 (000.683724)  can0  0CF00300   [8]  D1 00 0E FF FF 0F 69 7E
 (000.684118)  can0  0CF00A00   [8]  B2 03 58 05 FF FF FF FF
 (000.684654)  can0  18FEF000   [8]  FF FF FF 9C 16 FF FF FF
 (000.685237)  can0  18F00E00   [8]  0C 25 FF FF D5 9F FF FF
 (000.688449)  can0  0CF00203   [8]  C0 00 00 FF F7 58 16 03
 (000.688459)  can0  18F03300   [8]  FF FF FF FF FF FF FF FF
 (000.690828)  can0  0CF00400   [8]  00 7D 85 A7 16 00 0F 85
 (000.693172)  can0  18FCF200   [8]  E1 FF FF FF FF FF FF FF
 (000.694854)  can0  18F0010B   [8]  CF FF F0 FF FF CD FF FF
 (000.697620)  can0  0C010305   [8]  FF FF FF FF FF F3 FF FF
 (000.697883)  can0  0CF00203   [8]  C0 00 00 FF F7 58 16 03
 (000.698373)  can0  18FEDF00   [8]  84 A0 28 7D 7F FF FF F5
 (000.698946)  can0  0CF00C03   [8]  EF 03 F4 16 FF FF FF FF
 (000.699517)  can0  18FDC600   [8]  FC 04 FF FF FF FF FF FF
 (000.700098)  can0  18F00F00   [8]  6C 0F FF FF D5 9F FF FF
 (000.703486)  can0  0CF00300   [8]  D1 00 0E FF FF 0F 69 7E
 (000.704106)  can0  18FEF100   [8]  FF 00 00 FC FF 68 00 CF
 (000.704676)  can0  18FEBF0B   [8]  00 00 7D 7D 7D 7D FF FF
 (000.707757)  can0  0CF00203   [8]  C0 00 00 FF F7 54 16 03
 (000.709620)  can0  0CF00331   [8]  FF FF FF FF FF FF FF FF
 (000.710063)  can0  0CF00400   [8]  60 7D 84 B7 16 00 0F 85
 (000.713193)  can0  10FDA300   [8]  FF FF 13 FF FF FF FF FF
 (000.713673)  can0  18F00029   [8]  F0 7D 7D F3 29 FF FF 3C
 (000.717784)  can0  0CF00203   [8]  C0 00 00 FF F7 54 16 03
 (000.718343)  can0  18FEDF00   [8]  84 A0 28 7D 7F FF FF F5
 (000.718955)  can0  0CF00C03   [8]  E9 03 A6 16 FF FF FF FF
 (000.723820)  can0  18FCDC00   [8]  9F FF FF FF 50 68 00 00
 (000.724031)  can0  0CF00300   [8]  D1 00 0E FF FF 0F 6A 7E
 (000.724727)  can0  1CFE9200   [8]  FF F4 8F FF FF FF 00 00
 (000.728353)  can0  0CF00203   [8]  C0 00 00 FF F7 54 16 03
 (000.729931)  can0  0CF00400   [8]  60 7D 84 AC 16 00 0F 85
 (000.733104)  can0  0CF00A00   [8]  B2 03 46 05 FF FF FF FF
 (000.733708)  can0  18FD9400   [8]  30 12 FF FF FF FF FF FF
 (000.734257)  can0  18F00E00   [8]  0C 25 FF FF D5 9F FF FF
 (000.737753)  can0  0CF00203   [8]  C0 00 00 FF F7 54 16 03
 (000.738351)  can0  18F03300   [8]  FF FF FF FF FF FF FF FF
 (000.738924)  can0  0CF00C03   [8]  E9 03 54 16 FF FF FF FF
 (000.739496)  can0  18FEDF00   [8]  84 A0 28 7D 7F FF FF F5
 (000.740069)  can0  18FECA03   [8]  00 FF 00 00 00 00 FF FF
 (000.743512)  can0  18FEF700   [8]  FF FF FF FF 19 01 FF FF
 (000.744075)  can0  18FEE000   [8]  CC 2C 01 00 15 96 35 00
 (000.744689)  can0  0CF00300   [8]  D1 00 0E FF FF 0F 69 7E
 (000.747465)  can0  0C010305   [8]  FF FF FF FF FF F3 FF FF
 (000.747877)  can0  0CF00203   [8]  C0 00 00 FF F7 59 16 03
 (000.748447)  can0  18FEF200   [8]  0F 00 00 00 C2 09 E1 FF
 (000.749026)  can0  18F00F00   [8]  64 0F FF FF D5 9F FF FF
 (000.750034)  can0  0CF00400   [8]  70 7D 84 9C 16 00 0F 85
 (000.757787)  can0  0CF00203   [8]  C0 00 00 FF F7 59 16 03
 (000.758303)  can0  18FEDF00   [8]  84 A0 28 7D 7F FF FF F5
 (000.759042)  can0  0CF00C03   [8]  EE 03 C4 16 FF FF FF FF
 (000.759452)  can0  10FCFD00   [8]  FF FF FF FF 00 32 FF FF
 (000.760131)  can0  18F00131   [8]  FF FF FF 3F 00 FF FF FF
 (000.760559)  can0  18F00503   [8]  7D 00 00 7D 4E 20 4E 43
 (000.761591)  can0  18FEF131   [8]  F3 FF FF C3 CC FF FF F0
 (000.761757)  can0  18FE4A03   [8]  03 1F 4F FF FF F3 FF FF
 (000.762296)  can0  18FEF031   [8]  FF FF FF FF FF FC CC FF
 (000.762896)  can0  18FF4831   [8]  00 00 FF FF 00 00 00 00
 (000.763492)  can0  18FEF231   [8]  FF FF FF FF FF FF FF FF
 (000.764048)  can0  18FEC100   [8]  17 A8 3B 05 F5 5F 1D 00
 (000.764621)  can0  0CF00331   [8]  FF FF FF FF FF FF FF FF
 (000.765194)  can0  0CF00300   [8]  D1 00 0E FF FF 0F 68 7E
 (000.767760)  can0  0CF00203   [8]  C0 00 00 FF F7 5E 16 03
 (000.768359)  can0  18F00100   [8]  FF FF FF FF FF FF FF FF
 (000.770149)  can0  0CF00400   [8]  20 7D 85 8F 16 00 0F 85
 (000.777746)  can0  0CF00203   [8]  C0 00 00 FF F7 5E 16 03
 (000.778330)  can0  18FEDF00   [8]  84 A0 28 7D 7F FF FF F5
 (000.778931)  can0  0CF00C03   [8]  ED 03 E6 16 FF FF FF FF
 (000.783820)  can0  0CF00300   [8]  D1 00 0F FF FF 0F 69 7E
 (000.784132)  can0  0CF00A00   [8]  B2 03 46 05 FF FF FF FF
 (000.784691)  can0  18FEF000   [8]  FF FF FF 91 16 FF FF FF
 (000.785269)  can0  18F00E00   [8]  0C 25 FF FF D5 9F FF FF
 (000.788417)  can0  0CF00203   [8]  C0 00 00 FF F7 59 16 03
 (000.788427)  can0  18FE5600   [8]  96 42 FF FF 1F 1F 00 FF
 (000.788878)  can0  18F03300   [8]  FF FF FF FF FF FF FF FF
 (000.790874)  can0  0CF00400   [8]  10 7D 85 98 16 00 0F 85
 (000.793193)  can0  18FCF200   [8]  E1 FF FF FF FF FF FF FF
 (000.794707)  can0  18F0010B   [8]  CF FF F0 FF FF CD FF FF
 (000.797228)  can0  0C010305   [8]  FF FF FF FF FF F3 FF FF
 (000.797793)  can0  0CF00203   [8]  C0 00 00 FF F7 59 16 03
 (000.798378)  can0  18FEDF00   [8]  84 A0 28 7D 7F FF FF F5
 (000.798959)  can0  0CF00C03   [8]  EA 03 5F 16 FF FF FF FF
 (000.799532)  can0  18F00F00   [8]  64 0F FF FF D5 9F FF FF
 (000.803546)  can0  0CF00300   [8]  D1 00 0E FF FF 0F 6B 7E
 (000.804097)  can0  18FEF100   [8]  FF 00 00 FC FF 68 00 CF
 (000.804634)  can0  18FEBF0B   [8]  00 00 7D 7D 7D 7D FF FF
 (000.807755)  can0  0CF00203   [8]  C0 00 00 FF F7 54 16 03
 (000.808330)  can0  18FD7B00   [8]  00 FF 75 B8 00 00 65 55
 (000.809615)  can0  0CF00331   [8]  FF FF FF FF FF FF FF FF
 (000.810115)  can0  0CF00400   [8]  10 7D 85 9A 16 00 0F 85
 (000.813170)  can0  10FDA300   [8]  FF FF 13 FF FF FF FF FF
 (000.813694)  can0  18F00029   [8]  F0 7D 7D F3 29 FF FF 3C
 (000.817801)  can0  0CF00203   [8]  C0 00 00 FF F7 54 16 03
 (000.818334)  can0  18FEDF00   [8]  84 A0 28 7D 7F FF FF F5
 (000.819703)  can0  0CF00C03   [8]  E9 03 5F 16 FF FF FF FF
 (000.823727)  can0  18FCDC00   [8]  9F FF FF FF 50 68 00 00
 (000.824045)  can0  0CF00300   [8]  D1 00 0E FF FF 0F 6A 7E
 (000.824625)  can0  1CFE9200   [8]  FF 58 90 FF FF FF 02 00
 (000.827706)  can0  0CF00203   [8]  C0 00 00 FF F7 53 16 03
 (000.829951)  can0  0CF00400   [8]  10 7D 85 A0 16 00 0F 85
 (000.833184)  can0  0CF00A00   [8]  7A 03 87 05 FF FF FF FF
 (000.833754)  can0  18FD9400   [8]  30 12 FF FF FF FF FF FF
 (000.834327)  can0  18FEDD00   [8]  FF C7 0D FF FF FF FF FF
 (000.834925)  can0  18F00E00   [8]  0C 25 FF FF D5 9F FF FF
 (000.837752)  can0  0CF00203   [8]  C0 00 00 FF F7 53 16 03
 (000.838325)  can0  18F03300   [8]  FF FF FF FF FF FF FF FF
 (000.838922)  can0  0CF00C03   [8]  EE 03 EF 16 FF FF FF FF
 (000.839470)  can0  18FEDF00   [8]  84 A0 28 7D 7F FF FF F5
 (000.844176)  can0  18FEE000   [8]  CC 2C 01 00 15 96 35 00
 (000.844185)  can0  0CF00300   [8]  D1 00 0E FF FF 0F 69 7E
 (000.847282)  can0  0C010305   [8]  FF FF FF FF FF F3 FF FF
 (000.847854)  can0  0CF00203   [8]  C0 00 00 FF F7 52 16 03
 (000.848406)  can0  18FEF200   [8]  15 00 00 00 C3 09 E1 FF
 (000.849034)  can0  18F00F00   [8]  64 0F FF FF D5 9F FF FF
 (000.850735)  can0  0CF00400   [8]  00 7D 85 A7 16 00 0F 85
 (000.853621)  can0  18FEE400   [8]  FF 3F FC FC 00 7F FF FF
 (000.857787)  can0  0CF00203   [8]  C0 00 00 FF F7 52 16 03
 (000.858284)  can0  18FEDF00   [8]  84 A0 28 7D 7F FF FF F5
 (000.858978)  can0  0CF00C03   [8]  EB 03 D6 16 FF FF FF FF
 (000.859429)  can0  10FCFD00   [8]  FF FF FF FF 00 32 FF FF
 (000.860021)  can0  18F00131   [8]  FF FF FF 3F 00 FF FF FF
 (000.860598)  can0  0CFD9200   [8]  F4 FF FA FF FF FF FF FF
 (000.861142)  can0  18F00503   [8]  7D 00 00 7D 4E 20 4E 43
 (000.861721)  can0  18FEF131   [8]  F3 FF FF C3 CC FF FF F0
 (000.862300)  can0  18FE4A03   [8]  03 1F 4F FF FF F3 FF FF
 (000.862871)  can0  18FEF031   [8]  FF FF FF FF FF FC CC FF
 (000.863483)  can0  18FF4831   [8]  00 00 FF FF 00 00 00 00
 (000.864032)  can0  0CF00300   [8]  D1 00 0E FF FF 0F 69 7E
 (000.864605)  can0  18FEF231   [8]  FF FF FF FF FF FF FF FF
 (000.865211)  can0  0CF00331   [8]  FF FF FF FF FF FF FF FF
 (000.867884)  can0  0CF00203   [8]  C0 00 00 FF F7 50 16 03
 (000.868342)  can0  18F00100   [8]  FF FF FF FF FF FF FF FF
 (000.870227)  can0  0CF00400   [8]  00 7D 85 AC 16 00 0F 85
 (000.877756)  can0  0CF00203   [8]  C0 00 00 FF F7 50 16 03
 (000.878341)  can0  18FEDF00   [8]  84 A0 28 7D 7F FF FF F5
 (000.878871)  can0  0CF00C03   [8]  E9 03 59 16 FF FF FF FF
 (000.883591)  can0  0CF00300   [8]  D1 00 0E FF FF 0F 6A 7E
 (000.884117)  can0  0CF00A00   [8]  7A 03 7E 05 FF FF FF FF
 (000.884684)  can0  18FEF000   [8]  FF FF FF A8 16 FF FF FF
 (000.885303)  can0  18FEBD00   [8]  FA F9 FF FF FF FF FF FF
 (000.885828)  can0  18F00E00   [8]  0C 25 FF FF D5 9F FF FF
 (000.887701)  can0  0CF00203   [8]  C0 00 00 FF F7 4F 16 03
 (000.888357)  can0  18F03300   [8]  FF FF FF FF FF FF FF FF
 (000.890737)  can0  0CF00400   [8]  00 7D 85 A2 16 00 0F 85
 (000.893077)  can0  18FCF200   [8]  E1 FF FF FF FF FF FF FF
 (000.894600)  can0  18F0010B   [8]  CF FF F0 FF FF CD FF FF
 (000.897232)  can0  0C010305   [8]  FF FF FF FF FF F3 FF FF
 (000.897865)  can0  0CF00203   [8]  C0 00 00 FF F7 4F 16 03
 (000.898435)  can0  18FEDF00   [8]  84 A0 28 7D 7F FF FF F5
 (000.899007)  can0  0CF00C03   [8]  EE 03 88 16 FF FF FF FF
 (000.899574)  can0  18E0FF00   [8]  FA FF FF FF FF FF FF FF
 (000.900185)  can0  18F00F00   [8]  64 0F FF FF D5 9F FF FF
 (000.903659)  can0  18FD0700   [8]  43 0C FC FF FF FF FF FF
 (000.904046)  can0  0CF00300   [8]  D1 00 0E FF FF 0F 69 7E
 (000.904667)  can0  18FEF100   [8]  FF 00 00 FC FF 68 00 CF
 (000.905186)  can0  18FEBF0B   [8]  00 00 7D 7D 7D 7D FF FF
 (000.907741)  can0  0CF00203   [8]  C0 00 00 FF F7 52 16 03
 (000.908280)  can0  18FEEE00   [8]  82 FF FF FF FF FF FF FF
 (000.909616)  can0  0CF00331   [8]  FF FF FF FF FF FF FF FF
 (000.910129)  can0  0CF00400   [8]  00 7D 85 A2 16 00 0F 85
 (000.913343)  can0  10FDA300   [8]  FF FF 13 FF FF FF FF FF
 (000.913727)  can0  18F00029   [8]  F0 7D 7D F3 29 FF FF 3C
 (000.917755)  can0  0CF00203   [8]  C0 00 00 FF F7 52 16 03
 (000.918327)  can0  18FEDF00   [8]  84 A0 28 7D 7F FF FF F5
 (000.918940)  can0  0CF00C03   [8]  EE 03 D8 16 FF FF FF FF
 (000.923566)  can0  18FCDC00   [8]  9F FF FF FF 50 68 00 00
 (000.924097)  can0  0CF00300   [8]  D1 00 0E FF FF 0F 69 7E
 (000.924627)  can0  1CFE9200   [8]  FF 20 91 FF FF FF 00 00
 (000.925196)  can0  18FEF500   [8]  A8 FF FF 3B 26 FF FF FF
 (000.927700)  can0  0CF00203   [8]  C0 00 00 FF F7 55 16 03
 (000.929963)  can0  0CF00400   [8]  20 7D 85 82 16 00 0F 85
 (000.933365)  can0  14FC9800   [8]  FF 00 00 00 00 00 00 FF
 (000.933752)  can0  0CF00A00   [8]  7A 03 91 05 FF FF FF FF
 (000.934116)  can0  18EAFF31   [3]  E9 FE 00
 (000.934740)  can0  18FD9400   [8]  30 12 FF FF FF FF FF FF
 (000.935253)  can0  18F00E00   [8]  18 25 FF FF D5 9F FF FF
 (000.937771)  can0  0CF00203   [8]  C0 00 00 FF F7 55 16 03
 (000.938273)  can0  18FEE900   [8]  68 0F 00 00 C2 3F 03 00
 (000.938863)  can0  0CF00C03   [8]  E9 03 85 16 FF FF FF FF
 (000.939445)  can0  18F03300   [8]  FF FF FF FF FF FF FF FF
 (000.940025)  can0  18FEDF00   [8]  84 A0 28 7D 7F FF FF F5
 (000.944066)  can0  18FEE000   [8]  CC 2C 01 00 15 96 35 00
 (000.944077)  can0  0CF00300   [8]  D1 00 0F FF FF 0F 69 7E
 (000.944573)  can0  18FEA400   [8]  FF FF 6D 2A FF FF 1A 2D
 (000.947307)  can0  0C010305   [8]  FF FF FF FF FF F3 FF FF
 (000.947870)  can0  0CF00203   [8]  C0 00 00 FF F7 52 16 03
 (000.948449)  can0  18FDB400   [8]  B3 3D 13 40 FF FF FF FF
 (000.948998)  can0  18FEF200   [8]  0F 00 00 00 C2 09 E1 FF
 (000.949536)  can0  18F00F00   [8]  64 0F FF FF D5 9F FF FF
 (000.950248)  can0  0CF00400   [8]  30 7D 85 8E 16 00 0F 85
 (000.957714)  can0  0CF00203   [8]  C0 00 00 FF F7 52 16 03
 (000.958272)  can0  18FEDF00   [8]  84 A0 28 7D 7F FF FF F5
 (000.958870)  can0  0CF00C03   [8]  EA 03 43 16 FF FF FF FF
 (000.959420)  can0  10FCFD00   [8]  FF FF FF FF 00 32 FF FF
 (000.959999)  can0  18F00131   [8]  FF FF FF 3F 00 FF FF FF
 (000.960567)  can0  18F00503   [8]  7D 00 00 7D 4E 20 4E 43
 (000.961125)  can0  18FEF131   [8]  F3 FF FF C3 CC FF FF F0
 (000.961707)  can0  18FE4A03   [8]  03 1F 4F FF FF F3 FF FF
 (000.962284)  can0  18FEF031   [8]  FF FF FF FF FF FC CC FF
 (000.962953)  can0  18FF4831   [8]  00 00 FF FF 00 00 00 00
 (000.963532)  can0  18FEF231   [8]  FF FF FF FF FF FF FF FF
 (000.964087)  can0  0CF00300   [8]  D1 00 0F FF FF 0F 6A 7E
 (000.964671)  can0  0CF00331   [8]  FF FF FF FF FF FF FF FF
 (000.968021)  can0  0CF00203   [8]  C0 00 00 FF F7 4F 16 03
 (000.968326)  can0  18FD7C00   [8]  F8 83 00 00 C3 0F 03 FF
 (000.968963)  can0  18F00100   [8]  FF FF FF FF FF FF FF FF
 (000.970156)  can0  0CF00400   [8]  20 7D 85 93 16 00 0F 85
 (000.973178)  can0  18FDB300   [8]  FF FF F9 43 FF FF FF FF
 (000.977764)  can0  0CF00203   [8]  C0 00 00 FF F7 4F 16 03
 (000.978325)  can0  18FEDF00   [8]  84 A0 28 7D 7F FF FF F5
 (000.978884)  can0  0CF00C03   [8]  EE 03 CB 16 FF FF FF FF
 (000.983613)  can0  0CF00300   [8]  D1 00 0F FF FF 0F 6B 7E
 (000.984199)  can0  0CF00A00   [8]  67 03 87 05 FF FF FF FF
 (000.984713)  can0  18FEF000   [8]  FF FF FF 93 16 FF FF FF
 (000.985325)  can0  18F00E00   [8]  0C 25 FF FF D5 9F FF FF
 (000.988499)  can0  0CF00203   [8]  C0 00 00 FF F7 4C 16 03
 (000.988509)  can0  18F03300   [8]  FF FF FF FF FF FF FF FF
 (000.988903)  can0  18FE9A00   [8]  88 27 FF FF FF FF FF FF
 (000.990504)  can0  0CF00400   [8]  10 7D 85 9B 16 00 0F 85
 (000.993079)  can0  18FDB200   [8]  FF FF FF FF 02 00 FF FF
 (000.993668)  can0  18FCF200   [8]  E1 FF FF FF FF FF FF FF
 (000.994810)  can0  18F0010B   [8]  CF FF F0 FF FF CD FF FF
 (000.997292)  can0  0C010305   [8]  FF FF FF FF FF F3 FF FF
 (000.997814)  can0  0CF00203   [8]  C0 00 00 FF F7 4C 16 03
 (000.998508)  can0  18FEDF00   [8]  84 A0 28 7D 7F FF FF F5
 (000.998936)  can0  0CF00C03   [8]  EC 03 DF 16 FF FF FF FF
 (000.999622)  can0  18F00F00   [8]  64 0F FF FF D5 9F FF FF
 (001.003531)  can0  0CF00300   [8]  D1 00 0F FF FF 0F 69 7E
 (001.004132)  can0  18FEF100   [8]  FF 00 00 FC FF 68 00 CF
 (001.004923)  can0  18FEBF0B   [8]  00 00 7D 7D 7D 7D FF FF
 (001.007756)  can0  0CF00203   [8]  C0 00 00 FF F7 4B 16 03
 (001.009603)  can0  0CF00331   [8]  FF FF FF FF FF FF FF FF
 (001.010103)  can0  0CF00400   [8]  10 7D 85 A1 16 00 0F 85
 (001.013380)  can0  10FDA300   [8]  FF FF 13 FF FF FF FF FF
 (001.013772)  can0  18FE9900   [8]  FF FF FF FF FF FF FF FF
 (001.014357)  can0  18F00029   [8]  F0 7D 7D F3 29 FF FF 3C
 (001.017746)  can0  0CF00203   [8]  C0 00 00 FF F7 4B 16 03
 (001.018327)  can0  18FD8C00   [8]  FF FF 00 00 FF FF FF FF
 (001.018979)  can0  0CF00C03   [8]  E9 03 4E 16 FF FF FF FF
 (001.019403)  can0  18FEDF00   [8]  84 A0 28 7D 7F FF FF F5
 (001.023474)  can0  18FCDC00   [8]  9F FF FF FF 50 68 00 00
 (001.024020)  can0  0CF00300   [8]  D1 00 0E FF FF 0F 69 7E
 (001.024592)  can0  1CFE9200   [8]  FF 00 91 FF FF FF 02 00
 (001.027710)  can0  0CF00203   [8]  C0 00 00 FF F7 4C 16 03
 (001.030058)  can0  0CF00400   [8]  00 7D 85 AB 16 00 0F 85
 (001.033401)  can0  0CF00A00   [8]  67 03 9A 05 FF FF FF FF
 (001.033733)  can0  18FD9400   [8]  C9 14 FF FF FF FF FF FF
 (001.034326)  can0  18FEFC00   [8]  FF FF FF FF FF FF FF FF
 (001.034954)  can0  18F00E00   [8]  18 25 FF FF D5 9F FF FF
 (001.037774)  can0  0CF00203   [8]  C0 00 00 FF F7 4C 16 03
 (001.038322)  can0  18FD2000   [8]  AC 3D FF FF FF FF FF FF
 (001.038923)  can0  0CF00C03   [8]  EB 03 7B 16 FF FF FF FF
 (001.039426)  can0  18F03300   [8]  FF FF FF FF FF FF FF FF
 (001.040057)  can0  18FEDF00   [8]  84 A0 28 7D 7F FF FF F5
 (001.043673)  can0  18FEE000   [8]  CC 2C 01 00 15 96 35 00
 (001.044060)  can0  0CF00300   [8]  D1 00 0E FF FF 0F 6A 7E
 (001.047338)  can0  0C010305   [8]  FF FF FF FF FF F3 FF FF
 (001.047840)  can0  0CF00203   [8]  C0 00 00 FF F7 4D 16 03
 (001.048463)  can0  18FEF200   [8]  15 00 00 00 C2 09 E1 FF
 (001.049055)  can0  18F00F00   [8]  64 0F FF FF D5 9F FF FF
 (001.050783)  can0  0CF00400   [8]  10 7D 85 A3 16 00 0F 85
 (001.057708)  can0  0CF00203   [8]  C0 00 00 FF F7 4D 16 03
 (001.058268)  can0  18FEDF00   [8]  84 A0 28 7D 7F FF FF F5
 (001.058885)  can0  0CF00C03   [8]  F0 03 F6 16 FF FF FF FF
 (001.059431)  can0  10FCFD00   [8]  FF FF FF FF 00 32 FF FF
 (001.060050)  can0  18F00131   [8]  FF FF FF 3F 00 FF FF FF
 (001.060598)  can0  18F00503   [8]  7D 00 00 7D 4E 20 4E 43
 (001.061205)  can0  18FEF131   [8]  F3 FF FF C3 CC FF FF F0
 (001.061709)  can0  18FE4A03   [8]  03 1F 4F FF FF F3 FF FF
 (001.062326)  can0  18FEF031   [8]  FF FF FF FF FF FC CC FF
 (001.062961)  can0  18FF4831   [8]  00 00 FF FF 00 00 00 00
 (001.063556)  can0  18FEF231   [8]  FF FF FF FF FF FF FF FF
 (001.064097)  can0  18FD3E00   [8]  EC 41 FF DC 3E FF FF FF
 (001.064712)  can0  0CF00331   [8]  FF FF FF FF FF FF FF FF
 (001.065250)  can0  0CF00300   [8]  D1 00 0E FF FF 0F 6A 7E
 (001.068013)  can0  0CF00203   [8]  C0 00 00 FF F7 50 16 03
 (001.068326)  can0  18F00100   [8]  FF FF FF FF FF FF FF FF
 (001.070128)  can0  0CF00400   [8]  00 7D 85 AD 16 00 0F 85
 (001.077749)  can0  0CF00203   [8]  C0 00 00 FF F7 50 16 03
 (001.078305)  can0  18FEDF00   [8]  84 A0 28 7D 7F FF FF F5
 (001.078945)  can0  0CF00C03   [8]  EB 03 BE 16 FF FF FF FF
 (001.083642)  can0  18FD4000   [8]  FF 3F 00 FF FF FF FF FF
 (001.084125)  can0  0CF00300   [8]  D1 00 0E FF FF 0F 69 7E
 (001.084708)  can0  0CF00A00   [8]  67 03 9A 05 FF FF FF FF
 (001.085367)  can0  18FEF000   [8]  FF FF FF A7 16 FF FF FF
 (001.085910)  can0  18F00E00   [8]  18 25 FF FF D5 9F FF FF
 (001.086515)  can0  1CECFF00   [8]  20 0E 00 02 FF CA FE 00
 (001.087679)  can0  0CF00203   [8]  C0 00 00 FF F7 53 16 03
 (001.088271)  can0  18F03300   [8]  FF FF FF FF FF FF FF FF
 (001.089951)  can0  0CF00400   [8]  10 7D 85 97 16 00 0F 85
 (001.093202)  can0  18FCF200   [8]  E1 FF FF FF FF FF FF FF
 (001.095082)  can0  18F0010B   [8]  CF FF F0 FF FF CD FF FF
 (001.097532)  can0  0C010305   [8]  FF FF FF FF FF F3 FF FF
 (001.097889)  can0  0CF00203   [8]  C0 00 00 FF F7 53 16 03
 (001.098388)  can0  18FEDF00   [8]  84 A0 28 7D 7F FF FF F5
 (001.099007)  can0  0CF00C03   [8]  E9 03 3C 16 FF FF FF FF
 (001.099578)  can0  18F00F00   [8]  6C 0F FF FF D5 9F FF FF
 (001.103921)  can0  0CF00300   [8]  D1 00 0E FF FF 0F 69 7E
 (001.104152)  can0  18FEF100   [8]  FF 00 00 FC FF 68 00 CF
 (001.105615)  can0  18FEBF0B   [8]  00 00 7D 7D 7D 7D FF FF
 (001.107968)  can0  0CF00203   [8]  C0 00 00 FF F7 58 16 03
 (001.108321)  can0  18FCC500   [8]  EC 41 FF FF FF FF FF FF
 (001.108926)  can0  0CFD9200   [8]  F4 FF FA FF FF FF FF FF
 (001.109618)  can0  0CF00331   [8]  FF FF FF FF FF FF FF FF
 (001.110208)  can0  0CF00400   [8]  30 7D 85 96 16 00 0F 85
 (001.113221)  can0  10FDA300   [8]  FF FF 13 FF FF FF FF FF
 (001.113763)  can0  18F00029   [8]  F0 7D 7D F3 29 FF FF 3C
 (001.117795)  can0  0CF00203   [8]  C0 00 00 FF F7 58 16 03
 (001.118278)  can0  18FEDF00   [8]  84 A0 28 7D 7F FF FF F5
 (001.118827)  can0  0CF00C03   [8]  EC 03 9B 16 FF FF FF FF
 (001.123476)  can0  18FCDC00   [8]  9F FF FF FF 50 68 00 00
 (001.124098)  can0  0CF00300   [8]  D1 00 0F FF FF 0F 69 7E
 (001.124670)  can0  1CFE9200   [8]  FF F0 90 FF FF FF 00 00
 (001.127756)  can0  0CF00203   [8]  C0 00 00 FF F7 55 16 03
 (001.130040)  can0  0CF00400   [8]  10 7D 85 9B 16 00 0F 85
 (001.133414)  can0  0CF00A00   [8]  7A 03 74 05 FF FF FF FF
 (001.133794)  can0  18FD9400   [8]  C9 14 FF FF FF FF FF FF
 (001.134422)  can0  18FEEF00   [8]  FF FF FF 1E 37 7D FF FA
 (001.134913)  can0  18F00E00   [8]  18 25 FF FF D5 9F FF FF
 (001.135548)  can0  1CEBFF00   [8]  01 43 FF BF 00 09 08 54
 (001.137756)  can0  0CF00203   [8]  C0 00 00 FF F7 55 16 03
 (001.138279)  can0  18F03300   [8]  FF FF FF FF FF FF FF FF
 (001.139038)  can0  0CF00C03   [8]  EC 03 D3 16 FF FF FF FF
 (001.139436)  can0  18FEDF00   [8]  84 A0 28 7D 7F FF FF F5
 (001.143683)  can0  18FEE000   [8]  CC 2C 01 00 15 96 35 00
 (001.144088)  can0  0CF00300   [8]  D1 00 0F FF FF 0F 6B 7E
 (001.147714)  can0  0C010305   [8]  FF FF FF FF FF F3 FF FF
 (001.147868)  can0  0CF00203   [8]  C0 00 00 FF F7 53 16 03
 (001.148435)  can0  18FEF200   [8]  15 00 00 00 C3 09 E1 FF
 (001.149003)  can0  18F00F00   [8]  6C 0F FF FF D5 9F FF FF
 (001.150577)  can0  0CF00400   [8]  10 7D 85 9B 16 00 0F 85
 (001.153131)  can0  18FEDB00   [8]  FF FF 4A 31 FF FF FF FF
 (001.157716)  can0  0CF00203   [8]  C0 00 00 FF F7 53 16 03
 (001.158327)  can0  18FEDF00   [8]  84 A0 28 7D 7F FF FF F5
 (001.158831)  can0  0CF00C03   [8]  EA 03 92 16 FF FF FF FF
 (001.159482)  can0  10FCFD00   [8]  FF FF FF FF 00 32 FF FF
 (001.160030)  can0  18F00131   [8]  FF FF FF 3F 00 FF FF FF
 (001.160552)  can0  18F00503   [8]  7D 00 00 7D 4E 20 4E 43
 (001.161230)  can0  18FEF131   [8]  F3 FF FF C3 CC FF FF F0
 (001.161682)  can0  18FE4A03   [8]  03 1F 4F FF FF F3 FF FF
 (001.162313)  can0  18FEF031   [8]  FF FF FF FF FF FC CC FF
 (001.162930)  can0  18FF4831   [8]  00 00 FF FF 00 00 00 00
 (001.163528)  can0  18FEF231   [8]  FF FF FF FF FF FF FF FF
 (001.164098)  can0  0CF00300   [8]  D1 00 0F FF FF 0F 69 7E
 (001.164709)  can0  0CF00331   [8]  FF FF FF FF FF FF FF FF
 (001.168011)  can0  0CF00203   [8]  C0 00 00 FF F7 52 16 03
 (001.168327)  can0  18F00100   [8]  FF FF FF FF FF FF FF FF
 (001.170771)  can0  0CF00400   [8]  10 7D 85 99 16 00 0F 85
 (001.173774)  can0  18FEF600   [8]  FF 01 64 FF FF FF FF FF
 (001.177786)  can0  0CF00203   [8]  C0 00 00 FF F7 52 16 03
 (001.178253)  can0  18FEDF00   [8]  84 A0 28 7D 7F FF FF F5
 (001.179008)  can0  0CF00C03   [8]  E9 03 77 16 FF FF FF FF
 (001.183747)  can0  0CF00300   [8]  D1 00 0E FF FF 0F 68 7E
 (001.184145)  can0  0CF00A00   [8]  7A 03 9A 05 FF FF FF FF
 (001.184720)  can0  18FEF000   [8]  FF FF FF 9E 16 FF FF FF
 (001.185268)  can0  18F00E00   [8]  18 25 FF FF D5 9F FF FF
 (001.187686)  can0  0CF00203   [8]  C0 00 00 FF F7 56 16 03
 (001.188285)  can0  18F03300   [8]  FF FF FF FF FF FF FF FF
 (001.190042)  can0  0CF00400   [8]  00 7D 85 B2 16 00 0F 85
 (001.190586)  can0  1CEBFF00   [8]  02 00 09 08 ED 14 1F 01
 (001.193181)  can0  18FCF200   [8]  E1 FF FF FF FF FF FF FF
 (001.195800)  can0  18F0010B   [8]  CF FF F0 FF FF CD FF FF
 (001.197445)  can0  0C010305   [8]  FF FF FF FF FF F3 FF FF
 (001.197848)  can0  0CF00203   [8]  C0 00 00 FF F7 56 16 03
 (001.198456)  can0  18FEDF00   [8]  84 A0 28 7D 7F FF FF F5
 (001.199008)  can0  0CF00C03   [8]  EF 03 E4 16 FF FF FF FF
 (001.199605)  can0  18FDC600   [8]  FC 04 FF FF FF FF FF FF
 (001.200193)  can0  18F00F00   [8]  6C 0F FF FF D5 9F FF FF
 (001.203746)  can0  0CF00300   [8]  D1 00 0E FF FF 0F 69 7E
 (001.204102)  can0  18FEF100   [8]  FF 00 00 FC FF 68 00 CF
 (001.205559)  can0  18FEBF0B   [8]  00 00 7D 7D 7D 7D FF FF
 (001.207896)  can0  0CF00203   [8]  C0 00 00 FF F7 56 16 03
 (001.209632)  can0  0CF00331   [8]  FF FF FF FF FF FF FF FF
 (001.210139)  can0  0CF00400   [8]  60 7D 84 B6 16 00 0F 85
 (001.213678)  can0  10FDA300   [8]  FF FF 13 FF FF FF FF FF
 (001.213750)  can0  18F00029   [8]  F0 7D 7D F3 29 FF FF 3C
 (001.217704)  can0  0CF00203   [8]  C0 00 00 FF F7 56 16 03
 (001.218272)  can0  18FEDF00   [8]  84 A0 28 7D 7F FF FF F5
 (001.218822)  can0  0CF00C03   [8]  EC 03 C9 16 FF FF FF FF
 (001.223581)  can0  18FCDC00   [8]  9F FF FF FF 50 68 00 00
 (001.224120)  can0  0CF00300   [8]  D1 00 0E FF FF 0F 6A 7E
 (001.224729)  can0  1CFE9200   [8]  FF B0 90 FF FF FF 00 00
 (001.228576)  can0  0CF00203   [8]  C0 00 00 FF F7 57 16 03
 (001.230099)  can0  0CF00400   [8]  70 7D 84 AA 16 00 0F 85
 (001.233423)  can0  0CF00A00   [8]  7A 03 7E 05 FF FF FF FF
 (001.233796)  can0  18FD9400   [8]  C9 14 FF FF FF FF FF FF
 (001.234369)  can0  18F00E00   [8]  18 25 FF FF D5 9F FF FF
 (001.237770)  can0  0CF00203   [8]  C0 00 00 FF F7 57 16 03
 (001.238278)  can0  18F03300   [8]  FF FF FF FF FF FF FF FF
 (001.239023)  can0  0CF00C03   [8]  EA 03 6C 16 FF FF FF FF
 (001.239436)  can0  18FEDF00   [8]  84 A0 28 7D 7F FF FF F5
 (001.243709)  can0  18FEE000   [8]  CC 2C 01 00 15 96 35 00
 (001.244099)  can0  0CF00300   [8]  D1 00 0E FF FF 0F 68 7E
 (001.247633)  can0  0C010305   [8]  FF FF FF FF FF F3 FF FF
 (001.247869)  can0  0CF00203   [8]  C0 00 00 FF F7 5A 16 03
 (001.248407)  can0  18FEF200   [8]  10 00 00 00 C2 09 E1 FF
 (001.248948)  can0  18F00F00   [8]  6C 0F FF FF D5 9F FF FF
 (001.250022)  can0  0CF00400   [8]  00 7D 85 A2 16 00 0F 85
 (001.257764)  can0  0CF00203   [8]  C0 00 00 FF F7 5A 16 03
 (001.258332)  can0  18FEDF00   [8]  84 A0 28 7D 7F FF FF F5
 (001.258922)  can0  0CF00C03   [8]  EB 03 A5 16 FF FF FF FF
 (001.259437)  can0  10FCFD00   [8]  FF FF FF FF 00 32 FF FF
 (001.260059)  can0  18F00131   [8]  FF FF FF 3F 00 FF FF FF
 (001.260570)  can0  18F00503   [8]  7D 00 00 7D 4E 20 4E 43
 (001.261175)  can0  18FEF131   [8]  F3 FF FF C3 CC FF FF F0
 (001.261784)  can0  18FE4A03   [8]  03 1F 4F FF FF F3 FF FF
 (001.262297)  can0  18FEF031   [8]  FF FF FF FF FF FC CC FF
 (001.263697)  can0  18FF4831   [8]  00 00 FF FF 00 00 00 00
 (001.263704)  can0  18FEF231   [8]  FF FF FF FF FF FF FF FF
 (001.264058)  can0  0CF00300   [8]  D1 00 0E FF FF 0F 69 7E
 (001.264686)  can0  0CF00331   [8]  FF FF FF FF FF FF FF FF
 (001.267768)  can0  0CF00203   [8]  C0 00 00 FF F7 5F 16 03
 (001.268286)  can0  18F00100   [8]  FF FF FF FF FF FF FF FF
 (001.270900)  can0  0CF00400   [8]  10 7D 85 A2 16 00 0F 85
 (001.277778)  can0  0CF00203   [8]  C0 00 00 FF F7 5F 16 03
 (001.278277)  can0  18FEDF00   [8]  84 A0 28 7D 7F FF FF F5
 (001.278900)  can0  0CF00C03   [8]  EE 03 E5 16 FF FF FF FF
 (001.283580)  can0  0CF00300   [8]  D1 00 0E FF FF 0F 6A 7E
 (001.284144)  can0  0CF00A00   [8]  7A 03 87 05 FF FF FF FF
 (001.284732)  can0  18FEF000   [8]  FF FF FF 9B 16 FF FF FF
 (001.285307)  can0  18F00E00   [8]  18 25 FF FF D5 9F FF FF
 (001.287724)  can0  0CF00203   [8]  C0 00 00 FF F7 60 16 03
 (001.288326)  can0  18F03300   [8]  FF FF FF FF FF FF FF FF
 (001.290048)  can0  0CF00400   [8]  00 7D 85 A3 16 00 0F 85
 (001.293466)  can0  18FCF200   [8]  E1 FF FF FF FF FF FF FF
 (001.295480)  can0  18F0010B   [8]  CF FF F0 FF FF CD FF FF
 (001.297737)  can0  0C010305   [8]  FF FF FF FF FF F3 FF FF
 (001.297927)  can0  0CF00203   [8]  C0 00 00 FF F7 60 16 03
 (001.298599)  can0  18FEDF00   [8]  84 A0 28 7D 7F FF FF F5
 (001.298990)  can0  0CF00C03   [8]  E9 03 8F 16 FF FF FF FF
 (001.299633)  can0  18F00F00   [8]  6C 0F FF FF D5 9F FF FF
 (001.304010)  can0  0CF00300   [8]  D1 00 0E FF FF 0F 6B 7E
 (001.304166)  can0  18FEF100   [8]  FF 00 00 FC FF 68 00 CF
 (001.305719)  can0  18FEBF0B   [8]  00 00 7D 7D 7D 7D FF FF
 (001.308114)  can0  0CF00203   [8]  C0 00 00 FF F7 5C 16 03
 (001.309587)  can0  0CF00331   [8]  FF FF FF FF FF FF FF FF
 (001.310093)  can0  0CF00400   [8]  00 7D 85 A5 16 00 0F 85
 (001.313157)  can0  10FDA300   [8]  FF FF 13 FF FF FF FF FF
 (001.313695)  can0  18F00029   [8]  F0 7D 7D F3 29 FF FF 3C
 (001.317726)  can0  0CF00203   [8]  C0 00 00 FF F7 5C 16 03
 (001.318326)  can0  18FEDF00   [8]  84 A0 28 7D 7F FF FF F5
 (001.318881)  can0  0CF00C03   [8]  EA 03 65 16 FF FF FF FF
 (001.323583)  can0  18FCDC00   [8]  9F FF FF FF 50 68 00 00
 (001.324080)  can0  0CF00300   [8]  D1 00 0E FF FF 0F 6A 7E
 (001.324732)  can0  1CFE9200   [8]  FF C4 8F FF FF FF 00 00
 (001.327733)  can0  0CF00203   [8]  C0 00 00 FF F7 5B 16 03
 (001.330849)  can0  0CF00400   [8]  70 7D 84 AF 16 00 0F 85
 (001.333755)  can0  0CF00A00   [8]  BC 03 4F 05 FF FF FF FF
 (001.333799)  can0  18FD9400   [8]  C9 14 FF FF FF FF FF FF
 (001.334449)  can0  18F00E00   [8]  18 25 FF FF D5 9F FF FF
 (001.337786)  can0  0CF00203   [8]  C0 00 00 FF F7 5B 16 03
 (001.338282)  can0  18F03300   [8]  FF FF FF FF FF FF FF FF
 (001.338995)  can0  0CF00C03   [8]  ED 03 ED 16 FF FF FF FF
 (001.339440)  can0  18FEDF00   [8]  84 A0 28 7D 7F FF FF F5
 (001.343765)  can0  18FEE000   [8]  CC 2C 01 00 15 96 35 00
 (001.344110)  can0  0CF00300   [8]  D1 00 0E FF FF 0F 69 7E
 (001.347295)  can0  0C010305   [8]  FF FF FF FF FF F3 FF FF
 (001.347873)  can0  0CF00203   [8]  C0 00 00 FF F7 5F 16 03
 (001.348397)  can0  18FEF200   [8]  15 00 00 00 C3 09 E1 FF
 (001.348971)  can0  18F00F00   [8]  76 0F FF FF D5 9F FF FF
 (001.350122)  can0  0CF00400   [8]  60 7D 84 C1 16 00 0F 85
 (001.357763)  can0  0CF00203   [8]  C0 00 00 FF F7 5F 16 03
 (001.358305)  can0  18FEDF00   [8]  84 A0 28 7D 7F FF FF F5
 (001.358935)  can0  0CF00C03   [8]  EE 03 0B 17 FF FF FF FF
 (001.359485)  can0  10FCFD00   [8]  FF FF FF FF 00 32 FF FF
 (001.360058)  can0  18F00131   [8]  FF FF FF 3F 00 FF FF FF
 (001.360652)  can0  0CFD9200   [8]  F4 FF FA FF FF FF FF FF
 (001.361211)  can0  18F00503   [8]  7D 00 00 7D 4E 20 4E 43
 (001.361740)  can0  18FEF131   [8]  F3 FF FF C3 CC FF FF F0
 (001.362357)  can0  18FE4A03   [8]  03 1F 4F FF FF F3 FF FF
 (001.362943)  can0  18FEF031   [8]  FF FF FF FF FF FC CC FF
 (001.363514)  can0  18FD9503   [8]  CC FF FF AF FF FF FF FF
 (001.364021)  can0  0CF00300   [8]  D1 00 0E FF FF 0F 69 7E
 (001.364630)  can0  18FEF803   [8]  FF FF FF FF FB 2B FF FF
 (001.365232)  can0  18FF4831   [8]  00 00 FF FF 00 00 00 00
 (001.365830)  can0  18FEF231   [8]  FF FF FF FF FF FF FF FF
 (001.366434)  can0  0CF00331   [8]  FF FF FF FF FF FF FF FF
 (001.367882)  can0  0CF00203   [8]  C0 00 00 FF F7 5F 16 03
 (001.368428)  can0  18F00100   [8]  FF FF FF FF FF FF FF FF
 (001.370166)  can0  0CF00400   [8]  50 7D 84 C1 16 00 0F 85
 (001.377796)  can0  0CF00203   [8]  C0 00 00 FF F7 5F 16 03
 (001.378252)  can0  18FEDF00   [8]  84 A0 28 7D 7F FF FF F5
 (001.378821)  can0  0CF00C03   [8]  E9 03 8A 16 FF FF FF FF
 (001.383599)  can0  0CF00300   [8]  D1 00 0E FF FF 0F 69 7E
 (001.384182)  can0  0CF00A00   [8]  BC 03 46 05 FF FF FF FF
 (001.384754)  can0  18FEF000   [8]  FF FF FF C3 16 FF FF FF
 (001.385359)  can0  18F00E00   [8]  18 25 FF FF D5 9F FF FF
 (001.387893)  can0  0CF00203   [8]  C0 00 00 FF F7 60 16 03
 (001.388296)  can0  18F03300   [8]  FF FF FF FF FF FF FF FF
 (001.390083)  can0  0CF00400   [8]  50 7D 84 BC 16 00 0F 85
 (001.393616)  can0  18FCF200   [8]  E1 FF FF FF FF FF FF FF
 (001.395982)  can0  18F0010B   [8]  CF FF F0 FF FF CD FF FF
 (001.397657)  can0  0C010305   [8]  FF FF FF FF FF F3 FF FF
 (001.397858)  can0  0CF00203   [8]  C0 00 00 FF F7 60 16 03
 (001.398459)  can0  18FEDF00   [8]  84 A0 28 7D 7F FF FF F5
 (001.399008)  can0  0CF00C03   [8]  EB 03 77 16 FF FF FF FF
 (001.399581)  can0  18F00F00   [8]  76 0F FF FF D5 9F FF FF
 (001.403964)  can0  0CF00300   [8]  D1 00 0E FF FF 0F 69 7E
 (001.404149)  can0  18FEF100   [8]  FF 00 00 FC FF 68 00 CF
 (001.405719)  can0  18FEBF0B   [8]  00 00 7D 7D 7D 7D FF FF
 (001.408162)  can0  0CF00203   [8]  C0 00 00 FF F7 65 16 03
 (001.409637)  can0  0CF00331   [8]  FF FF FF FF FF FF FF FF
 (001.410080)  can0  0CF00400   [8]  50 7D 84 B6 16 00 0F 85
 (001.413201)  can0  10FDA300   [8]  FF FF 13 FF FF FF FF FF
 (001.413787)  can0  18F00029   [8]  F0 7D 7D F3 29 FF FF 3C
 (001.417769)  can0  0CF00203   [8]  C0 00 00 FF F7 65 16 03
 (001.418294)  can0  18FEDF00   [8]  84 A0 28 7D 7F FF FF F5
 (001.418874)  can0  0CF00C03   [8]  EF 03 ED 16 FF FF FF FF
 (001.423616)  can0  18FCDC00   [8]  9F FF FF FF 50 68 00 00
 (001.424163)  can0  0CF00300   [8]  D1 00 0E FF FF 0F 68 7E
 (001.424769)  can0  1CFE9200   [8]  FF B8 8F FF FF FF 00 00
 (001.428478)  can0  0CF00203   [8]  C0 00 00 FF F7 6C 16 03
 (001.430074)  can0  0CF00400   [8]  70 7D 84 99 16 00 0F 85
 (001.433832)  can0  14FC9800   [8]  FF 00 00 00 00 00 00 FF
 (001.433845)  can0  0CF00A00   [8]  BC 03 58 05 FF FF FF FF
 (001.434330)  can0  18FD9400   [8]  C9 14 FF FF FF FF FF FF
 (001.434958)  can0  18F00E00   [8]  18 25 FF FF D5 9F FF FF
 (001.437730)  can0  0CF00203   [8]  C0 00 00 FF F7 6C 16 03
 (001.438330)  can0  18F03300   [8]  FF FF FF FF FF FF FF FF
 (001.438962)  can0  0CF00C03   [8]  EA 03 D2 16 FF FF FF FF
 (001.439416)  can0  18FEDF00   [8]  84 A0 28 7D 7F FF FF F5
 (001.443502)  can0  18FEE000   [8]  CC 2C 01 00 15 96 35 00
 (001.444068)  can0  0CF00300   [8]  D1 00 0E FF FF 0F 68 7E
 (001.447349)  can0  0C010305   [8]  FF FF FF FF FF F3 FF FF
 (001.447922)  can0  0CF00203   [8]  C0 00 00 FF F7 6B 16 03
 (001.448482)  can0  18FDB400   [8]  A9 3D 13 40 FF FF FF FF
 (001.449055)  can0  18FEF200   [8]  15 00 00 00 C2 09 E1 FF
 (001.449628)  can0  18F00F00   [8]  76 0F FF FF D5 9F FF FF
 (001.450169)  can0  0CF00400   [8]  00 7D 85 A7 16 00 0F 85
 (001.457746)  can0  0CF00203   [8]  C0 00 00 FF F7 6B 16 03
 (001.458333)  can0  18FEDF00   [8]  84 A0 28 7D 7F FF FF F5
 (001.458900)  can0  0CF00C03   [8]  EA 03 5B 16 FF FF FF FF
 (001.459452)  can0  10FCFD00   [8]  FF FF FF FF 00 32 FF FF
 (001.460026)  can0  18F00131   [8]  FF FF FF 3F 00 FF FF FF
 (001.460598)  can0  18F00503   [8]  7D 00 00 7D 4E 20 4E 43
 (001.461148)  can0  18FEF131   [8]  F3 FF FF C3 CC FF FF F0
 (001.461731)  can0  18FE4A03   [8]  03 1F 4F FF FF F3 FF FF
 (001.462330)  can0  18FEF031   [8]  FF FF FF FF FF FC CC FF
 (001.462929)  can0  18FF4831   [8]  00 00 FF FF 00 00 00 00
 (001.463529)  can0  18FEF231   [8]  FF FF FF FF FF FF FF FF
 (001.464105)  can0  0CF00300   [8]  D1 00 0E FF FF 0F 6A 7E
 (001.464648)  can0  0CF00331   [8]  FF FF FF FF FF FF FF FF
 (001.467850)  can0  0CF00203   [8]  C0 00 00 FF F7 66 16 03
 (001.468353)  can0  18F00100   [8]  FF FF FF FF FF FF FF FF
 (001.470856)  can0  0CF00400   [8]  60 7D 84 AE 16 00 0F 85
 (001.473367)  can0  18FDB300   [8]  FF FF F9 43 FF FF FF FF
 (001.477713)  can0  0CF00203   [8]  C0 00 00 FF F7 66 16 03
 (001.478254)  can0  18FEDF00   [8]  84 A0 28 7D 7F FF FF F5
 (001.478821)  can0  0CF00C03   [8]  EC 03 92 16 FF FF FF FF
 (001.483785)  can0  0CF00300   [8]  D1 00 0E FF FF 0F 6A 7E
 (001.484183)  can0  0CF00A00   [8]  C5 03 3C 05 FF FF FF FF
 (001.484839)  can0  18FEF000   [8]  FF FF FF AC 16 FF FF FF
 (001.485375)  can0  18F00E00   [8]  18 25 FF FF D5 9F FF FF
 (001.487754)  can0  0CF00203   [8]  C0 00 00 FF F7 64 16 03
 (001.488357)  can0  18F03300   [8]  FF FF FF FF FF FF FF FF
 (001.490074)  can0  0CF00400   [8]  60 7D 84 AC 16 00 0F 85
 (001.493752)  can0  18FDB200   [8]  FF FF FF FF 02 00 FF FF
 (001.493761)  can0  18FCF200   [8]  E1 FF FF FF FF FF FF FF
 (001.496157)  can0  18F0010B   [8]  CF FF F0 FF FF CD FF FF
 (001.497727)  can0  0C010305   [8]  FF FF FF FF FF F3 FF FF
 (001.497927)  can0  0CF00203   [8]  C0 00 00 FF F7 64 16 03
 (001.498482)  can0  18FEDF00   [8]  84 A0 28 7D 7F FF FF F5
 (001.499061)  can0  0CF00C03   [8]  EE 03 01 17 FF FF FF FF
 (001.499626)  can0  18F00F00   [8]  80 0F FF FF D5 9F FF FF
 (001.500203)  can0  18FECA31   [8]  00 FF 00 00 00 00 FF FF
 (001.500843)  can0  18F11031   [8]  00 00 FF FF FF FF FF FF
 (001.503607)  can0  0CF00300   [8]  D1 00 0E FF FF 0F 68 7E
 (001.504205)  can0  18FEF100   [8]  FF 00 00 FC FF 68 00 CF
 (001.505944)  can0  18FEBF0B   [8]  00 00 7D 7D 7D 7D FF FF
 (001.507680)  can0  0CF00203   [8]  C0 00 00 FF F7 64 16 03
 (001.509474)  can0  0CF00331   [8]  FF FF FF FF FF FF FF FF
 (001.510101)  can0  0CF00400   [8]  60 7D 84 BC 16 00 0F 85
 (001.513231)  can0  10FDA300   [8]  FF FF 13 FF FF FF FF FF
 (001.513767)  can0  18F00029   [8]  F0 7D 7D F3 29 FF FF 3C
 (001.517764)  can0  0CF00203   [8]  C0 00 00 FF F7 64 16 03
 (001.518338)  can0  18FD8C00   [8]  FF FF 00 00 FF FF FF FF
 (001.518876)  can0  0CF00C03   [8]  E9 03 C9 16 FF FF FF FF
 (001.519456)  can0  18FEDF00   [8]  84 A0 28 7D 7F FF FF F5
 (001.523620)  can0  18FCDC00   [8]  9F FF FF FF 50 68 00 00
 (001.524180)  can0  0CF00300   [8]  D1 00 0E FF FF 0F 68 7E
 (001.524785)  can0  1CFE9200   [8]  FF 5C 8F FF FF FF 00 00
 (001.527707)  can0  0CF00203   [8]  C0 00 00 FF F7 65 16 03
 (001.530081)  can0  0CF00400   [8]  50 7D 84 C5 16 00 0F 85
 (001.533284)  can0  0CF00A00   [8]  C5 03 46 05 FF FF FF FF
 (001.533860)  can0  18FD9400   [8]  C9 14 FF FF FF FF FF FF
 (001.534464)  can0  18F00E00   [8]  18 25 FF FF D5 9F FF FF
 (001.537697)  can0  0CF00203   [8]  C0 00 00 FF F7 65 16 03
 (001.539057)  can0  18FD2000   [8]  A9 3D FF FF FF FF FF FF
 (001.539064)  can0  0CF00C03   [8]  E9 03 7A 16 FF FF FF FF
 (001.539425)  can0  18F03300   [8]  FF FF FF FF FF FF FF FF
 (001.540002)  can0  18FEDF00   [8]  84 A0 28 7D 7F FF FF F5
 (001.543547)  can0  18FEE000   [8]  CC 2C 01 00 15 96 35 00
 (001.544090)  can0  0CF00300   [8]  D1 00 0E FF FF 0F 69 7E
 (001.547766)  can0  0C010305   [8]  FF FF FF FF FF F3 FF FF
 (001.547866)  can0  0CF00203   [8]  C0 00 00 FF F7 64 16 03
 (001.548486)  can0  18FEF200   [8]  0F 00 00 00 C3 09 E1 FF
 (001.549073)  can0  18F00F00   [8]  80 0F FF FF D5 9F FF FF
 (001.550751)  can0  0CF00400   [8]  40 7D 84 C3 16 00 0F 85
 (001.557760)  can0  0CF00203   [8]  C0 00 00 FF F7 64 16 03
 (001.558300)  can0  18FEDF00   [8]  84 A0 28 7D 7F FF FF F5
 (001.558876)  can0  0CF00C03   [8]  F0 03 DA 16 FF FF FF FF
 (001.559506)  can0  10FCFD00   [8]  FF FF FF FF 00 32 FF FF
 (001.560082)  can0  18F00131   [8]  FF FF FF 3F 00 FF FF FF
 (001.560641)  can0  18F00503   [8]  7D 00 00 7D 4E 20 4E 43
 (001.561214)  can0  18FEF131   [8]  F3 FF FF C3 CC FF FF F0
 (001.561759)  can0  18FE4A03   [8]  03 1F 4F FF FF F3 FF FF
 (001.562331)  can0  18FEF031   [8]  FF FF FF FF FF FC CC FF
 (001.562929)  can0  18FF4831   [8]  00 00 FF FF 00 00 00 00
 (001.563530)  can0  18FEF231   [8]  FF FF FF FF FF FF FF FF
 (001.564151)  can0  18FD3E00   [8]  EC 41 FF DC 3E FF FF FF
 (001.564722)  can0  0CF00331   [8]  FF FF FF FF FF FF FF FF
 (001.565594)  can0  0CF00300   [8]  D1 00 0E FF FF 0F 69 7E
 (001.567849)  can0  0CF00203   [8]  C0 00 00 FF F7 68 16 03
 (001.568303)  can0  18F00100   [8]  FF FF FF FF FF FF FF FF
 (001.570673)  can0  0CF00400   [8]  40 7D 84 C1 16 00 0F 85
 (001.577732)  can0  0CF00203   [8]  C0 00 00 FF F7 68 16 03
 (001.578310)  can0  18FEDF00   [8]  84 A0 28 7D 7F FF FF F5
 (001.578880)  can0  0CF00C03   [8]  ED 03 E6 16 FF FF FF FF
 (001.583860)  can0  18FD4000   [8]  FF 3F 00 FF FF FF FF FF
 (001.584214)  can0  0CF00300   [8]  D1 00 0D FF FF 0F 68 7E
 (001.585485)  can0  0CF00A00   [8]  C5 03 58 05 FF FF FF FF
 (001.585492)  can0  18FEF000   [8]  FF FF FF C4 16 FF FF FF
 (001.585993)  can0  18F00E00   [8]  18 25 FF FF D5 9F FF FF
 (001.587722)  can0  0CF00203   [8]  C0 00 00 FF F7 6B 16 03
 (001.588301)  can0  18F03300   [8]  FF FF FF FF FF FF FF FF
 (001.590101)  can0  0CF00400   [8]  60 7D 84 A6 16 00 0F 85
 (001.593382)  can0  18FCF200   [8]  E1 FF FF FF FF FF FF FF
 (001.596537)  can0  18F0010B   [8]  CF FF F0 FF FF CD FF FF
 (001.597626)  can0  0C010305   [8]  FF FF FF FF FF F3 FF FF
 (001.597869)  can0  0CF00203   [8]  C0 00 00 FF F7 6B 16 03
 (001.598455)  can0  18FEDF00   [8]  84 A0 28 7D 7F FF FF F5
 (001.599029)  can0  0CF00C03   [8]  EA 03 90 16 FF FF FF FF
 (001.599550)  can0  18F00F00   [8]  76 0F FF FF D5 9F FF FF
 (001.603725)  can0  0CF00300   [8]  D1 00 0E FF FF 0F 68 7E
 (001.604197)  can0  18FEF100   [8]  FF 00 00 FC FF 68 00 CF
 (001.606049)  can0  18FEBF0B   [8]  00 00 7D 7D 7D 7D FF FF
 (001.607683)  can0  0CF00203   [8]  C0 00 00 FF F7 70 16 03
 (001.608323)  can0  18FCC500   [8]  EC 41 FF FF FF FF FF FF
 (001.608952)  can0  0CFD9200   [8]  F4 FF FA FF FF FF FF FF
 (001.609594)  can0  0CF00331   [8]  FF FF FF FF FF FF FF FF
 (001.610178)  can0  0CF00400   [8]  70 7D 84 AD 16 00 0F 85
 (001.613230)  can0  10FDA300   [8]  FF FF 13 FF FF FF FF FF
 (001.613798)  can0  18F00029   [8]  F0 7D 7D F3 29 FF FF 3C
 (001.617754)  can0  0CF00203   [8]  C0 00 00 FF F7 70 16 03
 (001.618302)  can0  18FEDF00   [8]  84 A0 28 7D 7F FF FF F5
 (001.618878)  can0  0CF00C03   [8]  E9 03 61 16 FF FF FF FF
 (001.624022)  can0  18FCDC00   [8]  9F FF FF FF 50 68 00 00
 (001.624110)  can0  0CF00300   [8]  D1 00 0E FF FF 0F 69 7E
 (001.624788)  can0  1CFE9200   [8]  FF 3C 8F FF FF FF 00 00
 (001.628392)  can0  0CF00203   [8]  C0 00 00 FF F7 6C 16 03
 (001.630851)  can0  0CF00400   [8]  60 7D 84 AF 16 00 0F 85
 (001.633737)  can0  0CF00A00   [8]  B2 03 3C 05 FF FF FF FF
 (001.633923)  can0  18FD9400   [8]  C9 14 FF FF FF FF FF FF
 (001.634596)  can0  18FEEF00   [8]  FF FF FF 1E 3A 7D FF FA
 (001.635018)  can0  18F00E00   [8]  18 25 FF FF D5 9F FF FF
 (001.637725)  can0  0CF00203   [8]  C0 00 00 FF F7 6C 16 03
 (001.638322)  can0  18F03300   [8]  FF FF FF FF FF FF FF FF
 (001.638934)  can0  0CF00C03   [8]  EE 03 E0 16 FF FF FF FF
 (001.639450)  can0  18FEDF00   [8]  84 A0 28 7D 7F FF FF F5
 (001.643602)  can0  18FEE000   [8]  CC 2C 01 00 15 96 35 00
 (001.644174)  can0  0CF00300   [8]  D1 00 0E FF FF 0F 6A 7E
 (001.648155)  can0  0C010305   [8]  FF FF FF FF FF F3 FF FF
 (001.648165)  can0  0CF00203   [8]  C0 00 00 FF F7 6B 16 03
 (001.648417)  can0  18FEF200   [8]  15 00 00 00 C2 09 E1 FF
 (001.649757)  can0  18F00F00   [8]  76 0F FF FF D5 9F FF FF
 (001.650132)  can0  0CF00400   [8]  60 7D 84 AF 16 00 0F 85
 (001.653342)  can0  18FEDB00   [8]  FF FF 2D 31 FF FF FF FF
 (001.657798)  can0  0CF00203   [8]  C0 00 00 FF F7 6B 16 03
 (001.658362)  can0  18FEDF00   [8]  84 A0 28 7D 7F FF FF F5
 (001.658941)  can0  0CF00C03   [8]  E9 03 C6 16 FF FF FF FF
 (001.659514)  can0  10FCFD00   [8]  FF FF FF FF 00 32 FF FF
 (001.660021)  can0  18F00131   [8]  FF FF FF 3F 00 FF FF FF
 (001.660569)  can0  18F00503   [8]  7D 00 00 7D 4E 20 4E 43
 (001.661169)  can0  18E0FF31   [8]  FA FF FF FF FF F0 FF FF
 (001.661775)  can0  18FE4A03   [8]  03 1F 4F FF FF F3 FF FF
 (001.662407)  can0  18FEF131   [8]  F3 FF FF C3 CC FF FF F0
 (001.663030)  can0  18FEF031   [8]  FF FF FF FF FF FC CC FF
 (001.663499)  can0  18FEFC31   [8]  FF 77 FF FF FF FF 00 FF
 (001.664194)  can0  0CF00300   [8]  D1 00 0E FF FF 0F 69 7E
 (001.664647)  can0  18FEAE31   [8]  FF FF 5C 5C FF FF FF FF
 (001.665171)  can0  18FEF731   [8]  FF FF FF FF 1A 01 FF FF
 (001.665875)  can0  18FF4831   [8]  00 00 FF FF 00 00 00 00
 (001.666461)  can0  18FD8331   [8]  F8 FF FF FF FF FF FF FF
 (001.667056)  can0  18FEF831   [8]  FF FF FF FF FF FF FF FF
 (001.667874)  can0  18FEF231   [8]  FF FF FF FF FF FF FF FF
 (001.668137)  can0  0CF00203   [8]  C0 00 00 FF F7 68 16 03
 (001.668770)  can0  18F00100   [8]  FF FF FF FF FF FF FF FF
 (001.669346)  can0  18FEFA31   [8]  FF B8 B9 FF FF FF FF FF
 (001.669923)  can0  18FEC131   [8]  2F 42 67 06 FF FF FF FF
 (001.670472)  can0  0CF00400   [8]  60 7D 84 AD 16 00 0F 85
 (001.671074)  can0  0CF00331   [8]  FF FF FF FF FF FF FF FF
 (001.673373)  can0  18FEF600   [8]  FF 01 64 FF FF FF FF FF
 (001.677755)  can0  0CF00203   [8]  C0 00 00 FF F7 68 16 03
 (001.678299)  can0  18FEDF00   [8]  84 A0 28 7D 7F FF FF F5
 (001.678874)  can0  0CF00C03   [8]  EA 03 62 16 FF FF FF FF
 (001.683687)  can0  0CF00300   [8]  D1 00 0E FF FF 0F 69 7E
 (001.684257)  can0  0CF00A00   [8]  B2 03 62 05 FF FF FF FF
 (001.684825)  can0  18FEF000   [8]  FF FF FF AE 16 FF FF FF
 (001.685462)  can0  18F00E00   [8]  18 25 FF FF D5 9F FF FF
 (001.688489)  can0  0CF00203   [8]  C0 00 00 FF F7 6A 16 03
 (001.688497)  can0  18F03300   [8]  FF FF FF FF FF FF FF FF
 (001.690849)  can0  0CF00400   [8]  50 7D 84 BD 16 00 0F 85
 (001.693753)  can0  18FCF200   [8]  E1 FF FF FF FF FF FF FF
 (001.696977)  can0  18F0010B   [8]  CF FF F0 FF FF CD FF FF
 (001.697254)  can0  0C010305   [8]  FF FF FF FF FF F3 FF FF
 (001.698643)  can0  0CF00203   [8]  C0 00 00 FF F7 6A 16 03
 (001.698651)  can0  18FEDF00   [8]  84 A0 28 7D 7F FF FF F5
 (001.698961)  can0  0CF00C03   [8]  EC 03 B2 16 FF FF FF FF
 (001.700317)  can0  18FDC600   [8]  FC 04 FF FF FF FF FF FF
 (001.700326)  can0  18F00F00   [8]  76 0F FF FF D5 9F FF FF
 (001.703664)  can0  0CF00300   [8]  D1 00 0E FF FF 0F 6A 7E
 (001.704215)  can0  18FEF100   [8]  FF 00 00 FC FF 68 00 CF
 (001.706324)  can0  18FEBF0B   [8]  00 00 7D 7D 7D 7D FF FF
 (001.707725)  can0  0CF00203   [8]  C0 00 00 FF F7 69 16 03
 (001.709551)  can0  0CF00331   [8]  FF FF FF FF FF FF FF FF
 (001.710183)  can0  0CF00400   [8]  40 7D 84 BC 16 00 0F 85
 (001.713581)  can0  10FDA300   [8]  FF FF 14 FF FF FF FF FF
 (001.713804)  can0  18F00029   [8]  F0 7D 7D F3 29 FF FF 3C
 (001.717752)  can0  0CF00203   [8]  C0 00 00 FF F7 69 16 03
 (001.718299)  can0  18FEDF00   [8]  84 A0 28 7D 7F FF FF F5
 (001.719000)  can0  0CF00C03   [8]  EF 03 F3 16 FF FF FF FF
 (001.724265)  can0  18FCDC00   [8]  9F FF FF FF 50 68 00 00
 (001.724275)  can0  0CF00300   [8]  D1 00 0E FF FF 0F 6A 7E
 (001.724727)  can0  1CFE9200   [8]  FF A8 8F FF FF FF 00 00
 (001.728501)  can0  0CF00203   [8]  C0 00 00 FF F7 68 16 03
 (001.730828)  can0  0CF00400   [8]  50 7D 84 B8 16 00 0F 85
 (001.733265)  can0  0CF00A00   [8]  B2 03 46 05 FF FF FF FF
 (001.733853)  can0  18FD9400   [8]  30 12 FF FF FF FF FF FF
 (001.734427)  can0  18F00E00   [8]  18 25 FF FF D5 9F FF FF
 (001.737729)  can0  0CF00203   [8]  C0 00 00 FF F7 68 16 03
 (001.738325)  can0  18F03300   [8]  FF FF FF FF FF FF FF FF
 (001.738878)  can0  0CF00C03   [8]  E9 03 97 16 FF FF FF FF
 (001.739445)  can0  18FEDF00   [8]  84 A0 28 7D 7F FF FF F5
 (001.740049)  can0  18FECA03   [8]  00 FF 00 00 00 00 FF FF
 (001.744423)  can0  18FEF700   [8]  FF FF FF FF 1A 01 FF FF
 (001.744432)  can0  18FEE000   [8]  CC 2C 01 00 15 96 35 00
 (001.744738)  can0  0CF00300   [8]  D1 00 0E FF FF 0F 69 7E
 (001.747582)  can0  0C010305   [8]  FF FF FF FF FF F3 FF FF
 (001.747903)  can0  0CF00203   [8]  C0 00 00 FF F7 67 16 03
 (001.748598)  can0  18FEF200   [8]  0F 00 00 00 C2 09 E1 FF
 (001.749072)  can0  18F00F00   [8]  80 0F FF FF D5 9F FF FF
 (001.750118)  can0  0CF00400   [8]  60 7D 84 AA 16 00 0F 85
 (001.757700)  can0  0CF00203   [8]  C0 00 00 FF F7 67 16 03
 (001.758333)  can0  18FEDF00   [8]  84 A0 28 7D 7F FF FF F5
 (001.758950)  can0  0CF00C03   [8]  E9 03 61 16 FF FF FF FF
 (001.759474)  can0  10FCFD00   [8]  FF FF FF FF 00 32 FF FF
 (001.759997)  can0  18F00131   [8]  FF FF FF 3F 00 FF FF FF
 (001.760543)  can0  18F00503   [8]  7D 00 00 7D 4E 20 4E 43
 (001.761210)  can0  18FEF131   [8]  F3 FF FF C3 CC FF FF F0
 (001.761731)  can0  18FE4A03   [8]  03 1F 4F FF FF F3 FF FF
 (001.762455)  can0  18FEF031   [8]  FF FF FF FF FF FC CC FF
 (001.762932)  can0  18FF4831   [8]  00 00 FF FF 00 00 00 00
 (001.763477)  can0  18FEF231   [8]  FF FF FF FF FF FF FF FF
 (001.764052)  can0  18FEC100   [8]  17 A8 3B 05 F5 5F 1D 00
 (001.765393)  can0  0CF00331   [8]  FF FF FF FF FF FF FF FF
 (001.765401)  can0  0CF00300   [8]  D1 00 0E FF FF 0F 69 7E
 (001.767721)  can0  0CF00203   [8]  C0 00 00 FF F7 6B 16 03
 (001.768397)  can0  18F00100   [8]  FF FF FF FF FF FF FF FF
 (001.770223)  can0  0CF00400   [8]  00 7D 85 A1 16 00 0F 85
 (001.777705)  can0  0CF00203   [8]  C0 00 00 FF F7 6B 16 03
 (001.778333)  can0  18FEDF00   [8]  84 A0 28 7D 7F FF FF F5
 (001.778878)  can0  0CF00C03   [8]  ED 03 D4 16 FF FF FF FF
 (001.784562)  can0  0CF00300   [8]  D1 00 0E FF FF 0F 69 7E
 (001.784572)  can0  0CF00A00   [8]  84 03 74 05 FF FF FF FF
 (001.784802)  can0  18FEF000   [8]  FF FF FF A0 16 FF FF FF
 (001.785470)  can0  18F00E00   [8]  18 25 FF FF D5 9F FF FF
 (001.787879)  can0  0CF00203   [8]  C0 00 00 FF F7 69 16 03
 (001.788233)  can0  18FE5600   [8]  96 42 FF FF 1F 1F 00 FF
 (001.789660)  can0  18F03300   [8]  FF FF FF FF FF FF FF FF
 (001.790145)  can0  0CF00400   [8]  00 7D 85 9E 16 00 0F 85
 (001.793751)  can0  18FCF200   [8]  E1 FF FF FF FF FF FF FF
 (001.796986)  can0  18F0010B   [8]  CF FF F0 FF FF CD FF FF
 (001.797301)  can0  0C010305   [8]  FF FF FF FF FF F3 FF FF
 (001.798607)  can0  0CF00203   [8]  C0 00 00 FF F7 69 16 03
 (001.798614)  can0  18FEDF00   [8]  84 A0 28 7D 7F FF FF F5
 (001.799024)  can0  0CF00C03   [8]  EC 03 DA 16 FF FF FF FF
 (001.799598)  can0  18F00F00   [8]  76 0F FF FF D5 9F FF FF
 (001.803559)  can0  0CF00300   [8]  D1 00 0E FF FF 0F 6B 7E
 (001.804178)  can0  18FEF100   [8]  FF 00 00 FC FF 68 00 CF
 (001.806526)  can0  18FEBF0B   [8]  00 00 7D 7D 7D 7D FF FF
 (001.807731)  can0  0CF00203   [8]  C0 00 00 FF F7 61 16 03
 (001.808353)  can0  18FD7B00   [8]  00 FF 76 B8 00 00 66 55
 (001.809618)  can0  0CF00331   [8]  FF FF FF FF FF FF FF FF
 (001.810206)  can0  0CF00400   [8]  00 7D 85 A5 16 00 0F 85
 (001.813598)  can0  10FDA300   [8]  FF FF 13 FF FF FF FF FF
 (001.813767)  can0  18F00029   [8]  F0 7D 7D F3 29 FF FF 3C
 (001.817824)  can0  0CF00203   [8]  C0 00 00 FF F7 61 16 03
 (001.818264)  can0  18FEDF00   [8]  84 A0 28 7D 7F FF FF F5
 (001.818825)  can0  0CF00C03   [8]  EA 03 76 16 FF FF FF FF
 (001.824425)  can0  18FCDC00   [8]  9F FF FF FF 50 68 00 00
 (001.824435)  can0  0CF00300   [8]  D1 00 0E FF FF 0F 6A 7E
 (001.824753)  can0  1CFE9200   [8]  FF 3C 90 FF FF FF 00 00
 (001.828415)  can0  0CF00203   [8]  C0 00 00 FF F7 5B 16 03
 (001.830687)  can0  0CF00400   [8]  70 7D 84 A8 16 00 0F 85
 (001.833303)  can0  0CF00A00   [8]  84 03 87 05 FF FF FF FF
 (001.833920)  can0  18FD9400   [8]  30 12 FF FF FF FF FF FF
 (001.834473)  can0  18FEDD00   [8]  FF C5 0D FF FF FF FF FF
 (001.835045)  can0  18F00E00   [8]  18 25 FF FF D5 9F FF FF
 (001.837684)  can0  0CF00203   [8]  C0 00 00 FF F7 5B 16 03
 (001.838286)  can0  18F03300   [8]  FF FF FF FF FF FF FF FF
 (001.838827)  can0  0CF00C03   [8]  EB 03 76 16 FF FF FF FF
 (001.839410)  can0  18FEDF00   [8]  84 A0 28 7D 7F FF FF F5
 (001.843816)  can0  18FEE000   [8]  CC 2C 01 00 15 96 35 00
 (001.844131)  can0  0CF00300   [8]  D1 00 0E FF FF 0F 69 7E
 (001.847340)  can0  0C010305   [8]  FF FF FF FF FF F3 FF FF
 (001.847929)  can0  0CF00203   [8]  C0 00 00 FF F7 5E 16 03
 (001.848515)  can0  18FEF200   [8]  14 00 00 00 C3 09 E1 FF
 (001.849046)  can0  18F00F00   [8]  80 0F FF FF D5 9F FF FF
 (001.850762)  can0  0CF00400   [8]  70 7D 84 AC 16 00 0F 85
 (001.853728)  can0  18FEE400   [8]  FF 3F FC FC 00 7F FF FF
 (001.857796)  can0  0CF00203   [8]  C0 00 00 FF F7 5E 16 03
 (001.858355)  can0  0CF00C03   [8]  EF 03 F2 16 FF FF FF FF
 (001.858931)  can0  18FEDF00   [8]  84 A0 28 7D 7F FF FF F5
 (001.859429)  can0  18F00503   [8]  7D 00 00 7D 4E 20 4E 43
 (001.859995)  can0  10FCFD00   [8]  FF FF FF FF 00 32 FF FF
 (001.860568)  can0  18F00131   [8]  FF FF FF 3F 00 FF FF FF
 (001.861602)  can0  0CFD9200   [8]  F4 FF FA FF FF FF FF FF
 (001.861763)  can0  18FE4A03   [8]  03 1F 4F FF FF F3 FF FF
 (001.862390)  can0  18FEF131   [8]  F3 FF FF C3 CC FF FF F0
 (001.862947)  can0  18FEF031   [8]  FF FF FF FF FF FC CC FF
 (001.863546)  can0  18FF4831   [8]  00 00 FF FF 00 00 00 00
 (001.864097)  can0  0CF00300   [8]  D1 00 0E FF FF 0F 69 7E
 (001.864669)  can0  18FEF231   [8]  FF FF FF FF FF FF FF FF
 (001.865271)  can0  0CF00331   [8]  FF FF FF FF FF FF FF FF
 (001.867682)  can0  0CF00203   [8]  C0 00 00 FF F7 5D 16 03
 (001.868405)  can0  18F00100   [8]  FF FF FF FF FF FF FF FF
 (001.870311)  can0  0CF00400   [8]  70 7D 84 AC 16 00 0F 85
 (001.877741)  can0  0CF00203   [8]  C0 00 00 FF F7 5D 16 03
 (001.878308)  can0  18FEDF00   [8]  84 A0 28 7D 7F FF FF F5
 (001.878875)  can0  0CF00C03   [8]  EA 03 CD 16 FF FF FF FF
 (001.883665)  can0  0CF00300   [8]  D1 00 0E FF FF 0F 6A 7E
 (001.884252)  can0  0CF00A00   [8]  84 03 74 05 FF FF FF FF
 (001.884783)  can0  18FEF000   [8]  FF FF FF AF 16 FF FF FF
 (001.885434)  can0  18FEBD00   [8]  FA F9 FF FF FF FF FF FF
 (001.885998)  can0  18F00E00   [8]  18 25 FF FF D5 9F FF FF
 (001.888379)  can0  0CF00203   [8]  C0 00 00 FF F7 58 16 03
 (001.888388)  can0  18F03300   [8]  FF FF FF FF FF FF FF FF
 (001.890886)  can0  0CF00400   [8]  00 7D 85 AA 16 00 0F 85
 (001.893458)  can0  18FCF200   [8]  E1 FF FF FF FF FF FF FF
 (001.896707)  can0  18F0010B   [8]  CF FF F0 FF FF CD FF FF
 (001.897354)  can0  0C010305   [8]  FF FF FF FF FF F3 FF FF
 (001.897926)  can0  0CF00203   [8]  C0 00 00 FF F7 58 16 03
 (001.898501)  can0  18FEDF00   [8]  84 A0 28 7D 7F FF FF F5
 (001.899057)  can0  0CF00C03   [8]  E9 03 5B 16 FF FF FF FF
 (001.899651)  can0  18E0FF00   [8]  FA FF FF FF FF FF FF FF
 (001.900233)  can0  18F00F00   [8]  80 0F FF FF D5 9F FF FF
 (001.903813)  can0  18FD0700   [8]  43 0C FC FF FF FF FF FF
 (001.904283)  can0  0CF00300   [8]  D1 00 0E FF FF 0F 69 7E
 (001.904849)  can0  18FEF100   [8]  FF 00 00 FC FF 68 00 CF
 (001.906693)  can0  18FEBF0B   [8]  00 00 7D 7D 7D 7D FF FF
 (001.907681)  can0  0CF00203   [8]  C0 00 00 FF F7 5A 16 03
 (001.908385)  can0  18FEEE00   [8]  82 FF FF FF FF FF FF FF
 (001.909573)  can0  0CF00331   [8]  FF FF FF FF FF FF FF FF
 (001.910256)  can0  0CF00400   [8]  00 7D 85 9C 16 00 0F 85
 (001.913597)  can0  10FDA300   [8]  FF FF 13 FF FF FF FF FF
 (001.913880)  can0  18F00029   [8]  F0 7D 7D F3 29 FF FF 3C
 (001.917758)  can0  0CF00203   [8]  C0 00 00 FF F7 5A 16 03
 (001.918270)  can0  18FEDF00   [8]  84 A0 28 7D 7F FF FF F5
 (001.919035)  can0  0CF00C03   [8]  EE 03 86 16 FF FF FF FF
 (001.924576)  can0  18FCDC00   [8]  9F FF FF FF 50 68 00 00
 (001.924587)  can0  0CF00300   [8]  D1 00 0E FF FF 0F 68 7E
 (001.924763)  can0  1CFE9200   [8]  FF 00 91 FF FF FF 00 00
 (001.925601)  can0  18FEF500   [8]  A8 FF FF 3B 26 FF FF FF
 (001.927841)  can0  0CF00203   [8]  C0 00 00 FF F7 5B 16 03
 (001.930154)  can0  0CF00400   [8]  30 7D 85 87 16 00 0F 85
 (001.933278)  can0  14FC9800   [8]  FF 00 00 00 00 00 00 FF
 (001.933851)  can0  0CF00A00   [8]  84 03 87 05 FF FF FF FF
 (001.934423)  can0  18FD9400   [8]  30 12 FF FF FF FF FF FF
 (001.935027)  can0  18F00E00   [8]  18 25 FF FF D5 9F FF FF
 (001.937658)  can0  0CF00203   [8]  C0 00 00 FF F7 5B 16 03
 (001.938307)  can0  18F03300   [8]  FF FF FF FF FF FF FF FF
 (001.938880)  can0  0CF00C03   [8]  ED 03 E3 16 FF FF FF FF
 (001.939465)  can0  18FEDF00   [8]  84 A0 28 7D 7F FF FF F5
 (001.943628)  can0  18FEE000   [8]  CC 2C 01 00 15 96 35 00
 (001.944222)  can0  0CF00300   [8]  D1 00 0F FF FF 0F 69 7E
 (001.944776)  can0  18FEA400   [8]  FF FF 6E 2A FF FF 17 2D
 (001.947679)  can0  0C010305   [8]  FF FF FF FF FF F3 FF FF
 (001.947936)  can0  0CF00203   [8]  C0 00 00 FF F7 59 16 03
 (001.948619)  can0  18FDB400   [8]  A9 3D 13 40 FF FF FF FF
 (001.949049)  can0  18FEF200   [8]  15 00 00 00 C2 09 E1 FF
 (001.949606)  can0  18F00F00   [8]  80 0F FF FF D5 9F FF FF
 (001.950244)  can0  0CF00400   [8]  20 7D 85 9C 16 00 0F 85
 (001.957750)  can0  0CF00203   [8]  C0 00 00 FF F7 59 16 03
 (001.958342)  can0  0CF00C03   [8]  EA 03 97 16 FF FF FF FF
 (001.958921)  can0  18FEDF00   [8]  84 A0 28 7D 7F FF FF F5
 (001.959459)  can0  18F00503   [8]  7D 00 00 7D 4E 20 4E 43
 (001.960056)  can0  10FCFD00   [8]  FF FF FF FF 00 32 FF FF
 (001.960654)  can0  18F00131   [8]  FF FF FF 3F 00 FF FF FF
 (001.961233)  can0  18FE4A03   [8]  03 1F 4F FF FF F3 FF FF
 (001.961794)  can0  18FEF131   [8]  F3 FF FF C3 CC FF FF F0
 (001.962382)  can0  18FEF031   [8]  FF FF FF FF FF FC CC FF
 (001.962948)  can0  18FF4831   [8]  00 00 FF FF 00 00 00 00
 (001.963549)  can0  18FEF231   [8]  FF FF FF FF FF FF FF FF
 (001.964121)  can0  0CF00300   [8]  D1 00 0F FF FF 0F 6B 7E
 (001.964696)  can0  0CF00331   [8]  FF FF FF FF FF FF FF FF
 (001.967722)  can0  0CF00203   [8]  C0 00 00 FF F7 4E 16 03
 (001.968361)  can0  18FD7C00   [8]  F8 83 00 00 C3 0F 03 FF
 (001.969010)  can0  18F00100   [8]  FF FF FF FF FF FF FF FF
 (001.970288)  can0  0CF00400   [8]  10 7D 85 9E 16 00 0F 85
 (001.973211)  can0  18FDB300   [8]  FF FF F9 43 FF FF FF FF
 (001.977701)  can0  0CF00203   [8]  C0 00 00 FF F7 4E 16 03
 (001.978328)  can0  0CF00C03   [8]  E9 03 61 16 FF FF FF FF
 (001.978929)  can0  18FEDF00   [8]  84 A0 28 7D 7F FF FF F5
 (001.983843)  can0  0CF00300   [8]  D1 00 0E FF FF 0F 69 7E
 (001.984247)  can0  0CF00A00   [8]  5E 03 91 05 FF FF FF FF
 (001.984785)  can0  18FEF000   [8]  FF FF FF 9B 16 FF FF FF
 (001.985432)  can0  18F00E00   [8]  18 25 FF FF D5 9F FF FF
 (001.987901)  can0  0CF00203   [8]  C0 00 00 FF F7 4D 16 03
 (001.988324)  can0  18F03300   [8]  FF FF FF FF FF FF FF FF
 (001.989763)  can0  18FE9A00   [8]  88 27 FF FF FF FF FF FF
 (001.990199)  can0  0CF00400   [8]  10 7D 85 9D 16 00 0F 85
 (001.993750)  can0  18FDB200   [8]  FF FF FF FF 02 00 FF FF
 (001.993872)  can0  18FCF200   [8]  E1 FF FF FF FF FF FF FF
 (001.996933)  can0  18F0010B   [8]  CF FF F0 FF FF CD FF FF
 (001.997497)  can0  0C010305   [8]  FF FF FF FF FF F3 FF FF
 (001.998045)  can0  0CF00203   [8]  C0 00 00 FF F7 4D 16 03
 (001.998620)  can0  18FEDF00   [8]  84 A0 28 7D 7F FF FF F5
 (001.999199)  can0  0CF00C03   [8]  EF 03 DA 16 FF FF FF FF
 (001.999773)  can0  18F00F00   [8]  80 0F FF FF D5 9F FF FF
 (002.003818)  can0  0CF00300   [8]  D1 00 0F FF FF 0F 69 7E
 (002.004205)  can0  18FEF100   [8]  FF 00 00 FC FF 68 00 CF
 (002.006937)  can0  18FEBF0B   [8]  00 00 7D 7D 7D 7D FF FF
 (002.007726)  can0  0CF00203   [8]  C0 00 00 FF F7 4E 16 03
 (002.009606)  can0  0CF00331   [8]  FF FF FF FF FF FF FF FF
 (002.010938)  can0  0CF00400   [8]  00 7D 85 B8 16 00 0F 85
 (002.013472)  can0  10FDA300   [8]  FF FF 13 FF FF FF FF FF
 (002.013886)  can0  18FE9900   [8]  FF FF FF FF FF FF FF FF
 (002.014452)  can0  18F00029   [8]  F0 7D 7D F3 29 FF FF 3C
 (002.017723)  can0  0CF00203   [8]  C0 00 00 FF F7 4E 16 03
 (002.018322)  can0  0CF00C03   [8]  ED 03 DE 16 FF FF FF FF
 (002.019601)  can0  18FD8C00   [8]  FF FF 00 00 FF FF FF FF
 (002.019609)  can0  18FEDF00   [8]  84 A0 28 7D 7F FF FF F5
 (002.024487)  can0  18FCDC00   [8]  9F FF FF FF 50 68 00 00
 (002.024497)  can0  0CF00300   [8]  D1 00 0E FF FF 0F 69 7E
 (002.024813)  can0  1CFE9200   [8]  FF 10 91 FF FF FF 00 00
 (002.028346)  can0  0CF00203   [8]  C0 00 00 FF F7 4F 16 03
 (002.030049)  can0  0CF00400   [8]  60 7D 84 BB 16 00 0F 85
 (002.033314)  can0  0CF00A00   [8]  5E 03 9A 05 FF FF FF FF
 (002.033869)  can0  18FD9400   [8]  30 12 FF FF FF FF FF FF
 (002.034488)  can0  18FEFC00   [8]  FF FF FF FF FF FF FF FF
 (002.035040)  can0  18F00E00   [8]  18 25 FF FF D5 9F FF FF
 (002.037790)  can0  0CF00203   [8]  C0 00 00 FF F7 4F 16 03
 (002.038314)  can0  18FD2000   [8]  A6 3D FF FF FF FF FF FF
 (002.038927)  can0  0CF00C03   [8]  EA 03 80 16 FF FF FF FF
 (002.039469)  can0  18F03300   [8]  FF FF FF FF FF FF FF FF
 (002.040049)  can0  18FEDF00   [8]  84 A0 28 7D 7F FF FF F5
 (002.043772)  can0  18FEE000   [8]  CC 2C 01 00 15 96 35 00
 (002.044151)  can0  0CF00300   [8]  D1 00 0E FF FF 0F 6A 7E
 (002.047348)  can0  0C010305   [8]  FF FF FF FF FF F3 FF FF
 (002.047928)  can0  0CF00203   [8]  C0 00 00 FF F7 4F 16 03
 (002.048507)  can0  18FEF200   [8]  0F 00 00 00 C3 09 E1 FF
 (002.049082)  can0  18F00F00   [8]  76 0F FF FF D5 9F FF FF
 (002.050808)  can0  0CF00400   [8]  70 7D 84 AD 16 00 0F 85
 (002.057765)  can0  0CF00203   [8]  C0 00 00 FF F7 4F 16 03
 (002.058325)  can0  0CF00C03   [8]  EC 03 98 16 FF FF FF FF
 (002.059689)  can0  18FEDF00   [8]  84 A0 28 7D 7F FF FF F5
 (002.059696)  can0  18F00503   [8]  7D 00 00 7D 4E 20 4E 43
 (002.060003)  can0  10FCFD00   [8]  FF FF FF FF 00 32 FF FF
 (002.060576)  can0  18F00131   [8]  FF FF FF 3F 00 FF FF FF
 (002.061145)  can0  18FE4A03   [8]  03 1F 4F FF FF F3 FF FF
 (002.061717)  can0  18FEF131   [8]  F3 FF FF C3 CC FF FF F0
 (002.062304)  can0  18FEF031   [8]  FF FF FF FF FF FC CC FF
 (002.062898)  can0  18FF4831   [8]  00 00 FF FF 00 00 00 00
 (002.063492)  can0  18FEF231   [8]  FF FF FF FF FF FF FF FF
 (002.064080)  can0  18FD3E00   [8]  EC 41 FF E0 3E FF FF FF
 (002.064694)  can0  0CF00331   [8]  FF FF FF FF FF FF FF FF
 (002.065246)  can0  0CF00300   [8]  D1 00 0E FF FF 0F 6A 7E
 (002.067826)  can0  0CF00203   [8]  C0 00 00 FF F7 56 16 03
 (002.068458)  can0  18F00100   [8]  FF FF FF FF FF FF FF FF
 (002.070229)  can0  0CF00400   [8]  70 7D 84 AC 16 00 0F 85
 (002.077723)  can0  0CF00203   [8]  C0 00 00 FF F7 56 16 03
 (002.078342)  can0  18FEDF00   [8]  84 A0 28 7D 7F FF FF F5
 (002.078907)  can0  0CF00C03   [8]  EF 03 DD 16 FF FF FF FF
 (002.083730)  can0  18FD4000   [8]  FF 3F 00 FF FF FF FF FF
 (002.084323)  can0  0CF00300   [8]  D1 00 0E FF FF 0F 69 7E
 (002.084921)  can0  0CF00A00   [8]  5E 03 AD 05 FF FF FF FF
 (002.085607)  can0  18FEF000   [8]  FF FF FF B0 16 FF FF FF
 (002.086070)  can0  18F00E00   [8]  18 25 FF FF D5 9F FF FF
 (002.086687)  can0  1CECFF00   [8]  20 0E 00 02 FF CA FE 00
 (002.088052)  can0  0CF00203   [8]  C0 00 00 FF F7 5A 16 03
 (002.088322)  can0  18F03300   [8]  FF FF FF FF FF FF FF FF
 (002.090630)  can0  0CF00400   [8]  10 7D 85 93 16 00 0F 85
 (002.093250)  can0  18FCF200   [8]  E1 FF FF FF FF FF FF FF
 (002.097103)  can0  18F0010B   [8]  CF FF F0 FF FF CD FF FF
 (002.097714)  can0  0C010305   [8]  FF FF FF FF FF F3 FF FF
 (002.098246)  can0  0CF00203   [8]  C0 00 00 FF F7 5A 16 03
 (002.098838)  can0  18FEDF00   [8]  84 A0 28 7D 7F FF FF F5
 (002.099406)  can0  0CF00C03   [8]  E9 03 A1 16 FF FF FF FF
 (002.100005)  can0  18F00F00   [8]  76 0F FF FF D5 9F FF FF
 (002.103756)  can0  0CF00300   [8]  D1 00 0F FF FF 0F 6A 7E
 (002.104335)  can0  18FEF100   [8]  FF 00 00 FC FF 68 00 CF
 (002.104851)  can0  1CECFF29   [8]  20 13 00 03 FF E1 FE 00
 (002.107162)  can0  18FEBF0B   [8]  00 00 7D 7D 7D 7D FF FF
 (002.107721)  can0  0CF00203   [8]  C0 00 00 FF F7 5D 16 03
 (002.109088)  can0  18FCC500   [8]  EC 41 FF FF FF FF FF FF
 (002.109096)  can0  0CFD9200   [8]  F4 FF FA FF FF FF FF FF
 (002.109528)  can0  0CF00331   [8]  FF FF FF FF FF FF FF FF
 (002.110866)  can0  0CF00400   [8]  10 7D 85 9D 16 00 0F 85
 (002.113485)  can0  10FDA300   [8]  FF FF 13 FF FF FF FF FF
 (002.113874)  can0  18F00029   [8]  F0 7D 7D F3 29 FF FF 3C
 (002.117725)  can0  0CF00203   [8]  C0 00 00 FF F7 5D 16 03
 (002.118319)  can0  18FEDF00   [8]  84 A0 28 7D 7F FF FF F5
 (002.118927)  can0  0CF00C03   [8]  EA 03 2C 16 FF FF FF FF
 (002.124470)  can0  18FCDC00   [8]  9F FF FF FF 50 68 00 00
 (002.124479)  can0  0CF00300   [8]  D1 00 0F FF FF 0F 6B 7E
 (002.124804)  can0  1CFE9200   [8]  FF DC 90 FF FF FF 00 00
 (002.125378)  can0  18FEFF00   [8]  FC C0 FF FF FF FF FF FF
 (002.127674)  can0  0CF00203   [8]  C0 00 00 FF F7 58 16 03
 (002.130206)  can0  0CF00400   [8]  10 7D 85 98 16 00 0F 85
 (002.133727)  can0  0CF00A00   [8]  71 03 74 05 FF FF FF FF
 (002.133926)  can0  18FD9400   [8]  C9 14 FF FF FF FF FF FF
 (002.134553)  can0  18FEEF00   [8]  FF FF FF 1E 3C 7D FF FA
 (002.135002)  can0  18F00E00   [8]  18 25 FF FF D5 9F FF FF
 (002.135719)  can0  1CEBFF00   [8]  01 43 FF BF 00 09 08 54
 (002.137749)  can0  0CF00203   [8]  C0 00 00 FF F7 58 16 03
 (002.138320)  can0  0CF00C03   [8]  EC 03 AA 16 FF FF FF FF
 (002.138919)  can0  18F03300   [8]  FF FF FF FF FF FF FF FF
 (002.139492)  can0  18FEDF00   [8]  84 A0 28 7D 7F FF FF F5
 (002.143634)  can0  18FEE000   [8]  CC 2C 01 00 15 96 35 00
 (002.144198)  can0  0CF00300   [8]  D1 00 0F FF FF 0F 6B 7E
 (002.147383)  can0  0C010305   [8]  FF FF FF FF FF F3 FF FF
 (002.147956)  can0  0CF00203   [8]  C0 00 00 FF F7 57 16 03
 (002.148563)  can0  18FEF200   [8]  15 00 00 00 C2 09 E1 FF
 (002.149083)  can0  18F00F00   [8]  76 0F FF FF D5 9F FF FF
 (002.150780)  can0  0CF00400   [8]  10 7D 85 99 16 00 0F 85
 (002.153614)  can0  18FEDB00   [8]  FF FF 3D 31 FF FF FF FF
 (002.153992)  can0  1CEBFF29   [8]  01 14 01 A8 16 3C 40 51
 (002.157677)  can0  0CF00203   [8]  C0 00 00 FF F7 57 16 03
 (002.158270)  can0  0CF00C03   [8]  EB 03 EF 16 FF FF FF FF
 (002.158868)  can0  18FEDF00   [8]  84 A0 28 7D 7F FF FF F5
 (002.159413)  can0  18F00503   [8]  7D 00 00 7D 4E 20 4E 43
 (002.159998)  can0  10FCFD00   [8]  FF FF FF FF 00 32 FF FF
 (002.160568)  can0  18F00131   [8]  FF FF FF 3F 00 FF FF FF
 (002.161145)  can0  18FE4A03   [8]  03 1F 4F FF FF F3 FF FF
 (002.161768)  can0  18FEF131   [8]  F3 FF FF C3 CC FF FF F0
 (002.162341)  can0  18FEF031   [8]  FF FF FF FF FF FC CC FF
 (002.162965)  can0  18FF4831   [8]  00 00 FF FF 00 00 00 00
 (002.163577)  can0  18FEF231   [8]  FF FF FF FF FF FF FF FF
 (002.164116)  can0  0CF00300   [8]  D1 00 0F FF FF 0F 6A 7E
 (002.164724)  can0  0CF00331   [8]  FF FF FF FF FF FF FF FF
 (002.167952)  can0  0CF00203   [8]  C0 00 00 FF F7 54 16 03
 (002.168358)  can0  18F00100   [8]  FF FF FF FF FF FF FF FF
 (002.170260)  can0  0CF00400   [8]  10 7D 85 A5 16 00 0F 85
 (002.173324)  can0  18FEF600   [8]  FF 01 64 FF FF FF FF FF
 (002.177780)  can0  0CF00203   [8]  C0 00 00 FF F7 54 16 03
 (002.178276)  can0  0CF00C03   [8]  E9 03 91 16 FF FF FF FF
 (002.178926)  can0  18FEDF00   [8]  84 A0 28 7D 7F FF FF F5
 (002.183761)  can0  0CF00300   [8]  D1 00 0E FF FF 0F 69 7E
 (002.184336)  can0  0CF00A00   [8]  71 03 9A 05 FF FF FF FF
 (002.184922)  can0  18FEF000   [8]  FF FF FF 9A 16 FF FF FF
 (002.185523)  can0  18F00E00   [8]  18 25 FF FF D5 9F FF FF
 (002.187892)  can0  0CF00203   [8]  C0 00 00 FF F7 54 16 03
 (002.188277)  can0  18F03300   [8]  FF FF FF FF FF FF FF FF
 (002.190102)  can0  0CF00400   [8]  70 7D 84 B9 16 00 0F 85
 (002.190668)  can0  1CEBFF00   [8]  02 00 09 08 ED 14 1F 01
 (002.193248)  can0  18FCF200   [8]  E1 FF FF FF FF FF FF FF
 (002.197597)  can0  18F0010B   [8]  CF FF F0 FF FF CD FF FF
 (002.197914)  can0  0C010305   [8]  FF FF FF FF FF F3 FF FF
 (002.198480)  can0  0CF00203   [8]  C0 00 00 FF F7 54 16 03
 (002.199023)  can0  18FEDF00   [8]  84 A0 28 7D 7F FF FF F5
 (002.199597)  can0  0CF00C03   [8]  EB 03 6C 16 FF FF FF FF
 (002.200174)  can0  18FDC600   [8]  FC 04 FF FF FF FF FF FF
 (002.201153)  can0  18F00F00   [8]  6C 0F FF FF D5 9F FF FF
 (002.203844)  can0  0CF00300   [8]  D1 00 0E FF FF 0F 6A 7E
 (002.204259)  can0  18FEF100   [8]  FF 00 00 FC FF 68 00 CF
 (002.207323)  can0  18FEBF0B   [8]  00 00 7D 7D 7D 7D FF FF
 (002.207950)  can0  0CF00203   [8]  C0 00 00 FF F7 56 16 03
 (002.209745)  can0  0CF00331   [8]  FF FF FF FF FF FF FF FF
 (002.210207)  can0  0CF00400   [8]  60 7D 84 B7 16 00 0F 85
 (002.210815)  can0  1CEBFF29   [8]  02 2A D0 3A 33 80 4C 2C
 (002.213762)  can0  10FDA300   [8]  FF FF 13 FF FF FF FF FF
 (002.213927)  can0  18F00029   [8]  F0 7D 7D F3 29 FF FF 3C
 (002.217813)  can0  0CF00203   [8]  C0 00 00 FF F7 56 16 03
 (002.218291)  can0  0CF00C03   [8]  F0 03 E4 16 FF FF FF FF
 (002.219057)  can0  18FEDF00   [8]  84 A0 28 7D 7F FF FF F5
 (002.223608)  can0  18FCDC00   [8]  9F FF FF FF 50 68 00 00
 (002.224174)  can0  0CF00300   [8]  D1 00 0E FF FF 0F 6A 7E
 (002.224746)  can0  1CFE9200   [8]  FF FC 90 FF FF FF 00 00
 (002.227711)  can0  0CF00203   [8]  C0 00 00 FF F7 57 16 03
 (002.230970)  can0  0CF00400   [8]  70 7D 84 B2 16 00 0F 85
 (002.233391)  can0  0CF00A00   [8]  71 03 91 05 FF FF FF FF
 (002.233905)  can0  18FD9400   [8]  C9 14 FF FF FF FF FF FF
 (002.234529)  can0  18F00E00   [8]  18 25 FF FF D5 9F FF FF
 (002.237786)  can0  0CF00203   [8]  C0 00 00 FF F7 57 16 03
 (002.238275)  can0  0CF00C03   [8]  EB 03 DD 16 FF FF FF FF
 (002.238924)  can0  18F03300   [8]  FF FF FF FF FF FF FF FF
 (002.239450)  can0  18FEDF00   [8]  84 A0 28 7D 7F FF FF F5
 (002.243910)  can0  18FEE000   [8]  CC 2C 01 00 15 96 35 00
 (002.244237)  can0  0CF00300   [8]  D1 00 0E FF FF 0F 69 7E
 (002.247380)  can0  0C010305   [8]  FF FF FF FF FF F3 FF FF
 (002.247953)  can0  0CF00203   [8]  C0 00 00 FF F7 58 16 03
 (002.248531)  can0  18FEF200   [8]  15 00 00 00 C3 09 E1 FF
 (002.249160)  can0  18F00F00   [8]  6C 0F FF FF D5 9F FF FF
 (002.250608)  can0  0CF00400   [8]  00 7D 85 A0 16 00 0F 85
 (002.257674)  can0  0CF00203   [8]  C0 00 00 FF F7 58 16 03
 (002.258272)  can0  0CF00C03   [8]  EA 03 58 16 FF FF FF FF
 (002.258934)  can0  18FEDF00   [8]  84 A0 28 7D 7F FF FF F5
 (002.259487)  can0  18F00503   [8]  7D 00 00 7D 4E 20 4E 43
 (002.260047)  can0  10FCFD00   [8]  FF FF FF FF 00 32 FF FF
 (002.260619)  can0  18F00131   [8]  FF FF FF 3F 00 FF FF FF
 (002.261152)  can0  18FE4A03   [8]  03 1F 4F FF FF F3 FF FF
 (002.261769)  can0  18FEF131   [8]  F3 FF FF C3 CC FF FF F0
 (002.262351)  can0  18FEF031   [8]  FF FF FF FF FF FC CC FF
 (002.262978)  can0  18FF4831   [8]  00 00 FF FF 00 00 00 00
 (002.263552)  can0  18FEF231   [8]  FF FF FF FF FF FF FF FF
 (002.264108)  can0  0CF00300   [8]  D1 00 0E FF FF 0F 68 7E
 (002.265445)  can0  0CF00331   [8]  FF FF FF FF FF FF FF FF
 (002.266368)  can0  1CEBFF29   [8]  03 40 51 C2 01 2A FF FF
 (002.267731)  can0  0CF00203   [8]  C0 00 00 FF F7 60 16 03
 (002.268384)  can0  18F00100   [8]  FF FF FF FF FF FF FF FF
 (002.270906)  can0  0CF00400   [8]  10 7D 85 A2 16 00 0F 85
 (002.277767)  can0  0CF00203   [8]  C0 00 00 FF F7 60 16 03
 (002.278280)  can0  0CF00C03   [8]  ED 03 97 16 FF FF FF FF
 (002.279029)  can0  18FEDF00   [8]  84 A0 28 7D 7F FF FF F5
 (002.284629)  can0  0CF00300   [8]  D1 00 0E FF FF 0F 69 7E
 (002.284638)  can0  0CF00A00   [8]  8D 03 6B 05 FF FF FF FF
 (002.284932)  can0  18FEF000   [8]  FF FF FF 9E 16 FF FF FF
 (002.285528)  can0  18F00E00   [8]  18 25 FF FF D5 9F FF FF
 (002.287699)  can0  0CF00203   [8]  C0 00 00 FF F7 61 16 03
 (002.288332)  can0  18F03300   [8]  FF FF FF FF FF FF FF FF
 (002.290172)  can0  0CF00400   [8]  00 7D 85 A4 16 00 0F 85
 (002.293301)  can0  18FCF200   [8]  E1 FF FF FF FF FF FF FF
 (002.297598)  can0  0C010305   [8]  FF FF FF FF FF F3 FF FF
 (002.297930)  can0  0CF00203   [8]  C0 00 00 FF F7 61 16 03
 (002.298501)  can0  18F0010B   [8]  CF FF F0 FF FF CD FF FF
 (002.299081)  can0  0CF00C03   [8]  EF 03 E9 16 FF FF FF FF
 (002.299612)  can0  18FEDF00   [8]  84 A0 28 7D 7F FF FF F5
 (002.300259)  can0  18F00F00   [8]  6C 0F FF FF D5 9F FF FF
 (002.304220)  can0  0CF00300   [8]  D1 00 0E FF FF 0F 6A 7E
 (002.304271)  can0  18FEF100   [8]  FF 00 00 FC FF 68 00 CF
 (002.307732)  can0  18FEBF0B   [8]  00 00 7D 7D 7D 7D FF FF
 (002.308116)  can0  0CF00203   [8]  C0 00 00 FF F7 5D 16 03
 (002.309706)  can0  0CF00331   [8]  FF FF FF FF FF FF FF FF
 (002.310175)  can0  0CF00400   [8]  70 7D 84 AA 16 00 0F 85
 (002.313718)  can0  10FDA300   [8]  FF FF 13 FF FF FF FF FF
 (002.313932)  can0  18F00029   [8]  F0 7D 7D F3 29 FF FF 3C
 (002.317818)  can0  0CF00203   [8]  C0 00 00 FF F7 5D 16 03
 (002.318298)  can0  0CF00C03   [8]  E9 03 BC 16 FF FF FF FF
 (002.318960)  can0  18FEDF00   [8]  84 A0 28 7D 7F FF FF F5
 (002.323694)  can0  18FCDC00   [8]  9F FF FF FF 50 68 00 00
 (002.324294)  can0  0CF00300   [8]  D1 00 0E FF FF 0F 69 7E
 (002.324848)  can0  1CFE9200   [8]  FF 58 90 FF FF FF 00 00
 (002.327704)  can0  0CF00203   [8]  C0 00 00 FF F7 5B 16 03
 (002.330983)  can0  0CF00400   [8]  70 7D 84 A9 16 00 0F 85
 (002.333760)  can0  0CF00A00   [8]  96 03 7E 05 FF FF FF FF
 (002.333929)  can0  18FD9400   [8]  C9 14 FF FF FF FF FF FF
 (002.334489)  can0  18F00E00   [8]  18 25 FF FF D5 9F FF FF
 (002.337661)  can0  0CF00203   [8]  C0 00 00 FF F7 5B 16 03
 (002.338462)  can0  0CF00C03   [8]  E9 03 6A 16 FF FF FF FF
 (002.338876)  can0  18F03300   [8]  FF FF FF FF FF FF FF FF
 (002.339615)  can0  18FEDF00   [8]  84 A0 28 7D 7F FF FF F5
 (002.344557)  can0  18FEE000   [8]  CC 2C 01 00 15 96 35 00
 (002.344568)  can0  0CF00300   [8]  D1 00 0E FF FF 0F 68 7E
 (002.347706)  can0  0C010305   [8]  FF FF FF FF FF F3 FF FF
 (002.347953)  can0  0CF00203   [8]  C0 00 00 FF F7 61 16 03
 (002.348569)  can0  18FEF200   [8]  10 00 00 00 C2 09 E1 FF
 (002.349045)  can0  18F00F00   [8]  6C 0F FF FF D5 9F FF FF
 (002.350586)  can0  0CF00400   [8]  60 7D 84 B5 16 00 0F 85
 (002.357741)  can0  0CF00203   [8]  C0 00 00 FF F7 61 16 03
 (002.358348)  can0  0CF00C03   [8]  EF 03 E0 16 FF FF FF FF
 (002.358929)  can0  18FEDF00   [8]  84 A0 28 7D 7F FF FF F5
 (002.359475)  can0  18F00503   [8]  7D 00 00 7D 4E 20 4E 43
 (002.360089)  can0  10FCFD00   [8]  FF FF FF FF 00 32 FF FF
 (002.360644)  can0  18F00131   [8]  FF FF FF 3F 00 FF FF FF
 (002.361251)  can0  0CFD9200   [8]  F4 FF FA FF FF FF FF FF
 (002.361796)  can0  18FE4A03   [8]  03 1F 4F FF FF F3 FF FF
 (002.362408)  can0  18FEF131   [8]  F3 FF FF C3 CC FF FF F0
 (002.362981)  can0  18FD9503   [8]  CC FF FF AF FF FF FF FF
