 (000.000000)  can0  0CF00331   [8]  FF FF FF FF FF FF FF FF
 (000.002839)  can0  0CF00300   [8]  D1 00 0B FF FF 0F 66 7E
 (000.003410)  can0  18FEF100   [8]  FF 00 00 FC FF 68 00 CF
 (000.003993)  can0  0CF00203   [8]  C0 00 00 FF F7 58 16 03
 (000.004588)  can0  0CF00C03   [8]  E9 03 75 16 FF FF FF FF
 (000.010375)  can0  0CF00400   [8]  30 7D 83 A7 16 00 0F 83
 (000.012323)  can0  10FDA300   [8]  FF FF 14 FF FF FF FF FF
 (000.012915)  can0  18F00029   [8]  F0 7D 7D F3 29 FF FF 3C
 (000.013511)  can0  0C010305   [8]  FF FF FF FF FF F3 FF FF
 (000.014064)  can0  0CF00203   [8]  C0 00 00 FF F7 55 16 03
 (000.017364)  can0  18FEDF00   [8]  84 A0 28 7D 7D FF FF F5
 (000.022694)  can0  18FCDC00   [8]  9F FF FF FF 50 68 00 00
 (000.023256)  can0  0CF00300   [8]  D1 00 0B FF FF 0F 64 7E
 (000.023816)  can0  0CF00203   [8]  C0 00 00 FF F7 55 16 03
 (000.024403)  can0  1CFE9200   [8]  FF 0C 8F FF FF FF 00 00
 (000.024955)  can0  0CF00C03   [8]  EE 03 DB 16 FF FF FF FF
 (000.029981)  can0  0CF00400   [8]  20 7D 83 B3 16 00 0F 83
 (000.032354)  can0  14FC9800   [8]  FF 00 00 00 00 00 00 FF
 (000.032936)  can0  0CF00A00   [8]  EE 02 27 06 FF FF FF FF
 (000.033490)  can0  18FD9400   [8]  30 12 FF FF FF FF FF FF
 (000.034077)  can0  0CF00203   [8]  C0 00 00 FF F7 53 16 03
 (000.034692)  can0  18F00E00   [8]  5A 27 FF FF D5 9F FF FF
 (000.035960)  can0  18FECA31   [8]  00 FF 00 00 00 00 FF FF
 (000.036599)  can0  18F11031   [8]  00 00 FF FF FF FF FF FF
 (000.038096)  can0  18F03300   [8]  FF FF FF FF FF FF FF FF
 (000.038137)  can0  18FEDF00   [8]  84 A0 28 7D 7D FF FF F5
 (000.043176)  can0  18FEE000   [8]  00 00 00 00 15 96 35 00
 (000.043214)  can0  0CF00300   [8]  D1 00 0B FF FF 0F 64 7E
 (000.043784)  can0  0CF00203   [8]  C0 00 00 FF F7 53 16 03
 (000.044441)  can0  0CF00C03   [8]  ED 03 D8 16 FF FF FF FF
 (000.046040)  can0  0CF00331   [8]  FF FF FF FF FF FF FF FF
 (000.047657)  can0  18FDB400   [8]  16 36 19 37 FF FF FF FF
 (000.047886)  can0  18FEF200   [8]  0D 00 00 00 00 00 E1 FF
 (000.048651)  can0  18F00F00   [8]  38 10 FF FF D5 9F FF FF
 (000.049384)  can0  0CF00400   [8]  00 7D 83 BD 16 00 0F 83
 (000.053654)  can0  0CF00203   [8]  C0 00 00 FF F7 54 16 03
 (000.057415)  can0  18FEDF00   [8]  84 A0 28 7D 7D FF FF F5
 (000.058017)  can0  10FCFD00   [8]  FF FF FF FF 00 32 FF FF
 (000.061300)  can0  18F0010B   [8]  CF FF F0 FF FF CD FF FF
 (000.062753)  can0  0CF00300   [8]  D1 00 0B FF FF 0F 64 7E
 (000.063336)  can0  0C010305   [8]  FF FF FF FF FF F3 FF FF
 (000.063857)  can0  0CF00203   [8]  C0 00 00 FF F7 54 16 03
 (000.064481)  can0  0CF00C03   [8]  E9 03 89 16 FF FF FF FF
 (000.067440)  can0  18F00100   [8]  FF FF FF FF FF FF FF FF
 (000.069235)  can0  0CF00400   [8]  10 7D 83 B1 16 00 0F 83
 (000.071989)  can0  18FEBF0B   [8]  00 00 7D 7D 7D 7D FF FF
 (000.072357)  can0  18FDB300   [8]  FF FF 50 39 FF FF FF FF
 (000.074030)  can0  0CF00203   [8]  C0 00 00 FF F7 5B 16 03
 (000.077387)  can0  18FEDF00   [8]  84 A0 28 7D 7D FF FF F5
 (000.082790)  can0  0CF00300   [8]  D1 00 0B FF FF 0F 65 7E
 (000.083325)  can0  0CF00A00   [8]  EE 02 14 06 FF FF FF FF
 (000.083906)  can0  0CF00203   [8]  C0 00 00 FF F7 5B 16 03
 (000.084477)  can0  18FEF000   [8]  FF FF FF B7 16 FF FF FF
 (000.085025)  can0  0CF00C03   [8]  EB 03 9C 16 FF FF FF FF
 (000.085609)  can0  18F00E00   [8]  5A 27 FF FF D5 9F FF FF
 (000.086152)  can0  18F00503   [8]  7D 00 00 7D 4E 20 4E 43
 (000.086978)  can0  18FE4A03   [8]  03 1F 4F FF FF F3 FF FF
 (000.087576)  can0  18F03300   [8]  FF FF FF FF FF FF FF FF
 (000.089373)  can0  0CF00400   [8]  20 7D 83 B0 16 00 0F 83
 (000.092342)  can0  18FDB200   [8]  FF FF FF FF 02 00 FF FF
 (000.092914)  can0  18FCF200   [8]  E1 FF FF FF FF FF FF FF
 (000.093652)  can0  0CF00203   [8]  C0 00 00 FF F7 61 16 03
 (000.095521)  can0  18F00131   [8]  FF FF FF 3F 00 FF FF FF
 (000.096065)  can0  18FEF131   [8]  F3 FF FF C3 CC FF FF F0
 (000.096651)  can0  18FEF031   [8]  FF FF FF FF FF FC CC FF
 (000.097279)  can0  18FF4831   [8]  00 00 FF FF 00 00 00 00
 (000.097838)  can0  18FEDF00   [8]  84 A0 28 7D 7D FF FF F5
 (000.098426)  can0  18FEF231   [8]  FF FF FF FF FF FF FF FF
 (000.098981)  can0  18F00F00   [8]  38 10 FF FF D5 9F FF FF
 (000.099577)  can0  0CF00331   [8]  FF FF FF FF FF FF FF FF
 (000.102934)  can0  0CF00300   [8]  D1 00 0B FF FF 0F 64 7E
 (000.103409)  can0  18FEF100   [8]  FF 00 00 FC FF 68 00 CF
 (000.103940)  can0  0CF00203   [8]  C0 00 00 FF F7 61 16 03
 (000.104585)  can0  0CF00C03   [8]  EE 03 D3 16 FF FF FF FF
 (000.110052)  can0  0CF00400   [8]  20 7D 83 99 16 00 0F 83
 (000.112373)  can0  10FDA300   [8]  FF FF 14 FF FF FF FF FF
 (000.112897)  can0  18F00029   [8]  F0 7D 7D F3 29 FF FF 3C
 (000.113522)  can0  0C010305   [8]  FF FF FF FF FF F3 FF FF
 (000.114039)  can0  0CF00203   [8]  C0 00 00 FF F7 5F 16 03
 (000.117430)  can0  18FD8C00   [8]  FF FF 01 00 FF FF FF FF
 (000.117980)  can0  18FEDF00   [8]  84 A0 28 7D 7D FF FF F5
 (000.122738)  can0  18FCDC00   [8]  9F FF FF FF 50 68 00 00
 (000.123307)  can0  0CF00300   [8]  D1 00 0B FF FF 0F 64 7E
 (000.123866)  can0  0CF00203   [8]  C0 00 00 FF F7 5F 16 03
 (000.124494)  can0  1CFE9200   [8]  FF 20 8F FF FF FF 00 00
 (000.125025)  can0  0CF00C03   [8]  E9 03 9E 16 FF FF FF FF
 (000.129215)  can0  0CF00400   [8]  40 7D 83 99 16 00 0F 84
 (000.133242)  can0  0CF00A00   [8]  0A 03 01 06 FF FF FF FF
 (000.133251)  can0  18FD9400   [8]  30 12 FF FF FF FF FF FF
 (000.133571)  can0  18F00E00   [8]  5A 27 FF FF D5 9F FF FF
 (000.134175)  can0  0CF00203   [8]  C0 00 00 FF F7 5D 16 03
 (000.138036)  can0  18FD2000   [8]  16 36 FF FF FF FF FF FF
 (000.138046)  can0  18F03300   [8]  FF FF FF FF FF FF FF FF
 (000.138529)  can0  18FEDF00   [8]  84 A0 28 7D 7D FF FF F5
 (000.142909)  can0  18FEE000   [8]  00 00 00 00 15 96 35 00
 (000.143275)  can0  0CF00300   [8]  D1 00 0C FF FF 0F 65 7E
 (000.143837)  can0  0CF00203   [8]  C0 00 00 FF F7 5D 16 03
 (000.144485)  can0  0CF00C03   [8]  EA 03 58 16 FF FF FF FF
 (000.145519)  can0  0CF00331   [8]  FF FF FF FF FF FF FF FF
 (000.147427)  can0  18FEF200   [8]  12 00 00 00 00 00 E1 FF
 (000.148003)  can0  18F00F00   [8]  42 10 FF FF D5 9F FF FF
 (000.149303)  can0  0CF00400   [8]  30 7D 83 9F 16 00 0F 83
 (000.153674)  can0  0CF00203   [8]  C0 00 00 FF F7 5C 16 03
 (000.158020)  can0  18FEDF00   [8]  84 A0 28 7D 7D FF FF F5
 (000.158029)  can0  10FCFD00   [8]  FF FF FF FF 00 32 FF FF
 (000.162215)  can0  18F0010B   [8]  CF FF F0 FF FF CD FF FF
 (000.162751)  can0  18FD3E00   [8]  B9 3B FF B6 3E FF FF FF
 (000.163400)  can0  0C010305   [8]  FF FF FF FF FF F3 FF FF
 (000.163945)  can0  0CF00203   [8]  C0 00 00 FF F7 5C 16 03
 (000.164507)  can0  0CF00300   [8]  D1 00 0B FF FF 0F 66 7E
 (000.165064)  can0  0CF00C03   [8]  EC 03 BF 16 FF FF FF FF
 (000.167554)  can0  18F00100   [8]  FF FF FF FF FF FF FF FF
 (000.169949)  can0  0CF00400   [8]  20 7D 83 A5 16 00 0F 83
 (000.172076)  can0  18FEBF0B   [8]  00 00 7D 7D 7D 7D FF FF
 (000.173842)  can0  0CF00203   [8]  C0 00 00 FF F7 5C 16 03
 (000.177988)  can0  18FEDF00   [8]  84 A0 28 7D 7D FF FF F5
 (000.182732)  can0  18FD4000   [8]  FF 3F 00 FF FF FF FF FF
 (000.183308)  can0  0CF00300   [8]  D1 00 0B FF FF 0F 64 7E
 (000.183875)  can0  0CF00203   [8]  C0 00 00 FF F7 5C 16 03
 (000.184481)  can0  0CF00A00   [8]  13 03 EE 05 FF FF FF FF
 (000.185029)  can0  0CF00C03   [8]  ED 03 EA 16 FF FF FF FF
 (000.185605)  can0  18FEF000   [8]  FF FF FF A3 16 FF FF FF
 (000.186157)  can0  18F00503   [8]  7D 00 00 7D 4E 20 4E 43
 (000.186707)  can0  18F00E00   [8]  4E 27 FF FF D5 9F FF FF
 (000.187275)  can0  18FE4A03   [8]  03 1F 4F FF FF F3 FF FF
 (000.187907)  can0  18F03300   [8]  FF FF FF FF FF FF FF FF
 (000.189316)  can0  0CF00400   [8]  10 7D 83 A8 16 00 0F 83
 (000.192417)  can0  18FCF200   [8]  E1 FF FF FF FF FF FF FF
 (000.193638)  can0  0CF00203   [8]  C0 00 00 FF F7 55 16 03
 (000.195721)  can0  18F00131   [8]  FF FF FF 3F 00 FF FF FF
 (000.196094)  can0  18E0FF31   [8]  00 FF FF FF FF F0 FF FF
 (000.196666)  can0  18FEF131   [8]  F3 FF FF C3 CC FF FF F0
 (000.197362)  can0  18FEF031   [8]  FF FF FF FF FF FC CC FF
 (000.197867)  can0  18FEDF00   [8]  84 A0 28 7D 7D FF FF F5
 (000.198428)  can0  18FEFC31   [8]  FF 74 FF FF FF FF 00 FF
 (000.198990)  can0  18F00F00   [8]  42 10 FF FF D5 9F FF FF
 (000.199560)  can0  18FEAE31   [8]  FF FF 6A 6A FF FF FF FF
 (000.200184)  can0  18FEF731   [8]  FF FF FF FF 1A 01 FF FF
 (000.200744)  can0  18FF4831   [8]  00 00 FF FF 00 00 00 00
 (000.201377)  can0  18FD8331   [8]  F8 FF FF FF FF FF FF FF
 (000.201972)  can0  18FEF831   [8]  FF FF FF FF FF FF FF FF
 (000.202572)  can0  18FEF231   [8]  FF FF FF FF FF FF FF FF
 (000.203114)  can0  0CF00300   [8]  D1 00 0B FF FF 0F 63 7E
 (000.203717)  can0  18FEFA31   [8]  FF D3 D4 FF FF FF FF FF
 (000.204218)  can0  0CF00203   [8]  C0 00 00 FF F7 55 16 03
 (000.204787)  can0  18FEC131   [8]  2F 42 67 06 FF FF FF FF
 (000.205395)  can0  0CF00C03   [8]  E9 03 94 16 FF FF FF FF
 (000.205955)  can0  0CF00331   [8]  FF FF FF FF FF FF FF FF
 (000.206483)  can0  18FEF100   [8]  FF 00 00 FC FF 68 00 CF
 (000.207866)  can0  18FCC500   [8]  B9 3B FF FF FF FF FF FF
 (000.208101)  can0  0CFD9200   [8]  F4 FF FA FF FF FF FF FF
 (000.209502)  can0  0CF00400   [8]  10 7D 83 BA 16 00 0F 83
 (000.212382)  can0  10FDA300   [8]  FF FF 14 FF FF FF FF FF
 (000.212928)  can0  18F00029   [8]  F0 7D 7D F3 29 FF FF 3C
 (000.213531)  can0  0C010305   [8]  FF FF FF FF FF F3 FF FF
 (000.214075)  can0  0CF00203   [8]  C0 00 00 FF F7 55 16 03
 (000.217430)  can0  18FEDF00   [8]  84 A0 28 7D 7D FF FF F5
 (000.222899)  can0  18FCDC00   [8]  9F FF FF FF 50 68 00 00
 (000.223286)  can0  0CF00300   [8]  D1 00 0B FF FF 0F 64 7E
 (000.223827)  can0  0CF00203   [8]  C0 00 00 FF F7 55 16 03
 (000.224412)  can0  1CFE9200   [8]  FF A0 8E FF FF FF 00 00
 (000.224984)  can0  0CF00C03   [8]  EA 03 7E 16 FF FF FF FF
 (000.229905)  can0  0CF00400   [8]  70 7D 82 C1 16 00 0F 83
 (000.232503)  can0  0CF00A00   [8]  13 03 EE 05 FF FF FF FF
 (000.233002)  can0  18FD9400   [8]  30 12 FF FF FF FF FF FF
 (000.233557)  can0  18FEEF00   [8]  FF FF FF 1E 36 7D FF FA
 (000.234148)  can0  0CF00203   [8]  C0 00 00 FF F7 5B 16 03
 (000.234670)  can0  18F00E00   [8]  4E 27 FF FF D5 9F FF FF
 (000.237889)  can0  18F03300   [8]  FF FF FF FF FF FF FF FF
 (000.237932)  can0  18FEDF00   [8]  84 A0 28 7D 7D FF FF F5
 (000.243594)  can0  18FEE000   [8]  00 00 00 00 15 96 35 00
 (000.243603)  can0  0CF00300   [8]  D1 00 0A FF FF 0F 65 7E
 (000.243864)  can0  0CF00203   [8]  C0 00 00 FF F7 5B 16 03
 (000.244477)  can0  0CF00C03   [8]  EF 03 E7 16 FF FF FF FF
 (000.245478)  can0  0CF00331   [8]  FF FF FF FF FF FF FF FF
 (000.247386)  can0  18FEF200   [8]  12 00 00 00 00 00 E1 FF
 (000.247969)  can0  18F00F00   [8]  42 10 FF FF D5 9F FF FF
 (000.249333)  can0  0CF00400   [8]  00 7D 83 B3 16 00 0F 83
 (000.252384)  can0  18FEDB00   [8]  FF FF F4 31 FF FF FF FF
 (000.253641)  can0  0CF00203   [8]  C0 00 00 FF F7 62 16 03
 (000.257419)  can0  18FEDF00   [8]  84 A0 28 7D 7D FF FF F5
 (000.258017)  can0  10FCFD00   [8]  FF FF FF FF 00 32 FF FF
 (000.262276)  can0  18F0010B   [8]  CF FF F0 FF FF CD FF FF
 (000.262752)  can0  0CF00300   [8]  D1 00 0A FF FF 0F 64 7E
 (000.263384)  can0  0C010305   [8]  FF FF FF FF FF F3 FF FF
 (000.263891)  can0  0CF00203   [8]  C0 00 00 FF F7 62 16 03
 (000.264605)  can0  0CF00C03   [8]  EC 03 CD 16 FF FF FF FF
 (000.267883)  can0  18F00100   [8]  FF FF FF FF FF FF FF FF
 (000.269473)  can0  0CF00400   [8]  20 7D 83 9B 16 00 0F 83
 (000.271973)  can0  18FEBF0B   [8]  00 00 7D 7D 7D 7D FF FF
 (000.272378)  can0  18FEF600   [8]  FF 01 65 FF FF FF FF FF
 (000.273945)  can0  0CF00203   [8]  C0 00 00 FF F7 61 16 03
 (000.277479)  can0  18FEDF00   [8]  84 A0 28 7D 7D FF FF F5
 (000.282779)  can0  0CF00300   [8]  D1 00 0B FF FF 0F 64 7E
 (000.283379)  can0  0CF00A00   [8]  13 03 01 06 FF FF FF FF
 (000.283913)  can0  0CF00203   [8]  C0 00 00 FF F7 61 16 03
 (000.284509)  can0  18FEF000   [8]  FF FF FF A8 16 FF FF FF
 (000.285062)  can0  0CF00C03   [8]  EA 03 52 16 FF FF FF FF
 (000.285632)  can0  18F00E00   [8]  4E 27 FF FF D5 9F FF FF
 (000.286182)  can0  18F00503   [8]  7D 00 00 7D 4E 20 4E 43
 (000.287700)  can0  18FE4A03   [8]  03 1F 4F FF FF F3 FF FF
 (000.287709)  can0  18F03300   [8]  FF FF FF FF FF FF FF FF
 (000.289264)  can0  0CF00400   [8]  40 7D 83 98 16 00 0F 83
 (000.292551)  can0  18FCF200   [8]  E1 FF FF FF FF FF FF FF
 (000.293678)  can0  0CF00203   [8]  C0 00 00 FF F7 60 16 03
 (000.295545)  can0  18F00131   [8]  FF FF FF 3F 00 FF FF FF
 (000.296081)  can0  18FEF131   [8]  F3 FF FF C3 CC FF FF F0
 (000.296695)  can0  18FEF031   [8]  FF FF FF FF FF FC CC FF
 (000.297300)  can0  18FF4831   [8]  00 00 FF FF 00 00 00 00
 (000.297866)  can0  18FEDF00   [8]  84 A0 28 7D 7D FF FF F5
 (000.298447)  can0  18FEF231   [8]  FF FF FF FF FF FF FF FF
 (000.299084)  can0  18FDC600   [8]  FC 04 FF FF FF FF FF FF
 (000.299571)  can0  0CF00331   [8]  FF FF FF FF FF FF FF FF
 (000.300939)  can0  18F00F00   [8]  42 10 FF FF D5 9F FF FF
 (000.303190)  can0  0CF00300   [8]  D1 00 0C FF FF 0F 65 7E
 (000.303406)  can0  18FEF100   [8]  FF 00 00 FC FF 68 00 CF
 (000.303932)  can0  0CF00203   [8]  C0 00 00 FF F7 60 16 03
 (000.304550)  can0  0CF00C03   [8]  EB 03 77 16 FF FF FF FF
 (000.309281)  can0  0CF00400   [8]  20 7D 83 9F 16 00 0F 83
 (000.312346)  can0  10FDA300   [8]  FF FF 14 FF FF FF FF FF
 (000.312941)  can0  18F00029   [8]  F0 7D 7D F3 29 FF FF 3C
 (000.313505)  can0  0C010305   [8]  FF FF FF FF FF F3 FF FF
 (000.314080)  can0  0CF00203   [8]  C0 00 00 FF F7 5F 16 03
 (000.317436)  can0  18FEDF00   [8]  84 A0 28 7D 7D FF FF F5
 (000.322791)  can0  18FCDC00   [8]  9F FF FF FF 50 68 00 00
 (000.323324)  can0  0CF00300   [8]  D1 00 0B FF FF 0F 66 7E
 (000.323938)  can0  0CF00203   [8]  C0 00 00 FF F7 5F 16 03
 (000.324503)  can0  1CFE9200   [8]  FF FC 8D FF FF FF 00 00
 (000.325049)  can0  0CF00C03   [8]  EE 03 E0 16 FF FF FF FF
 (000.329842)  can0  0CF00400   [8]  20 7D 83 A8 16 00 0F 83
 (000.333186)  can0  0CF00A00   [8]  2F 03 C9 05 FF FF FF FF
 (000.333195)  can0  18FD9400   [8]  30 12 FF FF FF FF FF FF
 (000.333603)  can0  18F00E00   [8]  4E 27 FF FF D5 9F FF FF
 (000.334178)  can0  0CF00203   [8]  C0 00 00 FF F7 5E 16 03
 (000.338150)  can0  18F03300   [8]  FF FF FF FF FF FF FF FF
 (000.338160)  can0  18FEDF00   [8]  84 A0 28 7D 7D FF FF F5
 (000.342697)  can0  18FEF700   [8]  FF FF FF FF 19 01 FF FF
 (000.343254)  can0  18FEE000   [8]  00 00 00 00 15 96 35 00
 (000.343831)  can0  0CF00203   [8]  C0 00 00 FF F7 5E 16 03
 (000.344404)  can0  0CF00300   [8]  D1 00 0B FF FF 0F 65 7E
 (000.344969)  can0  0CF00C03   [8]  E9 03 CF 16 FF FF FF FF
 (000.345534)  can0  0CF00331   [8]  FF FF FF FF FF FF FF FF
 (000.347506)  can0  18FEF200   [8]  0D 00 00 00 00 00 E1 FF
 (000.348081)  can0  18F00F00   [8]  38 10 FF FF D5 9F FF FF
 (000.349340)  can0  0CF00400   [8]  00 7D 83 B2 16 00 0F 83
 (000.354082)  can0  0CF00203   [8]  C0 00 00 FF F7 57 16 03
 (000.357443)  can0  18FEDF00   [8]  84 A0 28 7D 7D FF FF F5
 (000.358037)  can0  10FCFD00   [8]  FF FF FF FF 00 32 FF FF
 (000.362285)  can0  18F0010B   [8]  CF FF F0 FF FF CD FF FF
 (000.362787)  can0  18FEC100   [8]  17 A8 3B 05 00 00 00 00
 (000.363426)  can0  0C010305   [8]  FF FF FF FF FF F3 FF FF
 (000.363906)  can0  0CF00203   [8]  C0 00 00 FF F7 57 16 03
 (000.364450)  can0  0CF00300   [8]  D1 00 0B FF FF 0F 64 7E
 (000.365185)  can0  0CF00C03   [8]  E9 03 80 16 FF FF FF FF
 (000.367673)  can0  18F00100   [8]  FF FF FF FF FF FF FF FF
 (000.370165)  can0  0CF00400   [8]  00 7D 83 C1 16 00 0F 83
 (000.372086)  can0  18FEBF0B   [8]  00 00 7D 7D 7D 7D FF FF
 (000.373733)  can0  0CF00203   [8]  C0 00 00 FF F7 58 16 03
 (000.377495)  can0  18FEDF00   [8]  84 A0 28 7D 7D FF FF F5
 (000.382736)  can0  0CF00300   [8]  D1 00 0A FF FF 0F 64 7E
 (000.383321)  can0  0CF00A00   [8]  2F 03 E5 05 FF FF FF FF
 (000.383899)  can0  0CF00203   [8]  C0 00 00 FF F7 58 16 03
 (000.384489)  can0  18FEF000   [8]  FF FF FF B7 16 FF FF FF
 (000.385016)  can0  0CF00C03   [8]  EF 03 C7 16 FF FF FF FF
 (000.385588)  can0  18F00E00   [8]  4E 27 FF FF D5 9F FF FF
 (000.386167)  can0  18F00503   [8]  7D 00 00 7D 4E 20 4E 43
 (000.387583)  can0  18FE4A03   [8]  03 1F 4F FF FF F3 FF FF
 (000.387591)  can0  18FE5600   [8]  97 42 FF FF 1F 1F 00 FF
 (000.388229)  can0  18F03300   [8]  FF FF FF FF FF FF FF FF
 (000.389333)  can0  0CF00400   [8]  70 7D 82 C4 16 00 0F 83
 (000.392525)  can0  18FCF200   [8]  E1 FF FF FF FF FF FF FF
 (000.393671)  can0  0CF00203   [8]  C0 00 00 FF F7 5D 16 03
 (000.395568)  can0  18F00131   [8]  FF FF FF 3F 00 FF FF FF
 (000.396078)  can0  18FEF131   [8]  F3 FF FF C3 CC FF FF F0
 (000.396706)  can0  18FEF031   [8]  FF FF FF FF FF FC CC FF
 (000.397311)  can0  18FF4831   [8]  00 00 FF FF 00 00 00 00
 (000.397835)  can0  18FEDF00   [8]  84 A0 28 7D 7D FF FF F5
 (000.398468)  can0  18FEF231   [8]  FF FF FF FF FF FF FF FF
 (000.399032)  can0  18F00F00   [8]  38 10 FF FF D5 9F FF FF
 (000.399972)  can0  0CF00331   [8]  FF FF FF FF FF FF FF FF
 (000.402955)  can0  0CF00300   [8]  D1 00 0A FF FF 0F 65 7E
 (000.403519)  can0  18FEF100   [8]  FF 00 00 FC FF 68 00 CF
 (000.404022)  can0  0CF00203   [8]  C0 00 00 FF F7 5D 16 03
 (000.405343)  can0  0CF00C03   [8]  EE 03 E9 16 FF FF FF FF
 (000.407404)  can0  18FD7B00   [8]  00 FF 4C BA 00 00 3F 56
 (000.409302)  can0  0CF00400   [8]  70 7D 82 BB 16 00 0F 83
 (000.412360)  can0  10FDA300   [8]  FF FF 15 FF FF FF FF FF
 (000.412914)  can0  18F00029   [8]  F0 7D 7D F3 29 FF FF 3C
 (000.413501)  can0  0C010305   [8]  FF FF FF FF FF F3 FF FF
 (000.414075)  can0  0CF00203   [8]  C0 00 00 FF F7 63 16 03
 (000.417485)  can0  18FEDF00   [8]  84 A0 28 7D 7D FF FF F5
 (000.422974)  can0  18FCDC00   [8]  9F FF FF FF 50 68 00 00
 (000.423257)  can0  0CF00300   [8]  D1 00 0A FF FF 0F 64 7E
 (000.423864)  can0  0CF00203   [8]  C0 00 00 FF F7 63 16 03
 (000.424436)  can0  1CFE9200   [8]  FF 38 8E FF FF FF 00 00
 (000.424987)  can0  0CF00C03   [8]  E9 03 9D 16 FF FF FF FF
 (000.429900)  can0  0CF00400   [8]  00 7D 83 AB 16 00 0F 83
 (000.433204)  can0  0CF00A00   [8]  2F 03 E5 05 FF FF FF FF
 (000.433213)  can0  18FD9400   [8]  30 12 FF FF FF FF FF FF
 (000.433592)  can0  18FEDD00   [8]  FF CB 0E FF FF FF FF FF
 (000.434962)  can0  0CF00203   [8]  C0 00 00 FF F7 65 16 03
 (000.434971)  can0  18F00E00   [8]  4E 27 FF FF D5 9F FF FF
 (000.437952)  can0  18F03300   [8]  FF FF FF FF FF FF FF FF
 (000.437961)  can0  18FEDF00   [8]  84 A0 28 7D 7D FF FF F5
 (000.442729)  can0  18FEE000   [8]  00 00 00 00 15 96 35 00
 (000.443308)  can0  0CF00300   [8]  D1 00 0A FF FF 0F 64 7E
 (000.443826)  can0  0CF00203   [8]  C0 00 00 FF F7 65 16 03
 (000.444470)  can0  0CF00C03   [8]  E9 03 75 16 FF FF FF FF
 (000.445485)  can0  0CF00331   [8]  FF FF FF FF FF FF FF FF
 (000.447429)  can0  18FEF200   [8]  11 00 00 00 00 00 E1 FF
 (000.448003)  can0  18F00F00   [8]  38 10 FF FF D5 9F FF FF
 (000.449328)  can0  0CF00400   [8]  20 7D 83 95 16 00 0F 83
 (000.452557)  can0  18FEE400   [8]  FF 3F FC FC 00 7F FF FF
 (000.454080)  can0  0CF00203   [8]  C0 00 00 FF F7 66 16 03
 (000.457511)  can0  18FEDF00   [8]  84 A0 28 7D 7D FF FF F5
 (000.458107)  can0  10FCFD00   [8]  FF FF FF FF 00 32 FF FF
 (000.458753)  can0  0CFD9200   [8]  F4 FF FA FF FF FF FF FF
 (000.462327)  can0  18F0010B   [8]  CF FF F0 FF FF CD FF FF
 (000.462780)  can0  0CF00300   [8]  D1 00 0B FF FF 0F 64 7E
 (000.463436)  can0  0C010305   [8]  FF FF FF FF FF F3 FF FF
 (000.463887)  can0  0CF00203   [8]  C0 00 00 FF F7 66 16 03
 (000.464649)  can0  0CF00C03   [8]  ED 03 CD 16 FF FF FF FF
 (000.467934)  can0  18F00100   [8]  FF FF FF FF FF FF FF FF
 (000.469557)  can0  0CF00400   [8]  20 7D 83 A6 16 00 0F 83
 (000.472152)  can0  18FEBF0B   [8]  00 00 7D 7D 7D 7D FF FF
 (000.473655)  can0  0CF00203   [8]  C0 00 00 FF F7 65 16 03
 (000.477470)  can0  18FEDF00   [8]  84 A0 28 7D 7D FF FF F5
 (000.482789)  can0  0CF00300   [8]  D1 00 0B FF FF 0F 65 7E
 (000.483375)  can0  0CF00A00   [8]  26 03 D2 05 FF FF FF FF
 (000.483885)  can0  0CF00203   [8]  C0 00 00 FF F7 65 16 03
 (000.484534)  can0  18FEF000   [8]  FF FF FF 9F 16 FF FF FF
 (000.485100)  can0  0CF00C03   [8]  EA 03 C2 16 FF FF FF FF
 (000.485737)  can0  18FEBD00   [8]  00 F0 FF FF FF FF FF FF
 (000.486246)  can0  18F00503   [8]  7D 00 00 7D 4E 20 4E 43
 (000.486800)  can0  18F00E00   [8]  42 27 FF FF D5 9F FF FF
 (000.487415)  can0  18FE4A03   [8]  03 1F 4F FF FF F3 FF FF
 (000.487986)  can0  18F03300   [8]  FF FF FF FF FF FF FF FF
 (000.489334)  can0  0CF00400   [8]  10 7D 83 AF 16 00 0F 83
 (000.492515)  can0  18FCF200   [8]  E1 FF FF FF FF FF FF FF
 (000.493628)  can0  0CF00203   [8]  C0 00 00 FF F7 61 16 03
 (000.496006)  can0  18F00131   [8]  FF FF FF 3F 00 FF FF FF
 (000.496014)  can0  18FEF131   [8]  F3 FF FF C3 CC FF FF F0
 (000.497386)  can0  18FEF031   [8]  FF FF FF FF FF FC CC FF
 (000.497394)  can0  18FF4831   [8]  00 00 FF FF 00 00 00 00
 (000.497838)  can0  18FEDF00   [8]  84 A0 28 7D 7D FF FF F5
 (000.498441)  can0  18FEF231   [8]  FF FF FF FF FF FF FF FF
 (000.499801)  can0  18E0FF00   [8]  00 FF FF FF FF FF FF FF
 (000.499809)  can0  0CF00331   [8]  FF FF FF FF FF FF FF FF
 (000.500165)  can0  18F00F00   [8]  38 10 FF FF D5 9F FF FF
 (000.503166)  can0  18FD0700   [8]  43 0C FC FF FF FF FF FF
 (000.503442)  can0  0CF00300   [8]  D1 00 0B FF FF 0F 65 7E
 (000.504022)  can0  0CF00203   [8]  C0 00 00 FF F7 61 16 03
 (000.504576)  can0  18FEF100   [8]  FF 00 00 FC FF 68 00 CF
 (000.505148)  can0  0CF00C03   [8]  EA 03 89 16 FF FF FF FF
 (000.507536)  can0  18FEEE00   [8]  83 FF FF FF FF FF FF FF
 (000.509350)  can0  0CF00400   [8]  00 7D 83 B4 16 00 0F 83
 (000.512429)  can0  10FDA300   [8]  FF FF 14 FF FF FF FF FF
 (000.513000)  can0  18F00029   [8]  F0 7D 7D F3 29 FF FF 3C
 (000.513539)  can0  0C010305   [8]  FF FF FF FF FF F3 FF FF
 (000.514104)  can0  0CF00203   [8]  C0 00 00 FF F7 5F 16 03
 (000.517436)  can0  18FEDF00   [8]  84 A0 28 7D 7D FF FF F5
 (000.523662)  can0  18FCDC00   [8]  9F FF FF FF 50 68 00 00
 (000.523673)  can0  0CF00300   [8]  D1 00 0B FF FF 0F 63 7E
 (000.523964)  can0  0CF00203   [8]  C0 00 00 FF F7 5F 16 03
 (000.524501)  can0  1CFE9200   [8]  FF D4 8D FF FF FF 00 00
 (000.525077)  can0  0CF00C03   [8]  EB 03 C3 16 FF FF FF FF
 (000.525627)  can0  18FEF500   [8]  A8 FF FF 77 26 FF FF FF
 (000.529252)  can0  0CF00400   [8]  00 7D 83 C4 16 00 0F 83
 (000.533276)  can0  14FC9800   [8]  FF 00 00 00 00 00 00 FF
 (000.533286)  can0  0CF00A00   [8]  26 03 F8 05 FF FF FF FF
 (000.533608)  can0  18FD9400   [8]  30 12 FF FF FF FF FF FF
 (000.534156)  can0  0CF00203   [8]  C0 00 00 FF F7 5D 16 03
 (000.534761)  can0  18F00E00   [8]  42 27 FF FF D5 9F FF FF
 (000.537465)  can0  18F03300   [8]  FF FF FF FF FF FF FF FF
 (000.538002)  can0  18FEDF00   [8]  84 A0 28 7D 7D FF FF F5
 (000.542744)  can0  18FEE000   [8]  00 00 00 00 15 96 35 00
 (000.543316)  can0  0CF00300   [8]  D1 00 0A FF FF 0F 64 7E
 (000.543869)  can0  0CF00203   [8]  C0 00 00 FF F7 5D 16 03
 (000.544480)  can0  18FEA400   [8]  FF FF DE 29 FF FF 15 2D
 (000.545004)  can0  0CF00C03   [8]  EF 03 FE 16 FF FF FF FF
 (000.545636)  can0  0CF00331   [8]  FF FF FF FF FF FF FF FF
 (000.547426)  can0  18FDB400   [8]  16 36 1C 37 FF FF FF FF
 (000.548002)  can0  18FEF200   [8]  0D 00 00 00 00 00 E1 FF
 (000.548584)  can0  18F00F00   [8]  38 10 FF FF D5 9F FF FF
 (000.549334)  can0  0CF00400   [8]  60 7D 82 CE 16 00 0F 83
 (000.554063)  can0  0CF00203   [8]  C0 00 00 FF F7 62 16 03
 (000.557444)  can0  18FEDF00   [8]  84 A0 28 7D 7D FF FF F5
 (000.558034)  can0  10FCFD00   [8]  FF FF FF FF 00 32 FF FF
 (000.562955)  can0  18F0010B   [8]  CF FF F0 FF FF CD FF FF
 (000.562965)  can0  0CF00300   [8]  D1 00 0A FF FF 0F 64 7E
 (000.563476)  can0  0C010305   [8]  FF FF FF FF FF F3 FF FF
 (000.564032)  can0  0CF00203   [8]  C0 00 00 FF F7 62 16 03
 (000.565511)  can0  0CF00C03   [8]  EA 03 BB 16 FF FF FF FF
 (000.567964)  can0  18FD7C00   [8]  F8 83 00 00 C3 0F 03 FF
 (000.568045)  can0  18F00100   [8]  FF FF FF FF FF FF FF FF
 (000.569544)  can0  0CF00400   [8]  60 7D 82 C6 16 00 0F 83
 (000.572354)  can0  18FEBF0B   [8]  00 00 7D 7D 7D 7D FF FF
 (000.572927)  can0  18FDB300   [8]  FF FF 50 39 FF FF FF FF
 (000.573625)  can0  0CF00203   [8]  C0 00 00 FF F7 66 16 03
 (000.577966)  can0  18FEDF00   [8]  84 A0 28 7D 7D FF FF F5
 (000.582808)  can0  0CF00300   [8]  D1 00 0A FF FF 0F 64 7E
 (000.583337)  can0  0CF00A00   [8]  26 03 E5 05 FF FF FF FF
 (000.583929)  can0  0CF00203   [8]  C0 00 00 FF F7 66 16 03
 (000.584563)  can0  18FEF000   [8]  FF FF FF C9 16 FF FF FF
 (000.585116)  can0  0CF00C03   [8]  E9 03 7A 16 FF FF FF FF
 (000.585685)  can0  18F00E00   [8]  42 27 FF FF D5 9F FF FF
 (000.586239)  can0  18F00503   [8]  7D 00 00 7D 4E 20 4E 43
 (000.587689)  can0  18FE4A03   [8]  03 1F 4F FF FF F3 FF FF
 (000.587741)  can0  18F03300   [8]  FF FF FF FF FF FF FF FF
 (000.588417)  can0  18FE9A00   [8]  BF 27 FF FF FF FF FF FF
 (000.589846)  can0  0CF00400   [8]  70 7D 82 BE 16 00 0F 83
 (000.593223)  can0  18FDB200   [8]  FF FF FF FF 02 00 FF FF
 (000.593233)  can0  18FCF200   [8]  E1 FF FF FF FF FF FF FF
 (000.593597)  can0  0CF00203   [8]  C0 00 00 FF F7 6D 16 03
 (000.595602)  can0  18F00131   [8]  FF FF FF 3F 00 FF FF FF
 (000.596073)  can0  18FEF131   [8]  F3 FF FF C3 CC FF FF F0
 (000.596661)  can0  18FEF031   [8]  FF FF FF FF FF FC CC FF
 (000.597344)  can0  18FF4831   [8]  00 00 FF FF 00 00 00 00
 (000.597826)  can0  18FEDF00   [8]  84 A0 28 7D 7D FF FF F5
 (000.598425)  can0  18F00F00   [8]  38 10 FF FF D5 9F FF FF
 (000.599012)  can0  18FEF231   [8]  FF FF FF FF FF FF FF FF
 (000.599613)  can0  0CF00331   [8]  FF FF FF FF FF FF FF FF
 (000.602877)  can0  0CF00300   [8]  D1 00 0A FF FF 0F 63 7E
 (000.603475)  can0  18FEF100   [8]  FF 00 00 FC FF 68 00 CF
 (000.604002)  can0  0CF00203   [8]  C0 00 00 FF F7 6D 16 03
 (000.604601)  can0  0CF00C03   [8]  EE 03 D3 16 FF FF FF FF
 (000.609320)  can0  0CF00400   [8]  10 7D 83 A0 16 00 0F 83
 (000.612514)  can0  10FDA300   [8]  FF FF 14 FF FF FF FF FF
 (000.612982)  can0  18FE9900   [8]  FF FF FF FF FF FF FF FF
 (000.613694)  can0  0C010305   [8]  FF FF FF FF FF F3 FF FF
 (000.614088)  can0  0CF00203   [8]  C0 00 00 FF F7 6D 16 03
 (000.614684)  can0  18F00029   [8]  F0 7D 7D F3 29 FF FF 3C
 (000.617498)  can0  18FD8C00   [8]  FF FF 01 00 FF FF FF FF
 (000.618054)  can0  18FEDF00   [8]  84 A0 28 7D 7D FF FF F5
 (000.622893)  can0  18FCDC00   [8]  9F FF FF FF 50 68 00 00
 (000.623389)  can0  0CF00300   [8]  D1 00 0B FF FF 0F 63 7E
 (000.623922)  can0  0CF00203   [8]  C0 00 00 FF F7 6D 16 03
 (000.624519)  can0  1CFE9200   [8]  FF 80 8E FF FF FF 00 00
 (000.625114)  can0  0CF00C03   [8]  ED 03 E7 16 FF FF FF FF
 (000.630018)  can0  0CF00400   [8]  20 7D 83 A4 16 00 0F 83
 (000.633241)  can0  0CF00A00   [8]  00 03 01 06 FF FF FF FF
 (000.633251)  can0  18FD9400   [8]  96 0F FF FF FF FF FF FF
 (000.633652)  can0  0CF00203   [8]  C0 00 00 FF F7 6C 16 03
 (000.634955)  can0  18FEFC00   [8]  FF FF FF FF FF FF FF FF
 (000.634962)  can0  18F00E00   [8]  42 27 FF FF D5 9F FF FF
 (000.637478)  can0  18FD2000   [8]  16 36 FF FF FF FF FF FF
 (000.638053)  can0  18F03300   [8]  FF FF FF FF FF FF FF FF
 (000.638601)  can0  18FEDF00   [8]  84 A0 28 7D 7D FF FF F5
 (000.642838)  can0  18FEE000   [8]  00 00 00 00 15 96 35 00
 (000.643330)  can0  0CF00300   [8]  D1 00 0B FF FF 0F 64 7E
 (000.643891)  can0  0CF00203   [8]  C0 00 00 FF F7 6C 16 03
 (000.644555)  can0  0CF00C03   [8]  EA 03 77 16 FF FF FF FF
 (000.645520)  can0  0CF00331   [8]  FF FF FF FF FF FF FF FF
 (000.647502)  can0  18FEF200   [8]  11 00 00 00 00 00 E1 FF
 (000.648032)  can0  18F00F00   [8]  38 10 FF FF D5 9F FF FF
 (000.649310)  can0  0CF00400   [8]  10 7D 83 A7 16 00 0F 83
 (000.654115)  can0  0CF00203   [8]  C0 00 00 FF F7 6A 16 03
 (000.657510)  can0  18FEDF00   [8]  84 A0 28 7D 7D FF FF F5
 (000.658114)  can0  10FCFD00   [8]  FF FF FF FF 00 32 FF FF
 (000.662984)  can0  18F0010B   [8]  CF FF F0 FF FF CD FF FF
 (000.663043)  can0  18FD3E00   [8]  B6 3B FF B6 3E FF FF FF
 (000.663736)  can0  0C010305   [8]  FF FF FF FF FF F3 FF FF
 (000.664269)  can0  0CF00203   [8]  C0 00 00 FF F7 6A 16 03
 (000.664824)  can0  0CF00300   [8]  D1 00 0B FF FF 0F 65 7E
 (000.665410)  can0  0CF00C03   [8]  E9 03 76 16 FF FF FF FF
 (000.667605)  can0  18F00100   [8]  FF FF FF FF FF FF FF FF
 (000.669286)  can0  0CF00400   [8]  10 7D 83 AA 16 00 0F 83
 (000.672514)  can0  18FEBF0B   [8]  00 00 7D 7D 7D 7D FF FF
 (000.673635)  can0  0CF00203   [8]  C0 00 00 FF F7 6B 16 03
 (000.677944)  can0  18FEDF00   [8]  84 A0 28 7D 7D FF FF F5
 (000.682791)  can0  18FD4000   [8]  FF 3F 00 FF FF FF FF FF
 (000.683314)  can0  0CF00300   [8]  D1 00 0B FF FF 0F 64 7E
 (000.683863)  can0  0CF00203   [8]  C0 00 00 FF F7 6B 16 03
 (000.684488)  can0  0CF00A00   [8]  F7 02 1D 06 FF FF FF FF
 (000.685062)  can0  0CF00C03   [8]  ED 03 F3 16 FF FF FF FF
 (000.685645)  can0  18FEF000   [8]  FF FF FF AB 16 FF FF FF
 (000.686203)  can0  18F00503   [8]  7D 00 00 7D 4E 20 4E 43
 (000.686763)  can0  18F00E00   [8]  42 27 FF FF D5 9F FF FF
 (000.687334)  can0  18FE4A03   [8]  03 1F 4F FF FF F3 FF FF
 (000.687958)  can0  1CECFF00   [8]  20 0E 00 02 FF CA FE 00
 (000.688509)  can0  18F03300   [8]  FF FF FF FF FF FF FF FF
 (000.689331)  can0  0CF00400   [8]  10 7D 83 AF 16 00 0F 83
 (000.693203)  can0  18FCF200   [8]  E1 FF FF FF FF FF FF FF
 (000.693620)  can0  0CF00203   [8]  C0 00 00 FF F7 64 16 03
 (000.695555)  can0  18F00131   [8]  FF FF FF 3F 00 FF FF FF
 (000.696083)  can0  18FEF131   [8]  F3 FF FF C3 CC FF FF F0
 (000.696701)  can0  18FEF031   [8]  FF FF FF FF FF FC CC FF
 (000.697307)  can0  18FF4831   [8]  00 00 FF FF 00 00 00 00
 (000.697862)  can0  18FEDF00   [8]  84 A0 28 7D 7D FF FF F5
 (000.698434)  can0  18FEF231   [8]  FF FF FF FF FF FF FF FF
 (000.699034)  can0  18F00F00   [8]  38 10 FF FF D5 9F FF FF
 (000.699561)  can0  0CF00331   [8]  FF FF FF FF FF FF FF FF
 (000.702883)  can0  0CF00300   [8]  D1 00 0B FF FF 0F 64 7E
 (000.703461)  can0  18FEF100   [8]  FF 00 00 FC FF 68 00 CF
 (000.704034)  can0  0CF00203   [8]  C0 00 00 FF F7 64 16 03
 (000.704636)  can0  0CF00C03   [8]  EB 03 E2 16 FF FF FF FF
 (000.707586)  can0  18FCC500   [8]  B6 3B FF FF FF FF FF FF
 (000.708085)  can0  0CFD9200   [8]  F4 FF FA FF FF FF FF FF
 (000.709773)  can0  0CF00400   [8]  00 7D 83 BE 16 00 0F 83
 (000.712470)  can0  10FDA300   [8]  FF FF 14 FF FF FF FF FF
 (000.712986)  can0  18F00029   [8]  F0 7D 7D F3 29 FF FF 3C
 (000.713579)  can0  0C010305   [8]  FF FF FF FF FF F3 FF FF
 (000.714158)  can0  0CF00203   [8]  C0 00 00 FF F7 61 16 03
 (000.717534)  can0  18FEDF00   [8]  84 A0 28 7D 7D FF FF F5
 (000.722824)  can0  18FCDC00   [8]  9F FF FF FF 50 68 00 00
 (000.723360)  can0  0CF00300   [8]  D1 00 0A FF FF 0F 65 7E
 (000.723926)  can0  0CF00203   [8]  C0 00 00 FF F7 61 16 03
 (000.724519)  can0  1CFE9200   [8]  FF 04 8F FF FF FF 00 00
 (000.725050)  can0  0CF00C03   [8]  E9 03 7E 16 FF FF FF FF
 (000.729311)  can0  0CF00400   [8]  70 7D 82 BE 16 00 0F 83
 (000.732474)  can0  0CF00A00   [8]  F7 02 0A 06 FF FF FF FF
 (000.733049)  can0  18FD9400   [8]  96 0F FF FF FF FF FF FF
 (000.733626)  can0  18FEEF00   [8]  FF FF FF 1E 39 7D FF FA
 (000.734173)  can0  0CF00203   [8]  C0 00 00 FF F7 62 16 03
 (000.734751)  can0  18F00E00   [8]  42 27 FF FF D5 9F FF FF
 (000.735286)  can0  1CEBFF00   [8]  01 43 FF BF 00 09 08 54
 (000.737491)  can0  18F03300   [8]  FF FF FF FF FF FF FF FF
 (000.738058)  can0  18FEDF00   [8]  84 A0 28 7D 7D FF FF F5
 (000.743428)  can0  18FEE000   [8]  00 00 00 00 15 96 35 00
 (000.743436)  can0  0CF00300   [8]  D1 00 0A FF FF 0F 65 7E
 (000.743923)  can0  0CF00203   [8]  C0 00 00 FF F7 62 16 03
 (000.744533)  can0  0CF00C03   [8]  EE 03 95 16 FF FF FF FF
 (000.745483)  can0  0CF00331   [8]  FF FF FF FF FF FF FF FF
 (000.747489)  can0  18FEF200   [8]  11 00 00 00 00 00 E1 FF
 (000.748058)  can0  18F00F00   [8]  38 10 FF FF D5 9F FF FF
 (000.749377)  can0  0CF00400   [8]  00 7D 83 AE 16 00 0F 83
 (000.753217)  can0  18FEDB00   [8]  FF FF 3A 32 FF FF FF FF
 (000.753626)  can0  0CF00203   [8]  C0 00 00 FF F7 69 16 03
 (000.757551)  can0  18FEDF00   [8]  84 A0 28 7D 7D FF FF F5
 (000.758108)  can0  10FCFD00   [8]  FF FF FF FF 00 32 FF FF
 (000.762975)  can0  18F0010B   [8]  CF FF F0 FF FF CD FF FF
 (000.763314)  can0  0C010305   [8]  FF FF FF FF FF F3 FF FF
 (000.763880)  can0  0CF00203   [8]  C0 00 00 FF F7 69 16 03
 (000.764426)  can0  0CF00300   [8]  D1 00 0A FF FF 0F 64 7E
 (000.764978)  can0  0CF00C03   [8]  ED 03 DD 16 FF FF FF FF
 (000.767492)  can0  18F00100   [8]  FF FF FF FF FF FF FF FF
 (000.769353)  can0  0CF00400   [8]  20 7D 83 9A 16 00 0F 83
 (000.772435)  can0  18FEF600   [8]  FF 01 65 FF FF FF FF FF
 (000.773008)  can0  18FEBF0B   [8]  00 00 7D 7D 7D 7D FF FF
 (000.773635)  can0  0CF00203   [8]  C0 00 00 FF F7 68 16 03
 (000.777492)  can0  18FEDF00   [8]  84 A0 28 7D 7D FF FF F5
 (000.783640)  can0  0CF00300   [8]  D1 00 0B FF FF 0F 64 7E
 (000.783649)  can0  0CF00A00   [8]  F7 02 1D 06 FF FF FF FF
 (000.783904)  can0  0CF00203   [8]  C0 00 00 FF F7 68 16 03
 (000.785294)  can0  18FEF000   [8]  FF FF FF A4 16 FF FF FF
 (000.785304)  can0  0CF00C03   [8]  E9 03 A7 16 FF FF FF FF
 (000.785667)  can0  18F00E00   [8]  42 27 FF FF D5 9F FF FF
 (000.786338)  can0  18F00503   [8]  7D 00 00 7D 4E 20 4E 43
 (000.787913)  can0  18FE4A03   [8]  03 1F 4F FF FF F3 FF FF
 (000.787924)  can0  18F03300   [8]  FF FF FF FF FF FF FF FF
 (000.789495)  can0  0CF00400   [8]  40 7D 83 99 16 00 0F 83
 (000.789928)  can0  1CEBFF00   [8]  02 00 09 08 ED 14 1F 01
 (000.793309)  can0  18FCF200   [8]  E1 FF FF FF FF FF FF FF
 (000.793632)  can0  0CF00203   [8]  C0 00 00 FF F7 61 16 03
 (000.795652)  can0  18F00131   [8]  FF FF FF 3F 00 FF FF FF
 (000.796099)  can0  18FEF131   [8]  F3 FF FF C3 CC FF FF F0
 (000.796663)  can0  18FEF031   [8]  FF FF FF FF FF FC CC FF
 (000.797280)  can0  18FF4831   [8]  00 00 FF FF 00 00 00 00
 (000.797833)  can0  18FEDF00   [8]  84 A0 28 7D 7D FF FF F5
 (000.798410)  can0  18FDC600   [8]  FC 04 FF FF FF FF FF FF
 (000.799012)  can0  18FEF231   [8]  FF FF FF FF FF FF FF FF
 (000.799592)  can0  18F00F00   [8]  38 10 FF FF D5 9F FF FF
 (000.800115)  can0  0CF00331   [8]  FF FF FF FF FF FF FF FF
 (000.802879)  can0  0CF00300   [8]  D1 00 0C FF FF 0F 65 7E
 (000.803485)  can0  18FEF100   [8]  FF 00 00 FC FF 68 00 CF
 (000.804031)  can0  0CF00203   [8]  C0 00 00 FF F7 61 16 03
 (000.804588)  can0  0CF00C03   [8]  E9 03 52 16 FF FF FF FF
 (000.809333)  can0  0CF00400   [8]  30 7D 83 98 16 00 0F 83
 (000.813294)  can0  10FDA300   [8]  FF FF 14 FF FF FF FF FF
 (000.813305)  can0  18F00029   [8]  F0 7D 7D F3 29 FF FF 3C
 (000.813605)  can0  0C010305   [8]  FF FF FF FF FF F3 FF FF
 (000.814134)  can0  0CF00203   [8]  C0 00 00 FF F7 5E 16 03
 (000.818164)  can0  18FEDF00   [8]  84 A0 28 7D 7D FF FF F5
 (000.818176)  can0  1CECFF00   [8]  20 22 00 05 FF E3 FE 00
 (000.823617)  can0  18FCDC00   [8]  9F FF FF FF 50 68 00 00
 (000.823628)  can0  0CF00300   [8]  D1 00 0B FF FF 0F 66 7E
 (000.823977)  can0  0CF00203   [8]  C0 00 00 FF F7 5E 16 03
 (000.824552)  can0  1CFE9200   [8]  FF 40 8F FF FF FF 00 00
 (000.825111)  can0  0CF00C03   [8]  ED 03 B4 16 FF FF FF FF
 (000.829293)  can0  0CF00400   [8]  30 7D 83 A0 16 00 0F 83
 (000.832508)  can0  0CF00A00   [8]  D1 02 1D 06 FF FF FF FF
 (000.833038)  can0  18FD9400   [8]  96 0F FF FF FF FF FF FF
 (000.833637)  can0  0CF00203   [8]  C0 00 00 FF F7 5C 16 03
 (000.834189)  can0  18F00E00   [8]  42 27 FF FF D5 9F FF FF
 (000.837451)  can0  18F03300   [8]  FF FF FF FF FF FF FF FF
 (000.838076)  can0  18FEDF00   [8]  84 A0 28 7D 7D FF FF F5
 (000.842941)  can0  18FEE000   [8]  00 00 00 00 15 96 35 00
 (000.843325)  can0  0CF00300   [8]  D1 00 0B FF FF 0F 65 7E
 (000.843896)  can0  0CF00203   [8]  C0 00 00 FF F7 5C 16 03
 (000.844498)  can0  0CF00C03   [8]  EB 03 DF 16 FF FF FF FF
 (000.845488)  can0  0CF00331   [8]  FF FF FF FF FF FF FF FF
 (000.847773)  can0  18FEF200   [8]  0D 00 00 00 00 00 E1 FF
 (000.848129)  can0  18F00F00   [8]  38 10 FF FF D5 9F FF FF
 (000.849625)  can0  0CF00400   [8]  20 7D 83 AB 16 00 0F 83
 (000.854128)  can0  0CF00203   [8]  C0 00 00 FF F7 56 16 03
 (000.858072)  can0  18FEDF00   [8]  84 A0 28 7D 7D FF FF F5
 (000.858083)  can0  10FCFD00   [8]  FF FF FF FF 00 32 FF FF
 (000.862823)  can0  0CF00300   [8]  D1 00 0B FF FF 0F 64 7E
 (000.863407)  can0  0C010305   [8]  FF FF FF FF FF F3 FF FF
 (000.863944)  can0  0CF00203   [8]  C0 00 00 FF F7 56 16 03
 (000.864532)  can0  18F0010B   [8]  CF FF F0 FF FF CD FF FF
 (000.865105)  can0  0CF00C03   [8]  E9 03 98 16 FF FF FF FF
 (000.867466)  can0  18F00100   [8]  FF FF FF FF FF FF FF FF
 (000.869327)  can0  0CF00400   [8]  10 7D 83 B7 16 00 0F 83
 (000.869751)  can0  18EAFF31   [3]  E9 FE 00
 (000.870291)  can0  1CEBFF00   [8]  01 A8 16 B1 40 51 C2 E8
 (000.872269)  can0  18FEE900   [8]  00 00 00 00 C2 3F 03 00
 (000.873107)  can0  18FEBF0B   [8]  00 00 7D 7D 7D 7D FF FF
 (000.873646)  can0  0CF00203   [8]  C0 00 00 FF F7 51 16 03
 (000.877518)  can0  18FEDF00   [8]  84 A0 28 7D 7D FF FF F5
 (000.883608)  can0  0CF00300   [8]  D1 00 0B FF FF 0F 64 7E
 (000.883618)  can0  0CF00A00   [8]  D1 02 30 06 FF FF FF FF
 (000.883890)  can0  0CF00203   [8]  C0 00 00 FF F7 51 16 03
 (000.885279)  can0  18FEF000   [8]  FF FF FF B6 16 FF FF FF
 (000.885290)  can0  0CF00C03   [8]  EB 03 96 16 FF FF FF FF
 (000.885653)  can0  18F00E00   [8]  42 27 FF FF D5 9F FF FF
 (000.886214)  can0  18F00503   [8]  7D 00 00 7D 4E 20 4E 43
 (000.887780)  can0  18FE4A03   [8]  03 1F 4F FF FF F3 FF FF
 (000.887788)  can0  18F03300   [8]  FF FF FF FF FF FF FF FF
 (000.888324)  can0  18FD9503   [8]  CC FF FF AF FF FF FF FF
 (000.889079)  can0  18FEF803   [8]  FF FF FF FF C1 2B FF FF
 (000.889537)  can0  0CF00400   [8]  00 7D 83 B9 16 00 0F 83
 (000.893266)  can0  18FCF200   [8]  E1 FF FF FF FF FF FF FF
 (000.893628)  can0  0CF00203   [8]  C0 00 00 FF F7 55 16 03
 (000.895485)  can0  18F00131   [8]  FF FF FF 3F 00 FF FF FF
 (000.896079)  can0  18FEF131   [8]  F3 FF FF C3 CC FF FF F0
 (000.896658)  can0  18FEF031   [8]  FF FF FF FF FF FC CC FF
 (000.897280)  can0  18FF4831   [8]  00 00 FF FF 00 00 00 00
 (000.897793)  can0  18FEDF00   [8]  84 A0 28 7D 7D FF FF F5
 (000.898364)  can0  18FEF231   [8]  FF FF FF FF FF FF FF FF
 (000.898939)  can0  18F00F00   [8]  42 10 FF FF D5 9F FF FF
 (000.899509)  can0  0CF00331   [8]  FF FF FF FF FF FF FF FF
 (000.902966)  can0  0CF00300   [8]  D1 00 0A FF FF 0F 65 7E
 (000.903585)  can0  18FEF100   [8]  FF 00 00 FC FF 68 00 CF
 (000.904163)  can0  0CF00203   [8]  C0 00 00 FF F7 55 16 03
 (000.904774)  can0  0CF00C03   [8]  F0 03 DB 16 FF FF FF FF
 (000.909367)  can0  0CF00400   [8]  10 7D 83 AE 16 00 0F 83
 (000.913224)  can0  10FDA300   [8]  FF FF 14 FF FF FF FF FF
 (000.913235)  can0  18F00029   [8]  F0 7D 7D F3 29 FF FF 3C
 (000.913609)  can0  0C010305   [8]  FF FF FF FF FF F3 FF FF
 (000.914180)  can0  0CF00203   [8]  C0 00 00 FF F7 5B 16 03
 (000.914794)  can0  18FECA03   [8]  00 FF 00 00 00 00 FF FF
 (000.918028)  can0  18FEDF00   [8]  84 A0 28 7D 7D FF FF F5
 (000.923712)  can0  18FCDC00   [8]  9F FF FF FF 50 68 00 00
 (000.923723)  can0  0CF00300   [8]  D1 00 0B FF FF 0F 64 7E
 (000.923880)  can0  0CF00203   [8]  C0 00 00 FF F7 5B 16 03
 (000.924658)  can0  1CFE9200   [8]  FF 9C 8F FF FF FF 00 00
 (000.925068)  can0  0CF00C03   [8]  EB 03 AB 16 FF FF FF FF
 (000.925645)  can0  1CEBFF00   [8]  02 1C B9 60 22 C6 C0 44
 (000.929332)  can0  0CF00400   [8]  20 7D 83 9A 16 00 0F 83
 (000.932493)  can0  0CF00A00   [8]  D1 02 39 06 FF FF FF FF
 (000.933080)  can0  18FD9400   [8]  96 0F FF FF FF FF FF FF
 (000.933653)  can0  18F00E00   [8]  38 27 FF FF D5 9F FF FF
 (000.934237)  can0  0CF00203   [8]  C0 00 00 FF F7 5C 16 03
 (000.938088)  can0  18F03300   [8]  FF FF FF FF FF FF FF FF
 (000.938098)  can0  18FEDF00   [8]  84 A0 28 7D 7D FF FF F5
 (000.942827)  can0  18FEE000   [8]  00 00 00 00 15 96 35 00
 (000.943382)  can0  0CF00300   [8]  D1 00 0B FF FF 0F 64 7E
 (000.943969)  can0  0CF00203   [8]  C0 00 00 FF F7 5C 16 03
 (000.944588)  can0  0CF00C03   [8]  EA 03 3E 16 FF FF FF FF
 (000.946245)  can0  0CF00331   [8]  FF FF FF FF FF FF FF FF
 (000.947975)  can0  18FEF200   [8]  11 00 00 00 00 00 E1 FF
 (000.948031)  can0  18F00F00   [8]  4C 10 FF FF D5 9F FF FF
 (000.949689)  can0  0CF00400   [8]  50 7D 83 89 16 00 0F 84
 (000.954124)  can0  0CF00203   [8]  C0 00 00 FF F7 59 16 03
 (000.958126)  can0  18FEDF00   [8]  84 A0 28 7D 7D FF FF F5
 (000.958137)  can0  10FCFD00   [8]  FF FF FF FF 00 32 FF FF
 (000.958684)  can0  0CFD9200   [8]  F4 FF FA FF FF FF FF FF
 (000.962795)  can0  0CF00300   [8]  D1 00 0C FF FF 0F 65 7E
 (000.963386)  can0  0C010305   [8]  FF FF FF FF FF F3 FF FF
 (000.963965)  can0  0CF00203   [8]  C0 00 00 FF F7 59 16 03
 (000.964498)  can0  18F0010B   [8]  CF FF F0 FF FF CD FF FF
 (000.965054)  can0  0CF00C03   [8]  EB 03 9E 16 FF FF FF FF
 (000.967567)  can0  18F00100   [8]  FF FF FF FF FF FF FF FF
 (000.969363)  can0  0CF00400   [8]  40 7D 83 9D 16 00 0F 83
 (000.973226)  can0  18FEBF0B   [8]  00 00 7D 7D 7D 7D FF FF
 (000.973752)  can0  0CF00203   [8]  C0 00 00 FF F7 58 16 03
 (000.977586)  can0  18FEDF00   [8]  84 A0 28 7D 7D FF FF F5
 (000.980137)  can0  1CEBFF00   [8]  03 CB 40 51 FF FF 55 04
 (000.983583)  can0  0CF00300   [8]  D1 00 0C FF FF 0F 66 7E
 (000.983593)  can0  0CF00A00   [8]  D1 02 1D 06 FF FF FF FF
 (000.984000)  can0  0CF00203   [8]  C0 00 00 FF F7 58 16 03
 (000.984593)  can0  18FEF000   [8]  FF FF FF 94 16 FF FF FF
 (000.985129)  can0  0CF00C03   [8]  EB 03 D9 16 FF FF FF FF
 (000.985741)  can0  18F00E00   [8]  38 27 FF FF D5 9F FF FF
 (000.986279)  can0  18F00503   [8]  7D 00 00 7D 4E 20 4E 43
 (000.987937)  can0  18FE4A03   [8]  03 1F 4F FF FF F3 FF FF
 (000.987950)  can0  18F03300   [8]  FF FF FF FF FF FF FF FF
 (000.989656)  can0  0CF00400   [8]  30 7D 83 9F 16 00 0F 83
 (000.992535)  can0  18FCF200   [8]  E1 FF FF FF FF FF FF FF
 (000.993639)  can0  0CF00203   [8]  C0 00 00 FF F7 54 16 03
 (000.995525)  can0  18F00131   [8]  FF FF FF 3F 00 FF FF FF
 (000.996082)  can0  18FEF131   [8]  F3 FF FF C3 CC FF FF F0
 (000.996653)  can0  18FEF031   [8]  FF FF FF FF FF FC CC FF
 (000.997252)  can0  18FF4831   [8]  00 00 FF FF 00 00 00 00
 (000.997853)  can0  18FEDF00   [8]  84 A0 28 7D 7D FF FF F5
 (000.998428)  can0  18FEF231   [8]  FF FF FF FF FF FF FF FF
 (000.998981)  can0  18F00F00   [8]  4C 10 FF FF D5 9F FF FF
 (000.999557)  can0  0CF00331   [8]  FF FF FF FF FF FF FF FF
 (001.003406)  can0  0CF00300   [8]  D1 00 0B FF FF 0F 65 7E
 (001.003484)  can0  18FEF100   [8]  FF 00 00 FC FF 68 00 CF
 (001.004085)  can0  0CF00203   [8]  C0 00 00 FF F7 54 16 03
 (001.004712)  can0  0CF00C03   [8]  E9 03 A0 16 FF FF FF FF
 (001.009867)  can0  0CF00400   [8]  30 7D 83 A6 16 00 0F 83
 (001.012969)  can0  10FDA300   [8]  FF FF 14 FF FF FF FF FF
 (001.012977)  can0  18F00029   [8]  F0 7D 7D F3 29 FF FF 3C
 (001.013614)  can0  0C010305   [8]  FF FF FF FF FF F3 FF FF
 (001.014160)  can0  0CF00203   [8]  C0 00 00 FF F7 52 16 03
 (001.018112)  can0  18FEDF00   [8]  84 A0 28 7D 7D FF FF F5
 (001.023738)  can0  18FCDC00   [8]  9F FF FF FF 50 68 00 00
 (001.023748)  can0  0CF00300   [8]  D1 00 0B FF FF 0F 64 7E
 (001.023980)  can0  0CF00203   [8]  C0 00 00 FF F7 52 16 03
 (001.024552)  can0  1CFE9200   [8]  FF 44 8F FF FF FF 00 00
 (001.025100)  can0  0CF00C03   [8]  E9 03 6D 16 FF FF FF FF
 (001.029299)  can0  0CF00400   [8]  20 7D 83 B9 16 00 0F 83
 (001.032541)  can0  14FC9800   [8]  FF 00 00 00 00 00 00 FF
 (001.033100)  can0  0CF00A00   [8]  D1 02 43 06 FF FF FF FF
 (001.033693)  can0  0CF00203   [8]  C0 00 00 FF F7 4F 16 03
 (001.034259)  can0  18FD9400   [8]  30 12 FF FF FF FF FF FF
 (001.034832)  can0  18F00E00   [8]  3A 27 FF FF D5 9F FF FF
 (001.035381)  can0  1CEBFF00   [8]  04 38 5E 14 46 FA 7D C6
 (001.035938)  can0  18FECA31   [8]  00 FF 00 00 00 00 FF FF
 (001.036667)  can0  18F11031   [8]  00 00 FF FF FF FF FF FF
 (001.038316)  can0  18F03300   [8]  FF FF FF FF FF FF FF FF
 (001.038325)  can0  18FEDF00   [8]  84 A0 28 7D 7D FF FF F5
 (001.042807)  can0  18FEE000   [8]  00 00 00 00 15 96 35 00
 (001.043350)  can0  0CF00300   [8]  D1 00 0B FF FF 0F 64 7E
 (001.043926)  can0  0CF00203   [8]  C0 00 00 FF F7 4F 16 03
 (001.044533)  can0  0CF00C03   [8]  EF 03 E3 16 FF FF FF FF
 (001.046137)  can0  0CF00331   [8]  FF FF FF FF FF FF FF FF
 (001.047759)  can0  18FDB400   [8]  19 36 19 37 FF FF FF FF
 (001.048118)  can0  18FEF200   [8]  11 00 00 00 00 00 E1 FF
 (001.048676)  can0  18F00F00   [8]  4C 10 FF FF D5 9F FF FF
 (001.049480)  can0  0CF00400   [8]  00 7D 83 C2 16 00 0F 83
 (001.054086)  can0  0CF00203   [8]  C0 00 00 FF F7 54 16 03
 (001.058057)  can0  18FEDF00   [8]  84 A0 28 7D 7D FF FF F5
 (001.058065)  can0  10FCFD00   [8]  FF FF FF FF 00 32 FF FF
 (001.062827)  can0  0CF00300   [8]  D1 00 0A FF FF 0F 65 7E
 (001.063423)  can0  0C010305   [8]  FF FF FF FF FF F3 FF FF
 (001.063976)  can0  0CF00203   [8]  C0 00 00 FF F7 54 16 03
 (001.064549)  can0  18F0010B   [8]  CF FF F0 FF FF CD FF FF
 (001.065122)  can0  0CF00C03   [8]  EC 03 E1 16 FF FF FF FF
 (001.067577)  can0  18F00100   [8]  FF FF FF FF FF FF FF FF
 (001.070074)  can0  0CF00400   [8]  00 7D 83 B3 16 00 0F 83
 (001.072494)  can0  18FDB300   [8]  FF FF 4C 39 FF FF FF FF
 (001.073407)  can0  18FEBF0B   [8]  00 00 7D 7D 7D 7D FF FF
 (001.073957)  can0  0CF00203   [8]  C0 00 00 FF F7 57 16 03
 (001.077565)  can0  18FEDF00   [8]  84 A0 28 7D 7D FF FF F5
 (001.083730)  can0  0CF00300   [8]  D1 00 0A FF FF 0F 64 7E
 (001.083741)  can0  0CF00A00   [8]  D1 02 30 06 FF FF FF FF
 (001.083897)  can0  0CF00203   [8]  C0 00 00 FF F7 57 16 03
 (001.085402)  can0  18FEF000   [8]  FF FF FF BC 16 FF FF FF
 (001.085411)  can0  0CF00C03   [8]  E9 03 72 16 FF FF FF FF
 (001.085695)  can0  18F00E00   [8]  3A 27 FF FF D5 9F FF FF
 (001.086281)  can0  18F00503   [8]  7D 00 00 7D 4E 20 4E 43
 (001.087666)  can0  18FE4A03   [8]  03 1F 4F FF FF F3 FF FF
 (001.087674)  can0  18F03300   [8]  FF FF FF FF FF FF FF FF
 (001.090092)  can0  0CF00400   [8]  10 7D 83 A8 16 00 0F 83
 (001.090103)  can0  1CEBFF00   [8]  05 40 51 86 00 F7 02 FF
 (001.092430)  can0  18FDB200   [8]  FF FF FF FF 02 00 FF FF
 (001.092999)  can0  18FCF200   [8]  E1 FF FF FF FF FF FF FF
 (001.093574)  can0  0CF00203   [8]  C0 00 00 FF F7 5E 16 03
 (001.095475)  can0  18F00131   [8]  FF FF FF 3F 00 FF FF FF
 (001.096053)  can0  18FEF131   [8]  F3 FF FF C3 CC FF FF F0
 (001.096651)  can0  18FEF031   [8]  FF FF FF FF FF FC CC FF
 (001.097227)  can0  18FF4831   [8]  00 00 FF FF 00 00 00 00
 (001.097829)  can0  18FEDF00   [8]  84 A0 28 7D 7D FF FF F5
 (001.098407)  can0  18FEF231   [8]  FF FF FF FF FF FF FF FF
 (001.098971)  can0  18F00F00   [8]  4C 10 FF FF D5 9F FF FF
 (001.099564)  can0  0CF00331   [8]  FF FF FF FF FF FF FF FF
 (001.103683)  can0  0CF00300   [8]  D1 00 0B FF FF 0F 64 7E
 (001.103694)  can0  18FEF100   [8]  FF 00 00 FC FF 68 00 CF
 (001.104116)  can0  0CF00203   [8]  C0 00 00 FF F7 5E 16 03
 (001.104735)  can0  0CF00C03   [8]  EB 03 7B 16 FF FF FF FF
 (001.109902)  can0  0CF00400   [8]  40 7D 83 8E 16 00 0F 83
 (001.113125)  can0  10FDA300   [8]  FF FF 14 FF FF FF FF FF
 (001.113134)  can0  18F00029   [8]  F0 7D 7D F3 29 FF FF 3C
 (001.113624)  can0  0C010305   [8]  FF FF FF FF FF F3 FF FF
 (001.114205)  can0  0CF00203   [8]  C0 00 00 FF F7 5F 16 03
 (001.117943)  can0  18FD8C00   [8]  FF FF 01 00 FF FF FF FF
 (001.118016)  can0  18FEDF00   [8]  84 A0 28 7D 7D FF FF F5
 (001.123578)  can0  18FCDC00   [8]  9F FF FF FF 50 68 00 00
 (001.123589)  can0  0CF00300   [8]  D1 00 0B FF FF 0F 64 7E
 (001.123939)  can0  0CF00203   [8]  C0 00 00 FF F7 5F 16 03
 (001.124527)  can0  1CFE9200   [8]  FF 78 8F FF FF FF 00 00
 (001.125073)  can0  0CF00C03   [8]  ED 03 CE 16 FF FF FF FF
 (001.129368)  can0  0CF00400   [8]  40 7D 83 9A 16 00 0F 83
 (001.132502)  can0  0CF00A00   [8]  E4 02 1D 06 FF FF FF FF
 (001.133108)  can0  18FD9400   [8]  30 12 FF FF FF FF FF FF
 (001.133660)  can0  0CF00203   [8]  C0 00 00 FF F7 5D 16 03
 (001.134235)  can0  18F00E00   [8]  3A 27 FF FF D5 9F FF FF
 (001.137560)  can0  18FD2000   [8]  19 36 FF FF FF FF FF FF
 (001.138130)  can0  18F03300   [8]  FF FF FF FF FF FF FF FF
 (001.139409)  can0  18FEDF00   [8]  84 A0 28 7D 7D FF FF F5
 (001.143680)  can0  18FEE000   [8]  00 00 00 00 15 96 35 00
 (001.143690)  can0  0CF00300   [8]  D1 00 0C FF FF 0F 65 7E
 (001.143978)  can0  0CF00203   [8]  C0 00 00 FF F7 5D 16 03
 (001.144691)  can0  0CF00C03   [8]  E9 03 B0 16 FF FF FF FF
 (001.146200)  can0  0CF00331   [8]  FF FF FF FF FF FF FF FF
 (001.147752)  can0  18FEF200   [8]  0E 00 00 00 00 00 E1 FF
 (001.148108)  can0  18F00F00   [8]  4C 10 FF FF D5 9F FF FF
 (001.149574)  can0  0CF00400   [8]  30 7D 83 9F 16 00 0F 83
 (001.153998)  can0  0CF00203   [8]  C0 00 00 FF F7 57 16 03
 (001.157562)  can0  18FEDF00   [8]  84 A0 28 7D 7D FF FF F5
 (001.158156)  can0  10FCFD00   [8]  FF FF FF FF 00 32 FF FF
 (001.162857)  can0  18FD3E00   [8]  B3 3B FF B6 3E FF FF FF
 (001.163480)  can0  0C010305   [8]  FF FF FF FF FF F3 FF FF
 (001.164024)  can0  0CF00203   [8]  C0 00 00 FF F7 57 16 03
 (001.164576)  can0  0CF00300   [8]  D1 00 0B FF FF 0F 65 7E
 (001.165149)  can0  0CF00C03   [8]  EA 03 6D 16 FF FF FF FF
 (001.165706)  can0  18F0010B   [8]  CF FF F0 FF FF CD FF FF
 (001.167582)  can0  18F00100   [8]  FF FF FF FF FF FF FF FF
 (001.170044)  can0  0CF00400   [8]  20 7D 83 A5 16 00 0F 83
 (001.173609)  can0  18FEBF0B   [8]  00 00 7D 7D 7D 7D FF FF
 (001.174181)  can0  0CF00203   [8]  C0 00 00 FF F7 58 16 03
 (001.177585)  can0  18FEDF00   [8]  84 A0 28 7D 7D FF FF F5
 (001.183772)  can0  18FD4000   [8]  FF 3F 00 FF FF FF FF FF
 (001.183782)  can0  0CF00300   [8]  D1 00 0B FF FF 0F 64 7E
 (001.183964)  can0  0CF00203   [8]  C0 00 00 FF F7 58 16 03
 (001.185406)  can0  0CF00A00   [8]  EE 02 27 06 FF FF FF FF
 (001.185417)  can0  0CF00C03   [8]  ED 03 CC 16 FF FF FF FF
 (001.185724)  can0  18FEF000   [8]  FF FF FF A2 16 FF FF FF
 (001.186344)  can0  18F00503   [8]  7D 00 00 7D 4E 20 4E 43
 (001.186862)  can0  18F00E00   [8]  3A 27 FF FF D5 9F FF FF
 (001.187539)  can0  18FE4A03   [8]  03 1F 4F FF FF F3 FF FF
 (001.188021)  can0  18F03300   [8]  FF FF FF FF FF FF FF FF
 (001.189404)  can0  0CF00400   [8]  20 7D 83 AF 16 00 0F 83
 (001.192532)  can0  18FCF200   [8]  E1 FF FF FF FF FF FF FF
 (001.193625)  can0  0CF00203   [8]  C0 00 00 FF F7 57 16 03
 (001.195475)  can0  18F00131   [8]  FF FF FF 3F 00 FF FF FF
 (001.196028)  can0  18E0FF31   [8]  00 FF FF FF FF F0 FF FF
 (001.196605)  can0  18FEF131   [8]  F3 FF FF C3 CC FF FF F0
 (001.197204)  can0  18FEF031   [8]  FF FF FF FF FF FC CC FF
 (001.197826)  can0  18FEDF00   [8]  84 A0 28 7D 7D FF FF F5
 (001.198376)  can0  18FEFC31   [8]  FF 74 FF FF FF FF 00 FF
 (001.198970)  can0  18F00F00   [8]  4C 10 FF FF D5 9F FF FF
 (001.199482)  can0  18FEAE31   [8]  FF FF 6A 6A FF FF FF FF
 (001.200111)  can0  18FEF731   [8]  FF FF FF FF 1A 01 FF FF
 (001.200731)  can0  18FF4831   [8]  00 00 FF FF 00 00 00 00
 (001.201343)  can0  18FD8331   [8]  F8 FF FF FF FF FF FF FF
 (001.201951)  can0  18FEF831   [8]  FF FF FF FF FF FF FF FF
 (001.202564)  can0  18FEF231   [8]  FF FF FF FF FF FF FF FF
 (001.203154)  can0  18FEFA31   [8]  FF D3 D4 FF FF FF FF FF
 (001.203694)  can0  0CF00203   [8]  C0 00 00 FF F7 57 16 03
 (001.204230)  can0  0CF00300   [8]  D1 00 0B FF FF 0F 63 7E
 (001.204792)  can0  0CF00C03   [8]  EE 03 FE 16 FF FF FF FF
 (001.205335)  can0  18FEC131   [8]  2F 42 67 06 FF FF FF FF
 (001.205914)  can0  18FEF100   [8]  FF 00 00 FC FF 68 00 CF
 (001.206508)  can0  0CF00331   [8]  FF FF FF FF FF FF FF FF
 (001.207806)  can0  18FCC500   [8]  B3 3B FF FF FF FF FF FF
 (001.208268)  can0  0CFD9200   [8]  F4 FF FA FF FF FF FF FF
 (001.209593)  can0  0CF00400   [8]  00 7D 83 C3 16 00 0F 83
 (001.212485)  can0  10FDA300   [8]  FF FF 14 FF FF FF FF FF
 (001.213055)  can0  18F00029   [8]  F0 7D 7D F3 29 FF FF 3C
 (001.213771)  can0  0C010305   [8]  FF FF FF FF FF F3 FF FF
 (001.214175)  can0  0CF00203   [8]  C0 00 00 FF F7 54 16 03
 (001.218063)  can0  18FEDF00   [8]  84 A0 28 7D 7D FF FF F5
 (001.222890)  can0  18FCDC00   [8]  9F FF FF FF 50 68 00 00
 (001.223475)  can0  0CF00300   [8]  D1 00 0B FF FF 0F 64 7E
 (001.224008)  can0  0CF00203   [8]  C0 00 00 FF F7 54 16 03
 (001.224521)  can0  1CFE9200   [8]  FF 84 8F FF FF FF 00 00
 (001.225067)  can0  0CF00C03   [8]  E9 03 A7 16 FF FF FF FF
 (001.229399)  can0  0CF00400   [8]  00 7D 83 BC 16 00 0F 83
 (001.232537)  can0  0CF00A00   [8]  EE 02 14 06 FF FF FF FF
 (001.233097)  can0  18FD9400   [8]  30 12 FF FF FF FF FF FF
 (001.233673)  can0  0CF00203   [8]  C0 00 00 FF F7 56 16 03
 (001.234255)  can0  18FEEF00   [8]  FF FF FF 1E 3B 7D FF FA
 (001.234810)  can0  18F00E00   [8]  3A 27 FF FF D5 9F FF FF
 (001.237557)  can0  18F03300   [8]  FF FF FF FF FF FF FF FF
 (001.238155)  can0  18FEDF00   [8]  84 A0 28 7D 7D FF FF F5
 (001.243678)  can0  18FEE000   [8]  00 00 00 00 15 96 35 00
 (001.243690)  can0  0CF00300   [8]  D1 00 0A FF FF 0F 64 7E
 (001.243884)  can0  0CF00203   [8]  C0 00 00 FF F7 56 16 03
 (001.244553)  can0  0CF00C03   [8]  EA 03 73 16 FF FF FF FF
 (001.246121)  can0  0CF00331   [8]  FF FF FF FF FF FF FF FF
 (001.247647)  can0  18FEF200   [8]  12 00 00 00 00 00 E1 FF
 (001.248177)  can0  18F00F00   [8]  4C 10 FF FF D5 9F FF FF
 (001.249655)  can0  0CF00400   [8]  10 7D 83 AE 16 00 0F 83
 (001.253219)  can0  18FEDB00   [8]  FF FF 3D 32 FF FF FF FF
 (001.253587)  can0  0CF00203   [8]  C0 00 00 FF F7 5F 16 03
 (001.257542)  can0  18FEDF00   [8]  84 A0 28 7D 7D FF FF F5
 (001.258126)  can0  10FCFD00   [8]  FF FF FF FF 00 32 FF FF
 (001.263013)  can0  0CF00300   [8]  D1 00 0B FF FF 0F 64 7E
 (001.263432)  can0  0C010305   [8]  FF FF FF FF FF F3 FF FF
 (001.264029)  can0  0CF00203   [8]  C0 00 00 FF F7 5F 16 03
 (001.264584)  can0  18F0010B   [8]  CF FF F0 FF FF CD FF FF
 (001.265154)  can0  0CF00C03   [8]  EE 03 DA 16 FF FF FF FF
 (001.267563)  can0  18F00100   [8]  FF FF FF FF FF FF FF FF
 (001.269436)  can0  0CF00400   [8]  30 7D 83 97 16 00 0F 83
 (001.273223)  can0  18FEF600   [8]  FF 01 64 FF FF FF FF FF
 (001.273587)  can0  0CF00203   [8]  C0 00 00 FF F7 61 16 03
 (001.274223)  can0  18FEBF0B   [8]  00 00 7D 7D 7D 7D FF FF
 (001.277569)  can0  18FEDF00   [8]  84 A0 28 7D 7D FF FF F5
 (001.283538)  can0  0CF00300   [8]  D1 00 0B FF FF 0F 65 7E
 (001.283550)  can0  0CF00A00   [8]  EE 02 27 06 FF FF FF FF
 (001.283972)  can0  0CF00203   [8]  C0 00 00 FF F7 61 16 03
 (001.284583)  can0  18FEF000   [8]  FF FF FF A3 16 FF FF FF
 (001.285121)  can0  0CF00C03   [8]  EB 03 C9 16 FF FF FF FF
 (001.285718)  can0  18F00E00   [8]  3A 27 FF FF D5 9F FF FF
 (001.286286)  can0  18F00503   [8]  7D 00 00 7D 4E 20 4E 43
 (001.287234)  can0  18FE4A03   [8]  03 1F 4F FF FF F3 FF FF
 (001.287563)  can0  18F03300   [8]  FF FF FF FF FF FF FF FF
 (001.289376)  can0  0CF00400   [8]  30 7D 83 A1 16 00 0F 83
 (001.292544)  can0  18FCF200   [8]  E1 FF FF FF FF FF FF FF
 (001.293647)  can0  0CF00203   [8]  C0 00 00 FF F7 5D 16 03
 (001.295615)  can0  18F00131   [8]  FF FF FF 3F 00 FF FF FF
 (001.296025)  can0  18FEF131   [8]  F3 FF FF C3 CC FF FF F0
 (001.296690)  can0  18FEF031   [8]  FF FF FF FF FF FC CC FF
 (001.297264)  can0  18FF4831   [8]  00 00 FF FF 00 00 00 00
 (001.297829)  can0  18FEDF00   [8]  84 A0 28 7D 7D FF FF F5
 (001.298399)  can0  18FEF231   [8]  FF FF FF FF FF FF FF FF
 (001.299001)  can0  18FDC600   [8]  FC 04 FF FF FF FF FF FF
 (001.299573)  can0  0CF00331   [8]  FF FF FF FF FF FF FF FF
 (001.300149)  can0  18F00F00   [8]  58 10 FF FF D5 9F FF FF
 (001.303121)  can0  0CF00300   [8]  D1 00 0B FF FF 0F 65 7E
 (001.303503)  can0  18FEF100   [8]  FF 00 00 FC FF 68 00 CF
 (001.304165)  can0  0CF00203   [8]  C0 00 00 FF F7 5D 16 03
 (001.304766)  can0  0CF00C03   [8]  EA 03 58 16 FF FF FF FF
 (001.309418)  can0  0CF00400   [8]  20 7D 83 A5 16 00 0F 83
 (001.312848)  can0  10FDA300   [8]  FF FF 14 FF FF FF FF FF
 (001.313053)  can0  18F00029   [8]  F0 7D 7D F3 29 FF FF 3C
 (001.313819)  can0  0C010305   [8]  FF FF FF FF FF F3 FF FF
 (001.314204)  can0  0CF00203   [8]  C0 00 00 FF F7 5A 16 03
 (001.318054)  can0  18FEDF00   [8]  84 A0 28 7D 7D FF FF F5
 (001.322808)  can0  18FCDC00   [8]  9F FF FF FF 50 68 00 00
 (001.323352)  can0  0CF00300   [8]  D1 00 0B FF FF 0F 66 7E
 (001.323987)  can0  0CF00203   [8]  C0 00 00 FF F7 5A 16 03
 (001.324542)  can0  1CFE9200   [8]  FF 14 8F FF FF FF 00 00
 (001.325097)  can0  0CF00C03   [8]  EA 03 9B 16 FF FF FF FF
 (001.329524)  can0  0CF00400   [8]  10 7D 83 AF 16 00 0F 83
 (001.332569)  can0  0CF00A00   [8]  EE 02 0A 06 FF FF FF FF
 (001.333056)  can0  18FD9400   [8]  30 12 FF FF FF FF FF FF
 (001.333682)  can0  0CF00203   [8]  C0 00 00 FF F7 5C 16 03
 (001.334292)  can0  18F00E00   [8]  3A 27 FF FF D5 9F FF FF
 (001.338124)  can0  18F03300   [8]  FF FF FF FF FF FF FF FF
 (001.338133)  can0  18FEDF00   [8]  84 A0 28 7D 7D FF FF F5
 (001.343317)  can0  18FEF700   [8]  FF FF FF FF 19 01 FF FF
 (001.343367)  can0  18FEE000   [8]  00 00 00 00 15 96 35 00
 (001.344018)  can0  0CF00203   [8]  C0 00 00 FF F7 5C 16 03
 (001.344586)  can0  0CF00300   [8]  D1 00 0B FF FF 0F 65 7E
 (001.345128)  can0  0CF00C03   [8]  ED 03 FF 16 FF FF FF FF
 (001.345713)  can0  0CF00331   [8]  FF FF FF FF FF FF FF FF
 (001.347985)  can0  18FEF200   [8]  12 00 00 00 00 00 E1 FF
 (001.348147)  can0  18F00F00   [8]  58 10 FF FF D5 9F FF FF
 (001.349852)  can0  0CF00400   [8]  10 7D 83 B1 16 00 0F 83
 (001.353636)  can0  0CF00203   [8]  C0 00 00 FF F7 5D 16 03
 (001.357599)  can0  18FEDF00   [8]  84 A0 28 7D 7D FF FF F5
 (001.358184)  can0  10FCFD00   [8]  FF FF FF FF 00 32 FF FF
 (001.363010)  can0  18FEC100   [8]  17 A8 3B 05 00 00 00 00
 (001.363388)  can0  0C010305   [8]  FF FF FF FF FF F3 FF FF
 (001.364006)  can0  0CF00203   [8]  C0 00 00 FF F7 5D 16 03
 (001.364537)  can0  0CF00300   [8]  D1 00 0B FF FF 0F 64 7E
 (001.365100)  can0  0CF00C03   [8]  EA 03 C5 16 FF FF FF FF
 (001.365684)  can0  18F0010B   [8]  CF FF F0 FF FF CD FF FF
 (001.367973)  can0  18F00100   [8]  FF FF FF FF FF FF FF FF
 (001.369643)  can0  0CF00400   [8]  00 7D 83 BC 16 00 0F 83
 (001.374027)  can0  0CF00203   [8]  C0 00 00 FF F7 5A 16 03
 (001.374186)  can0  18FEBF0B   [8]  00 00 7D 7D 7D 7D FF FF
 (001.377578)  can0  18FEDF00   [8]  84 A0 28 7D 7D FF FF F5
 (001.383608)  can0  0CF00300   [8]  D1 00 0A FF FF 0F 65 7E
 (001.383619)  can0  0CF00A00   [8]  EE 02 14 06 FF FF FF FF
 (001.384015)  can0  0CF00203   [8]  C0 00 00 FF F7 5A 16 03
 (001.385402)  can0  18FEF000   [8]  FF FF FF B9 16 FF FF FF
 (001.385411)  can0  0CF00C03   [8]  E9 03 62 16 FF FF FF FF
 (001.385740)  can0  18F00E00   [8]  3A 27 FF FF D5 9F FF FF
 (001.386323)  can0  18F00503   [8]  7D 00 00 7D 4E 20 4E 43
 (001.387116)  can0  18FE4A03   [8]  03 1F 4F FF FF F3 FF FF
 (001.387681)  can0  18FE5600   [8]  97 42 FF FF 1F 1F 00 FF
 (001.388275)  can0  18F03300   [8]  FF FF FF FF FF FF FF FF
 (001.389475)  can0  0CF00400   [8]  00 7D 83 BB 16 00 0F 83
 (001.392541)  can0  18FCF200   [8]  E1 FF FF FF FF FF FF FF
 (001.393634)  can0  0CF00203   [8]  C0 00 00 FF F7 5F 16 03
 (001.395654)  can0  18F00131   [8]  FF FF FF 3F 00 FF FF FF
 (001.396077)  can0  18FEF131   [8]  F3 FF FF C3 CC FF FF F0
 (001.396786)  can0  18FEF031   [8]  FF FF FF FF FF FC CC FF
 (001.397305)  can0  18FF4831   [8]  00 00 FF FF 00 00 00 00
 (001.397852)  can0  18FEDF00   [8]  84 A0 28 7D 7D FF FF F5
 (001.398380)  can0  18FEF231   [8]  FF FF FF FF FF FF FF FF
 (001.398985)  can0  18F00F00   [8]  58 10 FF FF D5 9F FF FF
 (001.399555)  can0  0CF00331   [8]  FF FF FF FF FF FF FF FF
 (001.403675)  can0  0CF00300   [8]  D1 00 0A FF FF 0F 65 7E
 (001.403683)  can0  18FEF100   [8]  FF 00 00 FC FF 68 00 CF
 (001.404174)  can0  0CF00203   [8]  C0 00 00 FF F7 5F 16 03
 (001.404757)  can0  0CF00C03   [8]  EE 03 C0 16 FF FF FF FF
 (001.408107)  can0  18FD7B00   [8]  00 FF 4D BA 00 00 40 56
 (001.409671)  can0  0CF00400   [8]  00 7D 83 B4 16 00 0F 83
 (001.413021)  can0  10FDA300   [8]  FF FF 15 FF FF FF FF FF
 (001.413030)  can0  18F00029   [8]  F0 7D 7D F3 29 FF FF 3C
 (001.413677)  can0  0C010305   [8]  FF FF FF FF FF F3 FF FF
 (001.414206)  can0  0CF00203   [8]  C0 00 00 FF F7 65 16 03
 (001.417800)  can0  18FEDF00   [8]  84 A0 28 7D 7D FF FF F5
 (001.422938)  can0  18FCDC00   [8]  9F FF FF FF 50 68 00 00
 (001.423505)  can0  0CF00300   [8]  D1 00 0A FF FF 0F 65 7E
 (001.424058)  can0  0CF00203   [8]  C0 00 00 FF F7 65 16 03
 (001.424637)  can0  1CFE9200   [8]  FF D4 8E FF FF FF 00 00
 (001.425192)  can0  0CF00C03   [8]  EC 03 D7 16 FF FF FF FF
 (001.429543)  can0  0CF00400   [8]  10 7D 83 97 16 00 0F 83
 (001.432592)  can0  0CF00A00   [8]  EE 02 1D 06 FF FF FF FF
 (001.433154)  can0  18FD9400   [8]  30 12 FF FF FF FF FF FF
 (001.433668)  can0  0CF00203   [8]  C0 00 00 FF F7 67 16 03
 (001.434312)  can0  18FEDD00   [8]  FF E0 0E FF FF FF FF FF
 (001.434859)  can0  18F00E00   [8]  3A 27 FF FF D5 9F FF FF
 (001.437560)  can0  18F03300   [8]  FF FF FF FF FF FF FF FF
 (001.438137)  can0  18FEDF00   [8]  84 A0 28 7D 7D FF FF F5
 (001.443663)  can0  18FEE000   [8]  00 00 00 00 15 96 35 00
 (001.443708)  can0  0CF00300   [8]  D1 00 0B FF FF 0F 64 7E
 (001.443912)  can0  0CF00203   [8]  C0 00 00 FF F7 67 16 03
 (001.444588)  can0  0CF00C03   [8]  E9 03 7D 16 FF FF FF FF
 (001.446159)  can0  0CF00331   [8]  FF FF FF FF FF FF FF FF
 (001.447894)  can0  18FEF200   [8]  0D 00 00 00 00 00 E1 FF
 (001.448136)  can0  18F00F00   [8]  58 10 FF FF D5 9F FF FF
 (001.450241)  can0  0CF00400   [8]  40 7D 83 90 16 00 0F 84
 (001.452534)  can0  18FEE400   [8]  FF 3F FC FC 00 7F FF FF
 (001.453604)  can0  0CF00203   [8]  C0 00 00 FF F7 60 16 03
 (001.457587)  can0  18FEDF00   [8]  84 A0 28 7D 7D FF FF F5
 (001.458187)  can0  10FCFD00   [8]  FF FF FF FF 00 32 FF FF
 (001.458769)  can0  0CFD9200   [8]  F4 FF FA FF FF FF FF FF
 (001.463056)  can0  0CF00300   [8]  D1 00 0C FF FF 0F 65 7E
 (001.463483)  can0  0C010305   [8]  FF FF FF FF FF F3 FF FF
 (001.464049)  can0  0CF00203   [8]  C0 00 00 FF F7 60 16 03
 (001.464608)  can0  18F0010B   [8]  CF FF F0 FF FF CD FF FF
 (001.465177)  can0  0CF00C03   [8]  E9 03 59 16 FF FF FF FF
 (001.467584)  can0  18F00100   [8]  FF FF FF FF FF FF FF FF
 (001.469484)  can0  0CF00400   [8]  20 7D 83 A0 16 00 0F 83
 (001.474016)  can0  0CF00203   [8]  C0 00 00 FF F7 5E 16 03
 (001.474235)  can0  18FEBF0B   [8]  00 00 7D 7D 7D 7D FF FF
 (001.477659)  can0  18FEDF00   [8]  84 A0 28 7D 7D FF FF F5
 (001.483314)  can0  0CF00300   [8]  D1 00 0B FF FF 0F 66 7E
 (001.483419)  can0  0CF00A00   [8]  26 03 D2 05 FF FF FF FF
 (001.484028)  can0  0CF00203   [8]  C0 00 00 FF F7 5E 16 03
 (001.484608)  can0  18FEF000   [8]  FF FF FF 9A 16 FF FF FF
 (001.485177)  can0  0CF00C03   [8]  ED 03 D0 16 FF FF FF FF
 (001.485780)  can0  18FEBD00   [8]  00 F0 FF FF FF FF FF FF
 (001.486302)  can0  18F00503   [8]  7D 00 00 7D 4E 20 4E 43
 (001.486907)  can0  18F00E00   [8]  3A 27 FF FF D5 9F FF FF
 (001.487498)  can0  18FE4A03   [8]  03 1F 4F FF FF F3 FF FF
 (001.488053)  can0  18F03300   [8]  FF FF FF FF FF FF FF FF
 (001.489471)  can0  0CF00400   [8]  10 7D 83 A7 16 00 0F 83
 (001.493351)  can0  18FCF200   [8]  E1 FF FF FF FF FF FF FF
 (001.493546)  can0  0CF00203   [8]  C0 00 00 FF F7 5B 16 03
 (001.495647)  can0  18F00131   [8]  FF FF FF 3F 00 FF FF FF
 (001.496088)  can0  18FEF131   [8]  F3 FF FF C3 CC FF FF F0
 (001.496652)  can0  18FEF031   [8]  FF FF FF FF FF FC CC FF
 (001.497261)  can0  18FF4831   [8]  00 00 FF FF 00 00 00 00
 (001.497839)  can0  18FEDF00   [8]  84 A0 28 7D 7D FF FF F5
 (001.498407)  can0  18FEF231   [8]  FF FF FF FF FF FF FF FF
 (001.498998)  can0  18E0FF00   [8]  00 FF FF FF FF FF FF FF
 (001.499539)  can0  0CF00331   [8]  FF FF FF FF FF FF FF FF
 (001.500133)  can0  18F00F00   [8]  58 10 FF FF D5 9F FF FF
 (001.503372)  can0  18FD0700   [8]  43 0C FC FF FF FF FF FF
 (001.503575)  can0  0CF00300   [8]  D1 00 0B FF FF 0F 64 7E
 (001.504165)  can0  0CF00203   [8]  C0 00 00 FF F7 5B 16 03
 (001.504707)  can0  18FEF100   [8]  FF 00 00 FC FF 68 00 CF
 (001.505288)  can0  0CF00C03   [8]  E9 03 C2 16 FF FF FF FF
 (001.508003)  can0  18FEEE00   [8]  83 FF FF FF FF FF FF FF
 (001.509488)  can0  0CF00400   [8]  10 7D 83 AC 16 00 0F 83
 (001.513007)  can0  10FDA300   [8]  FF FF 14 FF FF FF FF FF
 (001.513013)  can0  18F00029   [8]  F0 7D 7D F3 29 FF FF 3C
 (001.513692)  can0  0C010305   [8]  FF FF FF FF FF F3 FF FF
 (001.514236)  can0  0CF00203   [8]  C0 00 00 FF F7 58 16 03
 (001.517598)  can0  18FEDF00   [8]  84 A0 28 7D 7D FF FF F5
 (001.522887)  can0  18FCDC00   [8]  9F FF FF FF 50 68 00 00
 (001.523516)  can0  0CF00300   [8]  D1 00 0B FF FF 0F 63 7E
 (001.524006)  can0  0CF00203   [8]  C0 00 00 FF F7 58 16 03
 (001.524584)  can0  1CFE9200   [8]  FF 2C 8E FF FF FF 00 00
 (001.525194)  can0  0CF00C03   [8]  EA 03 70 16 FF FF FF FF
 (001.525706)  can0  18FEF500   [8]  A8 FF FF 77 26 FF FF FF
 (001.529563)  can0  0CF00400   [8]  70 7D 82 BE 16 00 0F 83
 (001.532607)  can0  14FC9800   [8]  FF 00 00 00 00 00 00 FF
 (001.533152)  can0  0CF00A00   [8]  26 03 F8 05 FF FF FF FF
 (001.533762)  can0  0CF00203   [8]  C0 00 00 FF F7 55 16 03
 (001.535124)  can0  18FD9400   [8]  30 12 FF FF FF FF FF FF
 (001.535132)  can0  18F00E00   [8]  3A 27 FF FF D5 9F FF FF
 (001.537981)  can0  18F03300   [8]  FF FF FF FF FF FF FF FF
 (001.538136)  can0  18FEDF00   [8]  84 A0 28 7D 7D FF FF F5
 (001.543665)  can0  18FEE000   [8]  00 00 00 00 15 96 35 00
 (001.543678)  can0  0CF00300   [8]  D1 00 0A FF FF 0F 63 7E
 (001.543970)  can0  0CF00203   [8]  C0 00 00 FF F7 55 16 03
 (001.544583)  can0  18FEA400   [8]  FF FF DE 29 FF FF 16 2D
 (001.545133)  can0  0CF00C03   [8]  EE 03 B9 16 FF FF FF FF
 (001.545710)  can0  0CF00331   [8]  FF FF FF FF FF FF FF FF
 (001.547975)  can0  18FDB400   [8]  16 36 16 37 FF FF FF FF
 (001.548133)  can0  18FEF200   [8]  11 00 00 00 00 00 E1 FF
 (001.548701)  can0  18F00F00   [8]  58 10 FF FF D5 9F FF FF
 (001.549497)  can0  0CF00400   [8]  60 7D 82 C1 16 00 0F 83
 (001.553608)  can0  0CF00203   [8]  C0 00 00 FF F7 5B 16 03
 (001.558112)  can0  18FEDF00   [8]  84 A0 28 7D 7D FF FF F5
 (001.558162)  can0  10FCFD00   [8]  FF FF FF FF 00 32 FF FF
 (001.563018)  can0  0CF00300   [8]  D1 00 0A FF FF 0F 64 7E
 (001.563504)  can0  0C010305   [8]  FF FF FF FF FF F3 FF FF
 (001.564057)  can0  0CF00203   [8]  C0 00 00 FF F7 5B 16 03
 (001.564602)  can0  18F0010B   [8]  CF FF F0 FF FF CD FF FF
 (001.565179)  can0  0CF00C03   [8]  F0 03 EC 16 FF FF FF FF
 (001.567582)  can0  18FD7C00   [8]  F8 83 00 00 C3 0F 03 FF
 (001.568208)  can0  18F00100   [8]  FF FF FF FF FF FF FF FF
 (001.569637)  can0  0CF00400   [8]  70 7D 82 B8 16 00 0F 83
 (001.573241)  can0  18FDB300   [8]  FF FF 49 39 FF FF FF FF
 (001.573601)  can0  0CF00203   [8]  C0 00 00 FF F7 5F 16 03
 (001.575102)  can0  18FEBF0B   [8]  00 00 7D 7D 7D 7D FF FF
 (001.577597)  can0  18FEDF00   [8]  84 A0 28 7D 7D FF FF F5
 (001.582947)  can0  0CF00300   [8]  D1 00 0A FF FF 0F 63 7E
 (001.583524)  can0  0CF00A00   [8]  26 03 E5 05 FF FF FF FF
 (001.584071)  can0  0CF00203   [8]  C0 00 00 FF F7 5F 16 03
 (001.584657)  can0  18FEF000   [8]  FF FF FF BD 16 FF FF FF
 (001.585235)  can0  0CF00C03   [8]  E9 03 B8 16 FF FF FF FF
 (001.585800)  can0  18F00E00   [8]  3A 27 FF FF D5 9F FF FF
 (001.586376)  can0  18F00503   [8]  7D 00 00 7D 4E 20 4E 43
 (001.587058)  can0  18FE4A03   [8]  03 1F 4F FF FF F3 FF FF
 (001.587647)  can0  18F03300   [8]  FF FF FF FF FF FF FF FF
 (001.588258)  can0  18FE9A00   [8]  C0 27 FF FF FF FF FF FF
 (001.589877)  can0  0CF00400   [8]  70 7D 82 AD 16 00 0F 83
 (001.592538)  can0  18FDB200   [8]  FF FF FF FF 02 00 FF FF
 (001.593130)  can0  18FCF200   [8]  E1 FF FF FF FF FF FF FF
 (001.593686)  can0  0CF00203   [8]  C0 00 00 FF F7 62 16 03
 (001.595655)  can0  18F00131   [8]  FF FF FF 3F 00 FF FF FF
 (001.596057)  can0  18FEF131   [8]  F3 FF FF C3 CC FF FF F0
 (001.596672)  can0  18FEF031   [8]  FF FF FF FF FF FC CC FF
 (001.597268)  can0  18FF4831   [8]  00 00 FF FF 00 00 00 00
 (001.597826)  can0  18FEDF00   [8]  84 A0 28 7D 7D FF FF F5
 (001.598398)  can0  18F00F00   [8]  58 10 FF FF D5 9F FF FF
 (001.598983)  can0  18FEF231   [8]  FF FF FF FF FF FF FF FF
 (001.599572)  can0  0CF00331   [8]  FF FF FF FF FF FF FF FF
 (001.603438)  can0  0CF00300   [8]  D1 00 0A FF FF 0F 63 7E
 (001.603542)  can0  18FEF100   [8]  FF 00 00 FC FF 68 00 CF
 (001.604143)  can0  0CF00203   [8]  C0 00 00 FF F7 62 16 03
 (001.604764)  can0  0CF00C03   [8]  E9 03 65 16 FF FF FF FF
 (001.610179)  can0  0CF00400   [8]  20 7D 83 98 16 00 0F 83
 (001.612989)  can0  10FDA300   [8]  FF FF 14 FF FF FF FF FF
 (001.613147)  can0  18FE9900   [8]  FF FF FF FF FF FF FF FF
 (001.613734)  can0  0C010305   [8]  FF FF FF FF FF F3 FF FF
 (001.614307)  can0  0CF00203   [8]  C0 00 00 FF F7 66 16 03
 (001.614810)  can0  18F00029   [8]  F0 7D 7D F3 29 FF FF 3C
 (001.617573)  can0  18FD8C00   [8]  FF FF 01 00 FF FF FF FF
 (001.618154)  can0  18FEDF00   [8]  84 A0 28 7D 7D FF FF F5
 (001.622940)  can0  18FCDC00   [8]  9F FF FF FF 50 68 00 00
 (001.623509)  can0  0CF00300   [8]  D1 00 0B FF FF 0F 64 7E
 (001.624009)  can0  0CF00203   [8]  C0 00 00 FF F7 66 16 03
 (001.624640)  can0  1CFE9200   [8]  FF EC 8D FF FF FF 00 00
 (001.625206)  can0  0CF00C03   [8]  ED 03 C1 16 FF FF FF FF
 (001.629360)  can0  0CF00400   [8]  20 7D 83 9F 16 00 0F 83
 (001.633227)  can0  0CF00A00   [8]  26 03 DC 05 FF FF FF FF
 (001.633237)  can0  18FD9400   [8]  30 12 FF FF FF FF FF FF
 (001.633749)  can0  0CF00203   [8]  C0 00 00 FF F7 63 16 03
 (001.635116)  can0  18FEFC00   [8]  FF FF FF FF FF FF FF FF
 (001.635125)  can0  18F00E00   [8]  44 27 FF FF D5 9F FF FF
 (001.637946)  can0  18FD2000   [8]  16 36 FF FF FF FF FF FF
 (001.638206)  can0  18F03300   [8]  FF FF FF FF FF FF FF FF
 (001.638846)  can0  18FEDF00   [8]  84 A0 28 7D 7D FF FF F5
 (001.643660)  can0  18FEE000   [8]  00 00 00 00 15 96 35 00
 (001.643670)  can0  0CF00300   [8]  D1 00 0B FF FF 0F 65 7E
 (001.644038)  can0  0CF00203   [8]  C0 00 00 FF F7 63 16 03
 (001.644749)  can0  0CF00C03   [8]  EC 03 CF 16 FF FF FF FF
 (001.645516)  can0  0CF00331   [8]  FF FF FF FF FF FF FF FF
 (001.647606)  can0  18FEF200   [8]  0D 00 00 00 00 00 E1 FF
 (001.648172)  can0  18F00F00   [8]  58 10 FF FF D5 9F FF FF
 (001.649487)  can0  0CF00400   [8]  20 7D 83 A3 16 00 0F 83
 (001.653608)  can0  0CF00203   [8]  C0 00 00 FF F7 5D 16 03
 (001.658115)  can0  18FEDF00   [8]  84 A0 28 7D 7D FF FF F5
 (001.658185)  can0  10FCFD00   [8]  FF FF FF FF 00 32 FF FF
 (001.662955)  can0  18FD3E00   [8]  B6 3B FF B6 3E FF FF FF
 (001.663591)  can0  0C010305   [8]  FF FF FF FF FF F3 FF FF
 (001.664066)  can0  0CF00203   [8]  C0 00 00 FF F7 5D 16 03
 (001.664732)  can0  0CF00300   [8]  D1 00 0B FF FF 0F 66 7E
 (001.665135)  can0  0CF00C03   [8]  EA 03 7D 16 FF FF FF FF
 (001.666563)  can0  18F0010B   [8]  CF FF F0 FF FF CD FF FF
 (001.667983)  can0  18F00100   [8]  FF FF FF FF FF FF FF FF
 (001.670254)  can0  0CF00400   [8]  10 7D 83 AA 16 00 0F 83
 (001.674174)  can0  0CF00203   [8]  C0 00 00 FF F7 5C 16 03
 (001.674667)  can0  18FEBF0B   [8]  00 00 7D 7D 7D 7D FF FF
 (001.677899)  can0  18FEDF00   [8]  84 A0 28 7D 7D FF FF F5
 (001.682933)  can0  18FD4000   [8]  FF 3F 00 FF FF FF FF FF
 (001.683487)  can0  0CF00300   [8]  D1 00 0B FF FF 0F 65 7E
 (001.684049)  can0  0CF00203   [8]  C0 00 00 FF F7 5C 16 03
 (001.684626)  can0  0CF00A00   [8]  26 03 EE 05 FF FF FF FF
 (001.685198)  can0  0CF00C03   [8]  EA 03 82 16 FF FF FF FF
 (001.685781)  can0  18FEF000   [8]  FF FF FF A5 16 FF FF FF
 (001.686329)  can0  18F00503   [8]  7D 00 00 7D 4E 20 4E 43
 (001.686908)  can0  18F00E00   [8]  44 27 FF FF D5 9F FF FF
 (001.687484)  can0  18FE4A03   [8]  03 1F 4F FF FF F3 FF FF
 (001.688086)  can0  1CECFF00   [8]  20 0E 00 02 FF CA FE 00
 (001.688670)  can0  18F03300   [8]  FF FF FF FF FF FF FF FF
 (001.690022)  can0  0CF00400   [8]  10 7D 83 B3 16 00 0F 83
 (001.692610)  can0  18FCF200   [8]  E1 FF FF FF FF FF FF FF
 (001.693552)  can0  0CF00203   [8]  C0 00 00 FF F7 5A 16 03
 (001.695549)  can0  18F00131   [8]  FF FF FF 3F 00 FF FF FF
 (001.696075)  can0  18FEF131   [8]  F3 FF FF C3 CC FF FF F0
 (001.696653)  can0  18FEF031   [8]  FF FF FF FF FF FC CC FF
 (001.697257)  can0  18FF4831   [8]  00 00 FF FF 00 00 00 00
 (001.697866)  can0  18FEDF00   [8]  84 A0 28 7D 7D FF FF F5
 (001.698419)  can0  18F00F00   [8]  58 10 FF FF D5 9F FF FF
 (001.699017)  can0  18FEF231   [8]  FF FF FF FF FF FF FF FF
 (001.699614)  can0  0CF00331   [8]  FF FF FF FF FF FF FF FF
 (001.703569)  can0  0CF00300   [8]  D1 00 0B FF FF 0F 65 7E
 (001.703578)  can0  0CF00203   [8]  C0 00 00 FF F7 5A 16 03
 (001.704961)  can0  18FEF100   [8]  FF 00 00 FC FF 68 00 CF
 (001.704969)  can0  0CF00C03   [8]  EE 03 F6 16 FF FF FF FF
 (001.708130)  can0  18FCC500   [8]  B6 3B FF FF FF FF FF FF
 (001.708182)  can0  0CFD9200   [8]  F4 FF FA FF FF FF FF FF
 (001.709765)  can0  0CF00400   [8]  70 7D 82 BD 16 00 0F 83
 (001.712490)  can0  10FDA300   [8]  FF FF 15 FF FF FF FF FF
 (001.713029)  can0  18F00029   [8]  F0 7D 7D F3 29 FF FF 3C
 (001.713634)  can0  0C010305   [8]  FF FF FF FF FF F3 FF FF
 (001.714223)  can0  0CF00203   [8]  C0 00 00 FF F7 5A 16 03
 (001.717666)  can0  18FEDF00   [8]  84 A0 28 7D 7D FF FF F5
 (001.723666)  can0  18FCDC00   [8]  9F FF FF FF 50 68 00 00
 (001.723675)  can0  0CF00300   [8]  D1 00 0A FF FF 0F 66 7E
 (001.724022)  can0  0CF00203   [8]  C0 00 00 FF F7 5A 16 03
 (001.724631)  can0  1CFE9200   [8]  FF F0 8D FF FF FF 00 00
 (001.725220)  can0  0CF00C03   [8]  EC 03 D2 16 FF FF FF FF
 (001.730070)  can0  0CF00400   [8]  70 7D 82 B5 16 00 0F 83
 (001.733229)  can0  0CF00A00   [8]  26 03 D2 05 FF FF FF FF
 (001.733239)  can0  18FD9400   [8]  30 12 FF FF FF FF FF FF
 (001.733774)  can0  0CF00203   [8]  C0 00 00 FF F7 5A 16 03
 (001.734388)  can0  18FEEF00   [8]  FF FF FF 1E 3F 7D FF FA
 (001.734899)  can0  18F00E00   [8]  44 27 FF FF D5 9F FF FF
 (001.735513)  can0  1CEBFF00   [8]  01 43 FF BF 00 09 08 54
 (001.737961)  can0  18F03300   [8]  FF FF FF FF FF FF FF FF
 (001.738154)  can0  18FEDF00   [8]  84 A0 28 7D 7D FF FF F5
 (001.742901)  can0  18FEE000   [8]  00 00 00 00 15 96 35 00
 (001.743478)  can0  0CF00300   [8]  D1 00 0A FF FF 0F 65 7E
 (001.744051)  can0  0CF00203   [8]  C0 00 00 FF F7 5A 16 03
 (001.744648)  can0  0CF00C03   [8]  E9 03 5B 16 FF FF FF FF
 (001.745473)  can0  0CF00331   [8]  FF FF FF FF FF FF FF FF
 (001.747560)  can0  18FEF200   [8]  11 00 00 00 00 00 E1 FF
 (001.748130)  can0  18F00F00   [8]  58 10 FF FF D5 9F FF FF
 (001.749499)  can0  0CF00400   [8]  00 7D 83 AB 16 00 0F 83
 (001.753268)  can0  18FEDB00   [8]  FF FF C0 31 FF FF FF FF
 (001.753602)  can0  0CF00203   [8]  C0 00 00 FF F7 5F 16 03
 (001.757662)  can0  18FEDF00   [8]  84 A0 28 7D 7D FF FF F5
 (001.758251)  can0  10FCFD00   [8]  FF FF FF FF 00 32 FF FF
 (001.763670)  can0  0CF00300   [8]  D1 00 0A FF FF 0F 64 7E
 (001.763680)  can0  0C010305   [8]  FF FF FF FF FF F3 FF FF
 (001.764088)  can0  0CF00203   [8]  C0 00 00 FF F7 5F 16 03
 (001.764686)  can0  0CF00C03   [8]  EC 03 9C 16 FF FF FF FF
 (001.765211)  can0  18F0010B   [8]  CF FF F0 FF FF CD FF FF
 (001.768097)  can0  18F00100   [8]  FF FF FF FF FF FF FF FF
 (001.769793)  can0  0CF00400   [8]  10 7D 83 98 16 00 0F 83
 (001.772748)  can0  18FEF600   [8]  FF 01 65 FF FF FF FF FF
 (001.773670)  can0  0CF00203   [8]  C0 00 00 FF F7 61 16 03
 (001.775172)  can0  18FEBF0B   [8]  00 00 7D 7D 7D 7D FF FF
 (001.777579)  can0  18FEDF00   [8]  84 A0 28 7D 7D FF FF F5
 (001.782951)  can0  0CF00300   [8]  D1 00 0B FF FF 0F 65 7E
 (001.783517)  can0  0CF00A00   [8]  26 03 E5 05 FF FF FF FF
 (001.784098)  can0  0CF00203   [8]  C0 00 00 FF F7 61 16 03
 (001.784684)  can0  18FEF000   [8]  FF FF FF A3 16 FF FF FF
 (001.785267)  can0  0CF00C03   [8]  ED 03 E3 16 FF FF FF FF
 (001.785845)  can0  18F00E00   [8]  44 27 FF FF D5 9F FF FF
 (001.786432)  can0  18F00503   [8]  7D 00 00 7D 4E 20 4E 43
 (001.787904)  can0  18FE4A03   [8]  03 1F 4F FF FF F3 FF FF
 (001.787911)  can0  18F03300   [8]  FF FF FF FF FF FF FF FF
 (001.789508)  can0  0CF00400   [8]  10 7D 83 A4 16 00 0F 83
 (001.790079)  can0  1CEBFF00   [8]  02 00 09 08 ED 14 1F 01
 (001.793385)  can0  18FCF200   [8]  E1 FF FF FF FF FF FF FF
 (001.793571)  can0  0CF00203   [8]  C0 00 00 FF F7 5E 16 03
 (001.795947)  can0  18F00131   [8]  FF FF FF 3F 00 FF FF FF
 (001.796003)  can0  18FEF131   [8]  F3 FF FF C3 CC FF FF F0
 (001.796751)  can0  18FEF031   [8]  FF FF FF FF FF FC CC FF
 (001.797249)  can0  18FF4831   [8]  00 00 FF FF 00 00 00 00
 (001.797961)  can0  18FEDF00   [8]  84 A0 28 7D 7D FF FF F5
 (001.798426)  can0  18FDC600   [8]  FC 04 FF FF FF FF FF FF
 (001.799109)  can0  18F00F00   [8]  58 10 FF FF D5 9F FF FF
 (001.799578)  can0  18FEF231   [8]  FF FF FF FF FF FF FF FF
 (001.800212)  can0  0CF00331   [8]  FF FF FF FF FF FF FF FF
 (001.803911)  can0  0CF00300   [8]  D1 00 0B FF FF 0F 66 7E
 (001.803924)  can0  18FEF100   [8]  FF 00 00 FC FF 68 00 CF
 (001.804169)  can0  0CF00203   [8]  C0 00 00 FF F7 5E 16 03
 (001.804891)  can0  0CF00C03   [8]  EA 03 A0 16 FF FF FF FF
 (001.809432)  can0  0CF00400   [8]  10 7D 83 A5 16 00 0F 83
 (001.812543)  can0  10FDA300   [8]  FF FF 14 FF FF FF FF FF
 (001.813125)  can0  18F00029   [8]  F0 7D 7D F3 29 FF FF 3C
 (001.813725)  can0  0C010305   [8]  FF FF FF FF FF F3 FF FF
 (001.814302)  can0  0CF00203   [8]  C0 00 00 FF F7 59 16 03
 (001.817609)  can0  18FEDF00   [8]  84 A0 28 7D 7D FF FF F5
 (001.823526)  can0  18FCDC00   [8]  9F FF FF FF 50 68 00 00
 (001.823534)  can0  0CF00300   [8]  D1 00 0B FF FF 0F 66 7E
 (001.824069)  can0  0CF00203   [8]  C0 00 00 FF F7 59 16 03
 (001.824693)  can0  1CFE9200   [8]  FF F0 8D FF FF FF 00 00
 (001.825236)  can0  0CF00C03   [8]  E9 03 68 16 FF FF FF FF
 (001.830014)  can0  0CF00400   [8]  00 7D 83 B2 16 00 0F 83
 (001.833314)  can0  0CF00A00   [8]  1C 03 E5 05 FF FF FF FF
 (001.833325)  can0  18FD9400   [8]  30 12 FF FF FF FF FF FF
 (001.833765)  can0  0CF00203   [8]  C0 00 00 FF F7 5B 16 03
 (001.834348)  can0  18F00E00   [8]  44 27 FF FF D5 9F FF FF
 (001.838043)  can0  18F03300   [8]  FF FF FF FF FF FF FF FF
 (001.838167)  can0  18FEDF00   [8]  84 A0 28 7D 7D FF FF F5
 (001.842936)  can0  18FEE000   [8]  00 00 00 00 15 96 35 00
 (001.843500)  can0  0CF00300   [8]  D1 00 0A FF FF 0F 65 7E
 (001.844050)  can0  0CF00203   [8]  C0 00 00 FF F7 5B 16 03
 (001.844649)  can0  0CF00C03   [8]  ED 03 E1 16 FF FF FF FF
 (001.845480)  can0  0CF00331   [8]  FF FF FF FF FF FF FF FF
 (001.847598)  can0  18FEF200   [8]  11 00 00 00 00 00 E1 FF
 (001.848179)  can0  18F00F00   [8]  58 10 FF FF D5 9F FF FF
 (001.849479)  can0  0CF00400   [8]  70 7D 82 BC 16 00 0F 83
 (001.853615)  can0  0CF00203   [8]  C0 00 00 FF F7 5D 16 03
 (001.857637)  can0  18FEDF00   [8]  84 A0 28 7D 7D FF FF F5
 (001.858209)  can0  10FCFD00   [8]  FF FF FF FF 00 32 FF FF
 (001.863741)  can0  0CF00300   [8]  D1 00 0A FF FF 0F 64 7E
 (001.863752)  can0  0C010305   [8]  FF FF FF FF FF F3 FF FF
 (001.864012)  can0  0CF00203   [8]  C0 00 00 FF F7 5D 16 03
 (001.865377)  can0  0CF00C03   [8]  EC 03 E5 16 FF FF FF FF
 (001.865388)  can0  18F0010B   [8]  CF FF F0 FF FF CD FF FF
 (001.867871)  can0  18F00100   [8]  FF FF FF FF FF FF FF FF
 (001.870264)  can0  0CF00400   [8]  60 7D 82 CB 16 00 0F 83
 (001.873611)  can0  0CF00203   [8]  C0 00 00 FF F7 5D 16 03
 (001.875157)  can0  18FEBF0B   [8]  00 00 7D 7D 7D 7D FF FF
 (001.877657)  can0  18FEDF00   [8]  84 A0 28 7D 7D FF FF F5
 (001.882997)  can0  0CF00300   [8]  D1 00 0A FF FF 0F 65 7E
 (001.883584)  can0  0CF00A00   [8]  1C 03 EE 05 FF FF FF FF
 (001.884138)  can0  0CF00203   [8]  C0 00 00 FF F7 5D 16 03
 (001.884741)  can0  18FEF000   [8]  FF FF FF C5 16 FF FF FF
 (001.885289)  can0  0CF00C03   [8]  E9 03 9D 16 FF FF FF FF
 (001.885862)  can0  18F00E00   [8]  44 27 FF FF D5 9F FF FF
 (001.886448)  can0  18F00503   [8]  7D 00 00 7D 4E 20 4E 43
 (001.887107)  can0  18FE4A03   [8]  03 1F 4F FF FF F3 FF FF
 (001.887657)  can0  18F03300   [8]  FF FF FF FF FF FF FF FF
 (001.888258)  can0  18FD9503   [8]  CC FF FF AF FF FF FF FF
 (001.889642)  can0  18FEF803   [8]  FF FF FF FF D7 2B FF FF
 (001.889651)  can0  0CF00400   [8]  60 7D 82 C4 16 00 0F 83
 (001.892707)  can0  18FCF200   [8]  E1 FF FF FF FF FF FF FF
 (001.893592)  can0  0CF00203   [8]  C0 00 00 FF F7 60 16 03
 (001.895591)  can0  18F00131   [8]  FF FF FF 3F 00 FF FF FF
 (001.896067)  can0  18FEF131   [8]  F3 FF FF C3 CC FF FF F0
 (001.897511)  can0  18FEF031   [8]  FF FF FF FF FF FC CC FF
 (001.897521)  can0  18FF4831   [8]  00 00 FF FF 00 00 00 00
 (001.897779)  can0  18FEDF00   [8]  84 A0 28 7D 7D FF FF F5
 (001.899172)  can0  18F00F00   [8]  58 10 FF FF D5 9F FF FF
 (001.899182)  can0  18FEF231   [8]  FF FF FF FF FF FF FF FF
 (001.899580)  can0  0CF00331   [8]  FF FF FF FF FF FF FF FF
 (001.903458)  can0  0CF00300   [8]  D1 00 0A FF FF 0F 65 7E
 (001.903567)  can0  0CF00203   [8]  C0 00 00 FF F7 60 16 03
 (001.904941)  can0  18FEF100   [8]  FF 00 00 FC FF 68 00 CF
 (001.904950)  can0  0CF00C03   [8]  EC 03 86 16 FF FF FF FF
 (001.909476)  can0  0CF00400   [8]  70 7D 82 B8 16 00 0F 83
 (001.912580)  can0  10FDA300   [8]  FF FF 15 FF FF FF FF FF
 (001.913139)  can0  18F00029   [8]  F0 7D 7D F3 29 FF FF 3C
 (001.913718)  can0  0C010305   [8]  FF FF FF FF FF F3 FF FF
 (001.914263)  can0  0CF00203   [8]  C0 00 00 FF F7 68 16 03
 (001.914886)  can0  18FECA03   [8]  00 FF 00 00 00 00 FF FF
 (001.917660)  can0  18FEDF00   [8]  84 A0 28 7D 7D FF FF F5
 (001.923585)  can0  18FCDC00   [8]  9F FF FF FF 50 68 00 00
 (001.923595)  can0  0CF00300   [8]  D1 00 0A FF FF 0F 64 7E
 (001.924092)  can0  0CF00203   [8]  C0 00 00 FF F7 68 16 03
 (001.924684)  can0  1CFE9200   [8]  FF 98 8E FF FF FF 00 00
 (001.925254)  can0  0CF00C03   [8]  EE 03 D5 16 FF FF FF FF
 (001.929954)  can0  0CF00400   [8]  10 7D 83 9D 16 00 0F 83
 (001.933207)  can0  0CF00A00   [8]  1C 03 F8 05 FF FF FF FF
 (001.933218)  can0  18FD9400   [8]  96 0F FF FF FF FF FF FF
 (001.933794)  can0  0CF00203   [8]  C0 00 00 FF F7 6E 16 03
 (001.934369)  can0  18F00E00   [8]  44 27 FF FF D5 9F FF FF
 (001.937872)  can0  18F03300   [8]  FF FF FF FF FF FF FF FF
 (001.938142)  can0  18FEDF00   [8]  84 A0 28 7D 7D FF FF F5
 (001.942901)  can0  18FEE000   [8]  00 00 00 00 15 96 35 00
 (001.943501)  can0  0CF00300   [8]  D1 00 0B FF FF 0F 64 7E
 (001.943986)  can0  0CF00203   [8]  C0 00 00 FF F7 6E 16 03
 (001.944634)  can0  0CF00C03   [8]  E9 03 A8 16 FF FF FF FF
 (001.945481)  can0  0CF00331   [8]  FF FF FF FF FF FF FF FF
 (001.947686)  can0  18FEF200   [8]  0D 00 00 00 00 00 E1 FF
 (001.948252)  can0  18F00F00   [8]  58 10 FF FF D5 9F FF FF
 (001.949529)  can0  0CF00400   [8]  20 7D 83 A3 16 00 0F 83
 (001.954083)  can0  0CF00203   [8]  C0 00 00 FF F7 67 16 03
 (001.957663)  can0  18FEDF00   [8]  84 A0 28 7D 7D FF FF F5
 (001.958259)  can0  10FCFD00   [8]  FF FF FF FF 00 32 FF FF
 (001.958911)  can0  0CFD9200   [8]  F4 FF FA FF FF FF FF FF
 (001.963780)  can0  0CF00300   [8]  D1 00 0B FF FF 0F 65 7E
 (001.963790)  can0  0C010305   [8]  FF FF FF FF FF F3 FF FF
 (001.964074)  can0  0CF00203   [8]  C0 00 00 FF F7 67 16 03
 (001.964820)  can0  0CF00C03   [8]  EA 03 63 16 FF FF FF FF
 (001.965366)  can0  18F0010B   [8]  CF FF F0 FF FF CD FF FF
 (001.967888)  can0  18F00100   [8]  FF FF FF FF FF FF FF FF
 (001.969566)  can0  0CF00400   [8]  10 7D 83 A8 16 00 0F 83
 (001.973608)  can0  0CF00203   [8]  C0 00 00 FF F7 66 16 03
 (001.975369)  can0  18FEBF0B   [8]  00 00 7D 7D 7D 7D FF FF
 (001.977692)  can0  18FEDF00   [8]  84 A0 28 7D 7D FF FF F5
 (001.982952)  can0  0CF00300   [8]  D1 00 0B FF FF 0F 66 7E
 (001.983509)  can0  0CF00A00   [8]  F7 02 F8 05 FF FF FF FF
 (001.984076)  can0  0CF00203   [8]  C0 00 00 FF F7 66 16 03
 (001.984661)  can0  18FEF000   [8]  FF FF FF AB 16 FF FF FF
 (001.985233)  can0  0CF00C03   [8]  EC 03 AC 16 FF FF FF FF
 (001.985809)  can0  18F00E00   [8]  44 27 FF FF D5 9F FF FF
 (001.986398)  can0  18F00503   [8]  7D 00 00 7D 4E 20 4E 43
 (001.987689)  can0  18FE4A03   [8]  03 1F 4F FF FF F3 FF FF
 (001.987697)  can0  18F03300   [8]  FF FF FF FF FF FF FF FF
 (001.989906)  can0  0CF00400   [8]  10 7D 83 A4 16 00 0F 83
 (001.993273)  can0  18FCF200   [8]  E1 FF FF FF FF FF FF FF
 (001.993558)  can0  0CF00203   [8]  C0 00 00 FF F7 65 16 03
 (001.996373)  can0  18F00131   [8]  FF FF FF 3F 00 FF FF FF
 (001.996384)  can0  18FEF131   [8]  F3 FF FF C3 CC FF FF F0
 (001.996611)  can0  18FEF031   [8]  FF FF FF FF FF FC CC FF
 (001.997947)  can0  18FF4831   [8]  00 00 FF FF 00 00 00 00
 (001.997958)  can0  18FEDF00   [8]  84 A0 28 7D 7D FF FF F5
 (001.998409)  can0  18F00F00   [8]  58 10 FF FF D5 9F FF FF
 (001.999025)  can0  18FEF231   [8]  FF FF FF FF FF FF FF FF
 (001.999653)  can0  0CF00331   [8]  FF FF FF FF FF FF FF FF
 (002.003085)  can0  0CF00300   [8]  D1 00 0B FF FF 0F 64 7E
 (002.003646)  can0  0CF00203   [8]  C0 00 00 FF F7 65 16 03
 (002.004203)  can0  18FEF100   [8]  FF 00 00 FC FF 68 00 CF
 (002.004778)  can0  0CF00C03   [8]  ED 03 EE 16 FF FF FF FF
 (002.009485)  can0  0CF00400   [8]  10 7D 83 AB 16 00 0F 83
 (002.012709)  can0  10FDA300   [8]  FF FF 14 FF FF FF FF FF
 (002.013164)  can0  18F00029   [8]  F0 7D 7D F3 29 FF FF 3C
 (002.013760)  can0  0C010305   [8]  FF FF FF FF FF F3 FF FF
 (002.014307)  can0  0CF00203   [8]  C0 00 00 FF F7 64 16 03
 (002.017635)  can0  18FEDF00   [8]  84 A0 28 7D 7D FF FF F5
 (002.023686)  can0  18FCDC00   [8]  9F FF FF FF 50 68 00 00
 (002.023697)  can0  0CF00300   [8]  D1 00 0B FF FF 0F 64 7E
 (002.024032)  can0  0CF00203   [8]  C0 00 00 FF F7 64 16 03
 (002.024659)  can0  1CFE9200   [8]  FF AC 8E FF FF FF 00 00
 (002.025212)  can0  0CF00C03   [8]  E9 03 B5 16 FF FF FF FF
 (002.030045)  can0  0CF00400   [8]  70 7D 82 BE 16 00 0F 83
 (002.033202)  can0  14FC9800   [8]  FF 00 00 00 00 00 00 FF
 (002.033213)  can0  0CF00A00   [8]  F7 02 14 06 FF FF FF FF
 (002.033731)  can0  0CF00203   [8]  C0 00 00 FF F7 60 16 03
 (002.034337)  can0  18FD9400   [8]  96 0F FF FF FF FF FF FF
 (002.034882)  can0  18F00E00   [8]  44 27 FF FF D5 9F FF FF
 (002.035956)  can0  18FECA31   [8]  00 FF 00 00 00 00 FF FF
 (002.036605)  can0  18F11031   [8]  00 00 FF FF FF FF FF FF
 (002.037654)  can0  18F03300   [8]  FF FF FF FF FF FF FF FF
 (002.038256)  can0  18FEDF00   [8]  84 A0 28 7D 7D FF FF F5
 (002.043497)  can0  18FEE000   [8]  00 00 00 00 15 96 35 00
 (002.043510)  can0  0CF00300   [8]  D1 00 0A FF FF 0F 64 7E
 (002.044079)  can0  0CF00203   [8]  C0 00 00 FF F7 60 16 03
 (002.044681)  can0  0CF00C03   [8]  E9 03 7B 16 FF FF FF FF
 (002.045522)  can0  0CF00331   [8]  FF FF FF FF FF FF FF FF
 (002.047635)  can0  18FDB400   [8]  16 36 16 37 FF FF FF FF
 (002.048200)  can0  18FEF200   [8]  10 00 00 00 00 00 E1 FF
 (002.048736)  can0  18F00F00   [8]  58 10 FF FF D5 9F FF FF
 (002.049539)  can0  0CF00400   [8]  70 7D 82 BB 16 00 0F 83
 (002.054166)  can0  0CF00203   [8]  C0 00 00 FF F7 63 16 03
 (002.057681)  can0  18FEDF00   [8]  84 A0 28 7D 7D FF FF F5
 (002.058279)  can0  10FCFD00   [8]  FF FF FF FF 00 32 FF FF
 (002.063632)  can0  0CF00300   [8]  D1 00 0A FF FF 0F 65 7E
 (002.063642)  can0  0C010305   [8]  FF FF FF FF FF F3 FF FF
 (002.064099)  can0  0CF00203   [8]  C0 00 00 FF F7 63 16 03
 (002.065467)  can0  0CF00C03   [8]  EF 03 DD 16 FF FF FF FF
 (002.065513)  can0  18F0010B   [8]  CF FF F0 FF FF CD FF FF
 (002.067703)  can0  18F00100   [8]  FF FF FF FF FF FF FF FF
 (002.069529)  can0  0CF00400   [8]  00 7D 83 B1 16 00 0F 83
 (002.072559)  can0  18FDB300   [8]  FF FF 49 39 FF FF FF FF
 (002.073607)  can0  0CF00203   [8]  C0 00 00 FF F7 66 16 03
 (002.076140)  can0  18FEBF0B   [8]  00 00 7D 7D 7D 7D FF FF
 (002.077872)  can0  18FEDF00   [8]  84 A0 28 7D 7D FF FF F5
 (002.083013)  can0  0CF00300   [8]  D1 00 0A FF FF 0F 64 7E
 (002.083541)  can0  0CF00A00   [8]  F7 02 14 06 FF FF FF FF
 (002.084133)  can0  0CF00203   [8]  C0 00 00 FF F7 66 16 03
 (002.084709)  can0  18FEF000   [8]  FF FF FF B4 16 FF FF FF
 (002.085281)  can0  0CF00C03   [8]  EC 03 CC 16 FF FF FF FF
 (002.085858)  can0  18F00E00   [8]  44 27 FF FF D5 9F FF FF
 (002.086413)  can0  18F00503   [8]  7D 00 00 7D 4E 20 4E 43
 (002.087918)  can0  18FE4A03   [8]  03 1F 4F FF FF F3 FF FF
 (002.087928)  can0  18F03300   [8]  FF FF FF FF FF FF FF FF
 (002.090186)  can0  0CF00400   [8]  20 7D 83 9B 16 00 0F 83
 (002.093186)  can0  18FDB200   [8]  FF FF FF FF 02 00 FF FF
 (002.093196)  can0  18FCF200   [8]  E1 FF FF FF FF FF FF FF
 (002.093712)  can0  0CF00203   [8]  C0 00 00 FF F7 66 16 03
 (002.096011)  can0  18F00131   [8]  FF FF FF 3F 00 FF FF FF
 (002.096020)  can0  18FEF131   [8]  F3 FF FF C3 CC FF FF F0
 (002.096771)  can0  18FEF031   [8]  FF FF FF FF FF FC CC FF
 (002.097215)  can0  18FF4831   [8]  00 00 FF FF 00 00 00 00
 (002.097915)  can0  18FEDF00   [8]  84 A0 28 7D 7D FF FF F5
 (002.098360)  can0  18F00F00   [8]  58 10 FF FF D5 9F FF FF
 (002.098965)  can0  18FEF231   [8]  FF FF FF FF FF FF FF FF
 (002.099534)  can0  0CF00331   [8]  FF FF FF FF FF FF FF FF
 (002.103047)  can0  0CF00300   [8]  D1 00 0B FF FF 0F 64 7E
 (002.103600)  can0  0CF00203   [8]  C0 00 00 FF F7 66 16 03
 (002.104200)  can0  18FEF100   [8]  FF 00 00 FC FF 68 00 CF
 (002.104724)  can0  0CF00C03   [8]  EA 03 4A 16 FF FF FF FF
 (002.110279)  can0  0CF00400   [8]  40 7D 83 90 16 00 0F 84
 (002.112582)  can0  10FDA300   [8]  FF FF 14 FF FF FF FF FF
 (002.113155)  can0  18F00029   [8]  F0 7D 7D F3 29 FF FF 3C
 (002.113733)  can0  0C010305   [8]  FF FF FF FF FF F3 FF FF
 (002.114295)  can0  0CF00203   [8]  C0 00 00 FF F7 63 16 03
 (002.117631)  can0  18FD8C00   [8]  FF FF 01 00 FF FF FF FF
 (002.118228)  can0  18FEDF00   [8]  84 A0 28 7D 7D FF FF F5
 (002.123719)  can0  18FCDC00   [8]  9F FF FF FF 50 68 00 00
 (002.123729)  can0  0CF00300   [8]  D1 00 0C FF FF 0F 65 7E
 (002.124063)  can0  0CF00203   [8]  C0 00 00 FF F7 63 16 03
 (002.124680)  can0  1CFE9200   [8]  FF 08 8F FF FF FF 00 00
 (002.125264)  can0  0CF00C03   [8]  E9 03 71 16 FF FF FF FF
 (002.130135)  can0  0CF00400   [8]  30 7D 83 98 16 00 0F 83
 (002.132614)  can0  0CF00A00   [8]  D1 02 1D 06 FF FF FF FF
 (002.133202)  can0  18FD9400   [8]  96 0F FF FF FF FF FF FF
 (002.133754)  can0  0CF00203   [8]  C0 00 00 FF F7 5D 16 03
 (002.134332)  can0  18F00E00   [8]  44 27 FF FF D5 9F FF FF
 (002.137637)  can0  18FD2000   [8]  16 36 FF FF FF FF FF FF
 (002.138235)  can0  18F03300   [8]  FF FF FF FF FF FF FF FF
 (002.138753)  can0  18FEDF00   [8]  84 A0 28 7D 7D FF FF F5
 (002.143625)  can0  18FEE000   [8]  00 00 00 00 15 96 35 00
 (002.143634)  can0  0CF00300   [8]  D1 00 0B FF FF 0F 66 7E
 (002.144020)  can0  0CF00203   [8]  C0 00 00 FF F7 5D 16 03
 (002.144658)  can0  0CF00C03   [8]  ED 03 DA 16 FF FF FF FF
 (002.145481)  can0  0CF00331   [8]  FF FF FF FF FF FF FF FF
 (002.147655)  can0  18FEF200   [8]  11 00 00 00 00 00 E1 FF
 (002.148224)  can0  18F00F00   [8]  58 10 FF FF D5 9F FF FF
 (002.149501)  can0  0CF00400   [8]  30 7D 83 A2 16 00 0F 83
 (002.154033)  can0  0CF00203   [8]  C0 00 00 FF F7 56 16 03
 (002.157706)  can0  18FEDF00   [8]  84 A0 28 7D 7D FF FF F5
 (002.158303)  can0  10FCFD00   [8]  FF FF FF FF 00 32 FF FF
 (002.163650)  can0  18FD3E00   [8]  B3 3B FF B3 3E FF FF FF
 (002.163659)  can0  0C010305   [8]  FF FF FF FF FF F3 FF FF
 (002.164075)  can0  0CF00203   [8]  C0 00 00 FF F7 56 16 03
 (002.164657)  can0  0CF00300   [8]  D1 00 0B FF FF 0F 65 7E
 (002.165233)  can0  0CF00C03   [8]  E9 03 C2 16 FF FF FF FF
 (002.165775)  can0  18F0010B   [8]  CF FF F0 FF FF CD FF FF
 (002.167629)  can0  18F00100   [8]  FF FF FF FF FF FF FF FF
 (002.169476)  can0  0CF00400   [8]  20 7D 83 A4 16 00 0F 83
 (002.174117)  can0  0CF00203   [8]  C0 00 00 FF F7 53 16 03
 (002.176067)  can0  18FEBF0B   [8]  00 00 7D 7D 7D 7D FF FF
 (002.177683)  can0  18FEDF00   [8]  84 A0 28 7D 7D FF FF F5
 (002.182948)  can0  18FD4000   [8]  FF 3F 00 FF FF FF FF FF
 (002.183505)  can0  0CF00300   [8]  D1 00 0B FF FF 0F 64 7E
 (002.184134)  can0  0CF00203   [8]  C0 00 00 FF F7 53 16 03
 (002.184687)  can0  0CF00A00   [8]  D1 02 43 06 FF FF FF FF
 (002.185257)  can0  0CF00C03   [8]  E9 03 6D 16 FF FF FF FF
 (002.185831)  can0  18FEF000   [8]  FF FF FF A5 16 FF FF FF
 (002.186444)  can0  18F00503   [8]  7D 00 00 7D 4E 20 4E 43
 (002.186965)  can0  18F00E00   [8]  44 27 FF FF D5 9F FF FF
 (002.187561)  can0  18FE4A03   [8]  03 1F 4F FF FF F3 FF FF
 (002.188139)  can0  18F03300   [8]  FF FF FF FF FF FF FF FF
 (002.189560)  can0  0CF00400   [8]  20 7D 83 AF 16 00 0F 83
 (002.193254)  can0  18FCF200   [8]  E1 FF FF FF FF FF FF FF
 (002.193604)  can0  0CF00203   [8]  C0 00 00 FF F7 51 16 03
 (002.195967)  can0  18F00131   [8]  FF FF FF 3F 00 FF FF FF
 (002.196037)  can0  18E0FF31   [8]  00 FF FF FF FF F0 FF FF
 (002.196612)  can0  18FEF131   [8]  F3 FF FF C3 CC FF FF F0
 (002.197208)  can0  18FEF031   [8]  FF FF FF FF FF FC CC FF
 (002.197753)  can0  18FEDF00   [8]  84 A0 28 7D 7D FF FF F5
 (002.198333)  can0  18FEFC31   [8]  FF 74 FF FF FF FF 00 FF
 (002.198904)  can0  18F00F00   [8]  58 10 FF FF D5 9F FF FF
 (002.199477)  can0  18FEAE31   [8]  FF FF 6A 6A FF FF FF FF
 (002.200061)  can0  18FEF731   [8]  FF FF FF FF 1A 01 FF FF
 (002.200697)  can0  18FF4831   [8]  00 00 FF FF 00 00 00 00
 (002.201305)  can0  18FD8331   [8]  F8 FF FF FF FF FF FF FF
 (002.201913)  can0  18FEF831   [8]  FF FF FF FF FF FF FF FF
 (002.202497)  can0  18FEF231   [8]  FF FF FF FF FF FF FF FF
 (002.203070)  can0  18FEFA31   [8]  FF D3 D4 FF FF FF FF FF
 (002.203665)  can0  0CF00203   [8]  C0 00 00 FF F7 51 16 03
 (002.204235)  can0  0CF00300   [8]  D1 00 0B FF FF 0F 64 7E
 (002.204734)  can0  0CF00C03   [8]  EF 03 BE 16 FF FF FF FF
 (002.205353)  can0  18FEC131   [8]  2F 42 67 06 FF FF FF FF
 (002.205936)  can0  18FEF100   [8]  FF 00 00 FC FF 68 00 CF
 (002.206505)  can0  0CF00331   [8]  FF FF FF FF FF FF FF FF
 (002.207959)  can0  18FCC500   [8]  B3 3B FF FF FF FF FF FF
 (002.208317)  can0  0CFD9200   [8]  F4 FF FA FF FF FF FF FF
 (002.209681)  can0  0CF00400   [8]  00 7D 83 B9 16 00 0F 83
 (002.213284)  can0  10FDA300   [8]  FF FF 14 FF FF FF FF FF
 (002.213294)  can0  18F00029   [8]  F0 7D 7D F3 29 FF FF 3C
 (002.213737)  can0  0C010305   [8]  FF FF FF FF FF F3 FF FF
 (002.214398)  can0  0CF00203   [8]  C0 00 00 FF F7 51 16 03
 (002.217953)  can0  18FEDF00   [8]  84 A0 28 7D 7D FF FF F5
 (002.223672)  can0  18FCDC00   [8]  9F FF FF FF 50 68 00 00
 (002.223681)  can0  0CF00300   [8]  D1 00 0A FF FF 0F 65 7E
 (002.224064)  can0  0CF00203   [8]  C0 00 00 FF F7 51 16 03
 (002.224799)  can0  1CFE9200   [8]  FF 58 8F FF FF FF 00 00
 (002.225186)  can0  0CF00C03   [8]  EE 03 DD 16 FF FF FF FF
 (002.229467)  can0  0CF00400   [8]  10 7D 83 B0 16 00 0F 83
 (002.232654)  can0  0CF00A00   [8]  D1 02 27 06 FF FF FF FF
 (002.233220)  can0  18FD9400   [8]  30 12 FF FF FF FF FF FF
 (002.233772)  can0  0CF00203   [8]  C0 00 00 FF F7 54 16 03
 (002.234357)  can0  18FEEF00   [8]  FF FF FF 1E 42 7D FF FA
 (002.234927)  can0  18F00E00   [8]  3A 27 FF FF D5 9F FF FF
 (002.237659)  can0  18F03300   [8]  FF FF FF FF FF FF FF FF
 (002.238231)  can0  18FEDF00   [8]  84 A0 28 7D 7D FF FF F5
 (002.243463)  can0  18FEE000   [8]  00 00 00 00 15 96 35 00
 (002.243508)  can0  0CF00300   [8]  D1 00 0B FF FF 0F 64 7E
 (002.244141)  can0  0CF00203   [8]  C0 00 00 FF F7 54 16 03
 (002.244739)  can0  0CF00C03   [8]  E9 03 92 16 FF FF FF FF
 (002.246314)  can0  0CF00331   [8]  FF FF FF FF FF FF FF FF
 (002.247868)  can0  18FEF200   [8]  0D 00 00 00 00 00 E1 FF
 (002.248235)  can0  18F00F00   [8]  58 10 FF FF D5 9F FF FF
 (002.249860)  can0  0CF00400   [8]  20 7D 83 9F 16 00 0F 83
 (002.253129)  can0  18FEDB00   [8]  FF FF BA 31 FF FF FF FF
 (002.253562)  can0  0CF00203   [8]  C0 00 00 FF F7 57 16 03
 (002.258097)  can0  18FEDF00   [8]  84 A0 28 7D 7D FF FF F5
 (002.258311)  can0  10FCFD00   [8]  FF FF FF FF 00 32 FF FF
 (002.262915)  can0  0CF00300   [8]  D1 00 0B FF FF 0F 64 7E
 (002.263511)  can0  0C010305   [8]  FF FF FF FF FF F3 FF FF
 (002.264050)  can0  0CF00203   [8]  C0 00 00 FF F7 57 16 03
 (002.264661)  can0  0CF00C03   [8]  E9 03 70 16 FF FF FF FF
 (002.265993)  can0  18F0010B   [8]  CF FF F0 FF FF CD FF FF
 (002.267742)  can0  18F00100   [8]  FF FF FF FF FF FF FF FF
 (002.269581)  can0  0CF00400   [8]  40 7D 83 90 16 00 0F 83
 (002.272632)  can0  18FEF600   [8]  FF 01 64 FF FF FF FF FF
 (002.273580)  can0  0CF00203   [8]  C0 00 00 FF F7 5B 16 03
 (002.275980)  can0  18FEBF0B   [8]  00 00 7D 7D 7D 7D FF FF
 (002.277724)  can0  18FEDF00   [8]  84 A0 28 7D 7D FF FF F5
 (002.283574)  can0  0CF00300   [8]  D1 00 0B FF FF 0F 65 7E
 (002.283584)  can0  0CF00A00   [8]  D1 02 30 06 FF FF FF FF
 (002.284158)  can0  0CF00203   [8]  C0 00 00 FF F7 5B 16 03
 (002.284735)  can0  18FEF000   [8]  FF FF FF 95 16 FF FF FF
 (002.285301)  can0  0CF00C03   [8]  EE 03 C0 16 FF FF FF FF
 (002.285898)  can0  18F00E00   [8]  3A 27 FF FF D5 9F FF FF
 (002.286436)  can0  18F00503   [8]  7D 00 00 7D 4E 20 4E 43
 (002.287223)  can0  18FE4A03   [8]  03 1F 4F FF FF F3 FF FF
 (002.287661)  can0  18F03300   [8]  FF FF FF FF FF FF FF FF
 (002.289829)  can0  0CF00400   [8]  30 7D 83 99 16 00 0F 83
 (002.293066)  can0  18FCF200   [8]  E1 FF FF FF FF FF FF FF
 (002.293561)  can0  0CF00203   [8]  C0 00 00 FF F7 56 16 03
 (002.295436)  can0  18F00131   [8]  FF FF FF 3F 00 FF FF FF
 (002.296002)  can0  18FEF131   [8]  F3 FF FF C3 CC FF FF F0
 (002.296602)  can0  18FEF031   [8]  FF FF FF FF FF FC CC FF
 (002.297247)  can0  18FF4831   [8]  00 00 FF FF 00 00 00 00
 (002.297822)  can0  18FEDF00   [8]  84 A0 28 7D 7D FF FF F5
 (002.298398)  can0  18FEF231   [8]  FF FF FF FF FF FF FF FF
 (002.298985)  can0  18FDC600   [8]  FC 04 FF FF FF FF FF FF
 (002.299547)  can0  0CF00331   [8]  FF FF FF FF FF FF FF FF
 (002.300119)  can0  18F00F00   [8]  58 10 FF FF D5 9F FF FF
 (002.303084)  can0  0CF00300   [8]  D1 00 0B FF FF 0F 66 7E
 (002.303673)  can0  0CF00203   [8]  C0 00 00 FF F7 56 16 03
 (002.304197)  can0  18FEF100   [8]  FF 00 00 FC FF 68 00 CF
 (002.304800)  can0  0CF00C03   [8]  EA 03 B2 16 FF FF FF FF
 (002.309555)  can0  0CF00400   [8]  30 7D 83 9F 16 00 0F 83
 (002.313264)  can0  10FDA300   [8]  FF FF 14 FF FF FF FF FF
 (002.313274)  can0  18F00029   [8]  F0 7D 7D F3 29 FF FF 3C
 (002.313737)  can0  0C010305   [8]  FF FF FF FF FF F3 FF FF
 (002.314365)  can0  0CF00203   [8]  C0 00 00 FF F7 53 16 03
 (002.317923)  can0  18FEDF00   [8]  84 A0 28 7D 7D FF FF F5
 (002.323642)  can0  18FCDC00   [8]  9F FF FF FF 50 68 00 00
 (002.323652)  can0  0CF00300   [8]  D1 00 0B FF FF 0F 66 7E
 (002.324108)  can0  0CF00203   [8]  C0 00 00 FF F7 53 16 03
 (002.324773)  can0  1CFE9200   [8]  FF FC 8E FF FF FF 00 00
 (002.325251)  can0  0CF00C03   [8]  EA 03 7D 16 FF FF FF FF
 (002.329472)  can0  0CF00400   [8]  20 7D 83 A9 16 00 0F 83
 (002.332783)  can0  0CF00A00   [8]  E4 02 27 06 FF FF FF FF
 (002.333329)  can0  18FD9400   [8]  96 0F FF FF FF FF FF FF
 (002.333884)  can0  0CF00203   [8]  C0 00 00 FF F7 51 16 03
 (002.334484)  can0  18F00E00   [8]  3A 27 FF FF D5 9F FF FF
 (002.337660)  can0  18F03300   [8]  FF FF FF FF FF FF FF FF
 (002.338229)  can0  18FEDF00   [8]  84 A0 28 7D 7D FF FF F5
 (002.343612)  can0  18FEF700   [8]  FF FF FF FF 1A 01 FF FF
 (002.343622)  can0  18FEE000   [8]  00 00 00 00 15 96 35 00
 (002.344085)  can0  0CF00203   [8]  C0 00 00 FF F7 51 16 03
 (002.344614)  can0  0CF00300   [8]  D1 00 0B FF FF 0F 64 7E
 (002.345204)  can0  0CF00C03   [8]  EC 03 B3 16 FF FF FF FF
 (002.345816)  can0  0CF00331   [8]  FF FF FF FF FF FF FF FF
 (002.347983)  can0  18FEF200   [8]  12 00 00 00 00 00 E1 FF
 (002.348289)  can0  18F00F00   [8]  58 10 FF FF D5 9F FF FF
 (002.349886)  can0  0CF00400   [8]  10 7D 83 B4 16 00 0F 83
 (002.353983)  can0  0CF00203   [8]  C0 00 00 FF F7 54 16 03
 (002.357637)  can0  18FEDF00   [8]  84 A0 28 7D 7D FF FF F5
