 (000.000000)  can0  18FD4000   [8]  FF 3F 00 FF FF FF FF FF
 (000.000011)  can0  0C010305   [8]  FF FF FF FF FF F3 FF FF
 (000.000015)  can0  0CF00300   [8]  D1 00 0C FF FF 0F 69 7E
 (000.000527)  can0  0CF00331   [8]  FF FF FF FF FF FF FF FF
 (000.001061)  can0  0CF00A00   [8]  4B 03 C9 05 FF FF FF FF
 (000.001647)  can0  18F0010B   [8]  CF FF F0 FF FF CD FF FF
 (000.002188)  can0  18FEF000   [8]  FF FF FF AA 16 FF FF FF
 (000.002737)  can0  18F00E00   [8]  C4 25 FF FF D5 9F FF FF
 (000.003346)  can0  1CECFF00   [8]  20 0E 00 02 FF CA FE 00
 (000.003900)  can0  0CF00203   [8]  C0 00 00 FF F7 5F 16 03
 (000.004541)  can0  18F03300   [8]  FF FF FF FF FF FF FF FF
 (000.005102)  can0  0CF00C03   [8]  E9 03 8E 16 FF FF FF FF
 (000.005685)  can0  0CF00400   [8]  00 7D 84 8D 16 00 0F 84
 (000.008392)  can0  18FCF200   [8]  E1 FF FF FF FF FF FF FF
 (000.010881)  can0  18FEBF0B   [8]  00 00 7D 7D 7D 7D FF FF
 (000.013520)  can0  18FEDF00   [8]  84 A0 28 7D 7D FF FF F5
 (000.014107)  can0  0CF00203   [8]  C0 00 00 FF F7 5F 16 03
 (000.014690)  can0  18F00F00   [8]  76 0F FF FF D5 9F FF FF
 (000.018839)  can0  0CF00300   [8]  D1 00 0C FF FF 0F 6A 7E
 (000.019412)  can0  18FEF100   [8]  FF 00 00 FC FF 68 00 CF
 (000.023457)  can0  18FCC500   [8]  43 40 FF FF FF FF FF FF
 (000.024054)  can0  0CF00203   [8]  C0 00 00 FF F7 5F 16 03
 (000.024648)  can0  0CFD9200   [8]  F4 FF FA FF FF FF FF FF
 (000.025191)  can0  0CF00C03   [8]  EA 03 59 16 FF FF FF FF
 (000.025772)  can0  0CF00400   [8]  60 7D 83 9E 16 00 0F 84
 (000.028830)  can0  10FDA300   [8]  FF FF 14 FF FF FF FF FF
 (000.028952)  can0  18F00029   [8]  F0 7D 7D F3 29 FF FF 3C
 (000.033481)  can0  18FEDF00   [8]  84 A0 28 7D 7D FF FF F5
 (000.033960)  can0  0CF00203   [8]  C0 00 00 FF F7 5A 16 03
 (000.038820)  can0  18FCDC00   [8]  9F FF FF FF 50 68 00 00
 (000.039372)  can0  0CF00300   [8]  D1 00 0C FF FF 0F 6B 7E
 (000.040009)  can0  1CFE9200   [8]  FF 00 8F FF FF FF 00 00
 (000.044393)  can0  0CF00203   [8]  C0 00 00 FF F7 5A 16 03
 (000.044459)  can0  0CF00C03   [8]  ED 03 D0 16 FF FF FF FF
 (000.045135)  can0  18F00503   [8]  7D 00 00 7D 4E 20 4E 43
 (000.045692)  can0  0CF00400   [8]  50 7D 83 A3 16 00 0F 84
 (000.046265)  can0  18FE4A03   [8]  03 1F 4F FF FF F3 FF FF
 (000.048417)  can0  0CF00A00   [8]  42 03 B6 05 FF FF FF FF
 (000.049014)  can0  18FD9400   [8]  30 12 FF FF FF FF FF FF
 (000.049586)  can0  0C010305   [8]  FF FF FF FF FF F3 FF FF
 (000.050183)  can0  18F00131   [8]  FF FF FF 3F 00 FF FF FF
 (000.050732)  can0  18FEEF00   [8]  FF FF FF 1F 3F 7D FF FA
 (000.051307)  can0  18F00E00   [8]  C4 25 FF FF D5 9F FF FF
 (000.051884)  can0  18FEF131   [8]  F3 FF FF C3 CC FF FF F0
 (000.052459)  can0  1CEBFF00   [8]  01 43 FF BF 00 09 08 54
 (000.053035)  can0  18FEF031   [8]  FF FF FF FF FF FC CC FF
 (000.053607)  can0  18F03300   [8]  FF FF FF FF FF FF FF FF
 (000.054182)  can0  0CF00203   [8]  C0 00 00 FF F7 52 16 03
 (000.054733)  can0  18FEDF00   [8]  84 A0 28 7D 7D FF FF F5
 (000.055331)  can0  18FF4831   [8]  00 00 FF FF 00 00 00 00
 (000.055935)  can0  18FEF231   [8]  FF FF FF FF FF FF FF FF
 (000.056540)  can0  0CF00331   [8]  FF FF FF FF FF FF FF FF
 (000.058860)  can0  18FEE000   [8]  00 00 00 00 15 96 35 00
 (000.059467)  can0  0CF00300   [8]  D1 00 0C FF FF 0F 6A 7E
 (000.063726)  can0  18FEF200   [8]  0D 00 00 00 00 00 E1 FF
 (000.064045)  can0  0CF00203   [8]  C0 00 00 FF F7 52 16 03
 (000.064705)  can0  18F00F00   [8]  76 0F FF FF D5 9F FF FF
 (000.065175)  can0  0CF00C03   [8]  EC 03 E4 16 FF FF FF FF
 (000.065739)  can0  0CF00400   [8]  50 7D 83 AB 16 00 0F 84
 (000.068443)  can0  18FEDB00   [8]  FF FF BD 31 FF FF FF FF
 (000.074010)  can0  18FEDF00   [8]  84 A0 28 7D 7D FF FF F5
 (000.074020)  can0  0CF00203   [8]  C0 00 00 FF F7 4E 16 03
 (000.074604)  can0  10FCFD00   [8]  FF FF FF FF 00 32 FF FF
 (000.079537)  can0  0CF00300   [8]  D1 00 0C FF FF 0F 69 7E
 (000.083427)  can0  18F00100   [8]  FF FF FF FF FF FF FF FF
 (000.083958)  can0  0CF00203   [8]  C0 00 00 FF F7 4E 16 03
 (000.084600)  can0  0CF00C03   [8]  E9 03 6E 16 FF FF FF FF
 (000.085307)  can0  0CF00400   [8]  40 7D 83 BE 16 00 0F 83
 (000.088404)  can0  18FEF600   [8]  FF 01 65 FF FF FF FF FF
 (000.094015)  can0  18FEDF00   [8]  84 A0 28 7D 7D FF FF F5
 (000.094025)  can0  0CF00203   [8]  C0 00 00 FF F7 4F 16 03
 (000.099459)  can0  0CF00300   [8]  D1 00 0B FF FF 0F 69 7E
 (000.099470)  can0  0C010305   [8]  FF FF FF FF FF F3 FF FF
 (000.099966)  can0  0CF00331   [8]  FF FF FF FF FF FF FF FF
 (000.100525)  can0  0CF00A00   [8]  42 03 D2 05 FF FF FF FF
 (000.101104)  can0  18F0010B   [8]  CF FF F0 FF FF CD FF FF
 (000.101679)  can0  18FEF000   [8]  FF FF FF B3 16 FF FF FF
 (000.102243)  can0  18F00E00   [8]  D2 25 FF FF D5 9F FF FF
 (000.103506)  can0  18F03300   [8]  FF FF FF FF FF FF FF FF
 (000.104013)  can0  0CF00203   [8]  C0 00 00 FF F7 4F 16 03
 (000.104608)  can0  0CF00C03   [8]  EC 03 A3 16 FF FF FF FF
 (000.106168)  can0  0CF00400   [8]  20 7D 83 C8 16 00 0F 83
 (000.106177)  can0  1CEBFF00   [8]  02 00 09 08 ED 14 1F 01
 (000.108676)  can0  18FCF200   [8]  E1 FF FF FF FF FF FF FF
 (000.110156)  can0  18FEBF0B   [8]  00 00 7D 7D 7D 7D FF FF
 (000.114021)  can0  18FEDF00   [8]  84 A0 28 7D 7D FF FF F5
 (000.114030)  can0  0CF00203   [8]  C0 00 00 FF F7 55 16 03
 (000.114637)  can0  18FDC600   [8]  FC 04 FF FF FF FF FF FF
 (000.115194)  can0  18F00F00   [8]  76 0F FF FF D5 9F FF FF
 (000.118760)  can0  0CF00300   [8]  D1 00 0B FF FF 0F 6A 7E
 (000.119307)  can0  18FEF100   [8]  FF 00 00 FC FF 68 00 CF
 (000.123895)  can0  0CF00203   [8]  C0 00 00 FF F7 55 16 03
 (000.124503)  can0  0CF00C03   [8]  F0 03 F9 16 FF FF FF FF
 (000.125298)  can0  0CF00400   [8]  20 7D 83 BE 16 00 0F 83
 (000.128562)  can0  10FDA300   [8]  FF FF 15 FF FF FF FF FF
 (000.128976)  can0  18F00029   [8]  F0 7D 7D F3 29 FF FF 3C
 (000.133957)  can0  18FEDF00   [8]  84 A0 28 7D 7D FF FF F5
 (000.133966)  can0  0CF00203   [8]  C0 00 00 FF F7 57 16 03
 (000.139624)  can0  18FCDC00   [8]  9F FF FF FF 50 68 00 00
 (000.139636)  can0  0CF00300   [8]  D1 00 0B FF FF 0F 69 7E
 (000.139991)  can0  1CFE9200   [8]  FF 64 8F FF FF FF 00 00
 (000.144404)  can0  0CF00203   [8]  C0 00 00 FF F7 57 16 03
 (000.144484)  can0  0CF00C03   [8]  EC 03 C2 16 FF FF FF FF
 (000.145258)  can0  18F00503   [8]  7D 00 00 7D 4E 20 4E 43
 (000.145685)  can0  0CF00400   [8]  30 7D 83 AC 16 00 0F 83
 (000.146267)  can0  18FE4A03   [8]  03 1F 4F FF FF F3 FF FF
 (000.148492)  can0  0CF00A00   [8]  42 03 D2 05 FF FF FF FF
 (000.149063)  can0  18FD9400   [8]  30 12 FF FF FF FF FF FF
 (000.149698)  can0  0C010305   [8]  FF FF FF FF FF F3 FF FF
 (000.150215)  can0  18F00131   [8]  FF FF FF 3F 00 FF FF FF
 (000.150788)  can0  18F00E00   [8]  D2 25 FF FF D5 9F FF FF
 (000.151362)  can0  18FEF131   [8]  F3 FF FF C3 CC FF FF F0
 (000.151948)  can0  18FEF031   [8]  FF FF FF FF FF FC CC FF
 (000.152536)  can0  18FF4831   [8]  00 00 FF FF 00 00 00 00
 (000.153141)  can0  18FEF231   [8]  FF FF FF FF FF FF FF FF
 (000.153730)  can0  18F03300   [8]  FF FF FF FF FF FF FF FF
 (000.154280)  can0  0CF00203   [8]  C0 00 00 FF F7 5B 16 03
 (000.154857)  can0  0CF00331   [8]  FF FF FF FF FF FF FF FF
 (000.155459)  can0  18FEDF00   [8]  84 A0 28 7D 7D FF FF F5
 (000.158836)  can0  18FEE000   [8]  00 00 00 00 15 96 35 00
 (000.159384)  can0  0CF00300   [8]  D1 00 0B FF FF 0F 69 7E
 (000.163520)  can0  18FEF200   [8]  12 00 00 00 00 00 E1 FF
 (000.164099)  can0  0CF00203   [8]  C0 00 00 FF F7 5B 16 03
 (000.164659)  can0  18F00F00   [8]  76 0F FF FF D5 9F FF FF
 (000.165233)  can0  0CF00C03   [8]  E9 03 4B 16 FF FF FF FF
 (000.165783)  can0  0CF00400   [8]  60 7D 83 93 16 00 0F 84
 (000.174023)  can0  18FEDF00   [8]  84 A0 28 7D 7D FF FF F5
 (000.174033)  can0  0CF00203   [8]  C0 00 00 FF F7 5E 16 03
 (000.174605)  can0  10FCFD00   [8]  FF FF FF FF 00 32 FF FF
 (000.179683)  can0  0CF00300   [8]  D1 00 0C FF FF 0F 69 7E
 (000.183443)  can0  18F00100   [8]  FF FF FF FF FF FF FF FF
 (000.183990)  can0  0CF00203   [8]  C0 00 00 FF F7 5E 16 03
 (000.184618)  can0  0CF00C03   [8]  EC 03 9E 16 FF FF FF FF
 (000.185258)  can0  0CF00400   [8]  60 7D 83 9C 16 00 0F 84
 (000.193451)  can0  18FEDF00   [8]  84 A0 28 7D 7D FF FF F5
 (000.194025)  can0  0CF00203   [8]  C0 00 00 FF F7 60 16 03
 (000.199540)  can0  0CF00300   [8]  D1 00 0C FF FF 0F 6A 7E
 (000.199551)  can0  0C010305   [8]  FF FF FF FF FF F3 FF FF
 (000.199902)  can0  0CF00331   [8]  FF FF FF FF FF FF FF FF
 (000.200496)  can0  0CF00A00   [8]  2F 03 C9 05 FF FF FF FF
 (000.201074)  can0  18F0010B   [8]  CF FF F0 FF FF CD FF FF
 (000.201646)  can0  18FEF000   [8]  FF FF FF 96 16 FF FF FF
 (000.202227)  can0  18F00E00   [8]  D2 25 FF FF D5 9F FF FF
 (000.203865)  can0  18F03300   [8]  FF FF FF FF FF FF FF FF
 (000.204074)  can0  0CF00203   [8]  C0 00 00 FF F7 60 16 03
 (000.204688)  can0  0CF00C03   [8]  EB 03 CE 16 FF FF FF FF
 (000.205363)  can0  0CF00400   [8]  50 7D 83 A1 16 00 0F 84
 (000.208697)  can0  18FCF200   [8]  E1 FF FF FF FF FF FF FF
 (000.210444)  can0  18FEBF0B   [8]  00 00 7D 7D 7D 7D FF FF
 (000.213536)  can0  18FEDF00   [8]  84 A0 28 7D 7D FF FF F5
 (000.214087)  can0  0CF00203   [8]  C0 00 00 FF F7 58 16 03
 (000.214692)  can0  18F00F00   [8]  76 0F FF FF D5 9F FF FF
 (000.218804)  can0  0CF00300   [8]  D1 00 0C FF FF 0F 6A 7E
 (000.219409)  can0  18FEF100   [8]  FF 00 00 FC FF 68 00 CF
 (000.223897)  can0  0CF00203   [8]  C0 00 00 FF F7 58 16 03
 (000.224489)  can0  0CF00C03   [8]  EA 03 A6 16 FF FF FF FF
 (000.225269)  can0  0CF00400   [8]  50 7D 83 AB 16 00 0F 84
 (000.228721)  can0  10FDA300   [8]  FF FF 14 FF FF FF FF FF
 (000.229013)  can0  18F00029   [8]  F0 7D 7D F3 29 FF FF 3C
 (000.233891)  can0  18FEDF00   [8]  84 A0 28 7D 7D FF FF F5
 (000.233942)  can0  0CF00203   [8]  C0 00 00 FF F7 52 16 03
 (000.239630)  can0  18FCDC00   [8]  9F FF FF FF 50 68 00 00
 (000.239640)  can0  0CF00300   [8]  D1 00 0C FF FF 0F 69 7E
 (000.239957)  can0  1CFE9200   [8]  FF D8 8E FF FF FF 00 00
 (000.244195)  can0  0CF00203   [8]  C0 00 00 FF F7 52 16 03
 (000.244507)  can0  0CF00C03   [8]  EA 03 68 16 FF FF FF FF
 (000.245126)  can0  18F00503   [8]  7D 00 00 7D 4E 20 4E 43
 (000.245678)  can0  0CF00400   [8]  40 7D 83 B5 16 00 0F 84
 (000.246234)  can0  18FE4A03   [8]  03 1F 4F FF FF F3 FF FF
 (000.246843)  can0  18FD9503   [8]  CC FF FF AF FF FF FF FF
 (000.247509)  can0  18FEF803   [8]  FF FF FF FF E2 2B FF FF
 (000.248533)  can0  0CF00A00   [8]  26 03 EE 05 FF FF FF FF
 (000.249111)  can0  18FD9400   [8]  30 12 FF FF FF FF FF FF
 (000.249708)  can0  0C010305   [8]  FF FF FF FF FF F3 FF FF
 (000.250258)  can0  18F00131   [8]  FF FF FF 3F 00 FF FF FF
 (000.250834)  can0  18F00E00   [8]  D2 25 FF FF D5 9F FF FF
 (000.251408)  can0  18FEF131   [8]  F3 FF FF C3 CC FF FF F0
 (000.251984)  can0  18FEF031   [8]  FF FF FF FF FF FC CC FF
 (000.252556)  can0  18FF4831   [8]  00 00 FF FF 00 00 00 00
 (000.253180)  can0  18FEF231   [8]  FF FF FF FF FF FF FF FF
 (000.253761)  can0  18F03300   [8]  FF FF FF FF FF FF FF FF
 (000.254279)  can0  0CF00203   [8]  C0 00 00 FF F7 54 16 03
 (000.254918)  can0  0CF00331   [8]  FF FF FF FF FF FF FF FF
 (000.255499)  can0  18FEDF00   [8]  84 A0 28 7D 7D FF FF F5
 (000.258843)  can0  18FEE000   [8]  00 00 00 00 15 96 35 00
 (000.259437)  can0  0CF00300   [8]  D1 00 0C FF FF 0F 69 7E
 (000.264168)  can0  18FEF200   [8]  0D 00 00 00 00 00 E1 FF
 (000.264180)  can0  0CF00203   [8]  C0 00 00 FF F7 54 16 03
 (000.264713)  can0  18F00F00   [8]  76 0F FF FF D5 9F FF FF
 (000.265220)  can0  0CF00C03   [8]  EF 03 E7 16 FF FF FF FF
 (000.265784)  can0  0CF00400   [8]  30 7D 83 C7 16 00 0F 83
 (000.274004)  can0  18FEDF00   [8]  84 A0 28 7D 7D FF FF F5
 (000.274014)  can0  0CF00203   [8]  C0 00 00 FF F7 59 16 03
 (000.274601)  can0  10FCFD00   [8]  FF FF FF FF 00 32 FF FF
 (000.275232)  can0  18FECA03   [8]  00 FF 00 00 00 00 FF FF
 (000.275793)  can0  0CFD9200   [8]  F4 FF FA FF FF FF FF FF
 (000.278798)  can0  0CF00300   [8]  D1 00 0B FF FF 0F 69 7E
 (000.283458)  can0  18F00100   [8]  FF FF FF FF FF FF FF FF
 (000.284040)  can0  0CF00203   [8]  C0 00 00 FF F7 59 16 03
 (000.284665)  can0  0CF00C03   [8]  EC 03 D3 16 FF FF FF FF
 (000.285333)  can0  0CF00400   [8]  20 7D 83 C1 16 00 0F 83
 (000.293472)  can0  18FEDF00   [8]  84 A0 28 7D 7D FF FF F5
 (000.294009)  can0  0CF00203   [8]  C0 00 00 FF F7 5A 16 03
 (000.299390)  can0  0CF00300   [8]  D1 00 0B FF FF 0F 69 7E
 (000.299400)  can0  0C010305   [8]  FF FF FF FF FF F3 FF FF
 (000.299988)  can0  0CF00331   [8]  FF FF FF FF FF FF FF FF
 (000.300561)  can0  0CF00A00   [8]  26 03 DC 05 FF FF FF FF
 (000.301126)  can0  18F0010B   [8]  CF FF F0 FF FF CD FF FF
 (000.302140)  can0  18FEF000   [8]  FF FF FF C6 16 FF FF FF
 (000.302231)  can0  18F00E00   [8]  DE 25 FF FF D5 9F FF FF
 (000.303447)  can0  18F03300   [8]  FF FF FF FF FF FF FF FF
 (000.304074)  can0  0CF00203   [8]  C0 00 00 FF F7 5A 16 03
 (000.304684)  can0  0CF00C03   [8]  E9 03 7C 16 FF FF FF FF
 (000.305500)  can0  0CF00400   [8]  30 7D 83 B0 16 00 0F 83
 (000.308729)  can0  18FCF200   [8]  E1 FF FF FF FF FF FF FF
 (000.310260)  can0  18FEBF0B   [8]  00 00 7D 7D 7D 7D FF FF
 (000.313535)  can0  18FEDF00   [8]  84 A0 28 7D 7D FF FF F5
 (000.314108)  can0  0CF00203   [8]  C0 00 00 FF F7 5A 16 03
 (000.314688)  can0  18F00F00   [8]  76 0F FF FF D5 9F FF FF
 (000.318784)  can0  0CF00300   [8]  D1 00 0B FF FF 0F 68 7E
 (000.319367)  can0  18FEF100   [8]  FF 00 00 FC FF 68 00 CF
 (000.324467)  can0  0CF00203   [8]  C0 00 00 FF F7 5A 16 03
 (000.324477)  can0  0CF00C03   [8]  EC 03 80 16 FF FF FF FF
 (000.325290)  can0  0CF00400   [8]  50 7D 83 97 16 00 0F 84
 (000.328675)  can0  10FDA300   [8]  FF FF 14 FF FF FF FF FF
 (000.328989)  can0  18F00029   [8]  F0 7D 7D F3 29 FF FF 3C
 (000.333955)  can0  18FEDF00   [8]  84 A0 28 7D 7D FF FF F5
 (000.334006)  can0  0CF00203   [8]  C0 00 00 FF F7 5D 16 03
 (000.339620)  can0  18FCDC00   [8]  9F FF FF FF 50 68 00 00
 (000.339630)  can0  0CF00300   [8]  D1 00 0C FF FF 0F 68 7E
 (000.339986)  can0  1CFE9200   [8]  FF AC 8F FF FF FF 00 00
 (000.343887)  can0  0CF00203   [8]  C0 00 00 FF F7 5D 16 03
 (000.344492)  can0  0CF00C03   [8]  ED 03 D0 16 FF FF FF FF
 (000.345111)  can0  18F00503   [8]  7D 00 00 7D 4E 20 4E 43
 (000.345682)  can0  0CF00400   [8]  70 7D 83 9B 16 00 0F 84
 (000.346233)  can0  18FE4A03   [8]  03 1F 4F FF FF F3 FF FF
 (000.348534)  can0  14FC9800   [8]  FF 00 00 00 00 00 00 FF
 (000.349092)  can0  0CF00A00   [8]  0A 03 F8 05 FF FF FF FF
 (000.349702)  can0  0C010305   [8]  FF FF FF FF FF F3 FF FF
 (000.350263)  can0  18F00131   [8]  FF FF FF 3F 00 FF FF FF
 (000.350851)  can0  18FD9400   [8]  96 0F FF FF FF FF FF FF
 (000.351385)  can0  18F00E00   [8]  DE 25 FF FF D5 9F FF FF
 (000.351958)  can0  18FEF131   [8]  F3 FF FF C3 CC FF FF F0
 (000.352535)  can0  18FEF031   [8]  FF FF FF FF FF FC CC FF
 (000.353154)  can0  18FF4831   [8]  00 00 FF FF 00 00 00 00
 (000.353701)  can0  18F03300   [8]  FF FF FF FF FF FF FF FF
 (000.354324)  can0  0CF00203   [8]  C0 00 00 FF F7 60 16 03
 (000.354890)  can0  18FEDF00   [8]  84 A0 28 7D 7D FF FF F5
 (000.355462)  can0  18FEF231   [8]  FF FF FF FF FF FF FF FF
 (000.356076)  can0  0CF00331   [8]  FF FF FF FF FF FF FF FF
 (000.358866)  can0  18FEE000   [8]  00 00 00 00 15 96 35 00
 (000.359413)  can0  0CF00300   [8]  D1 00 0C FF FF 0F 69 7E
 (000.364154)  can0  18FDB400   [8]  CC 39 76 3B FF FF FF FF
 (000.364166)  can0  0CF00203   [8]  C0 00 00 FF F7 60 16 03
 (000.364661)  can0  18FEF200   [8]  12 00 00 00 00 00 E1 FF
 (000.365339)  can0  0CF00C03   [8]  E9 03 8E 16 FF FF FF FF
 (000.365800)  can0  18F00F00   [8]  76 0F FF FF D5 9F FF FF
 (000.366366)  can0  0CF00400   [8]  60 7D 83 9A 16 00 0F 84
 (000.373997)  can0  18FEDF00   [8]  84 A0 28 7D 7D FF FF F5
 (000.374006)  can0  0CF00203   [8]  C0 00 00 FF F7 59 16 03
 (000.374623)  can0  10FCFD00   [8]  FF FF FF FF 00 32 FF FF
 (000.378836)  can0  0CF00300   [8]  D1 00 0C FF FF 0F 6B 7E
 (000.383650)  can0  18F00100   [8]  FF FF FF FF FF FF FF FF
 (000.383996)  can0  0CF00203   [8]  C0 00 00 FF F7 59 16 03
 (000.384634)  can0  0CF00C03   [8]  EA 03 72 16 FF FF FF FF
 (000.385282)  can0  0CF00400   [8]  50 7D 83 A9 16 00 0F 84
 (000.388491)  can0  18FDB300   [8]  FF FF 76 3F FF FF FF FF
 (000.390117)  can0  18FECA31   [8]  00 FF 00 00 00 00 FF FF
 (000.390739)  can0  18F11031   [8]  00 00 FF FF FF FF FF FF
 (000.394059)  can0  18FEDF00   [8]  84 A0 28 7D 7D FF FF F5
 (000.394068)  can0  0CF00203   [8]  C0 00 00 FF F7 53 16 03
 (000.399260)  can0  0CF00300   [8]  D1 00 0C FF FF 0F 6A 7E
 (000.399344)  can0  0C010305   [8]  FF FF FF FF FF F3 FF FF
 (000.400015)  can0  0CF00331   [8]  FF FF FF FF FF FF FF FF
 (000.400525)  can0  0CF00A00   [8]  F7 02 0A 06 FF FF FF FF
 (000.401090)  can0  18F0010B   [8]  CF FF F0 FF FF CD FF FF
 (000.401701)  can0  18FEF000   [8]  FF FF FF A3 16 FF FF FF
 (000.402241)  can0  18F00E00   [8]  DE 25 FF FF D5 9F FF FF
 (000.403803)  can0  18F03300   [8]  FF FF FF FF FF FF FF FF
 (000.404106)  can0  0CF00203   [8]  C0 00 00 FF F7 53 16 03
 (000.404674)  can0  0CF00C03   [8]  ED 03 E1 16 FF FF FF FF
 (000.405438)  can0  0CF00400   [8]  40 7D 83 AF 16 00 0F 84
 (000.408433)  can0  18FDB200   [8]  FF FF FF FF 01 00 FF FF
 (000.409007)  can0  18FCF200   [8]  E1 FF FF FF FF FF FF FF
 (000.410456)  can0  18FEBF0B   [8]  00 00 7D 7D 7D 7D FF FF
 (000.413566)  can0  18FEDF00   [8]  84 A0 28 7D 7D FF FF F5
 (000.414113)  can0  0CF00203   [8]  C0 00 00 FF F7 53 16 03
 (000.414693)  can0  18F00F00   [8]  76 0F FF FF D5 9F FF FF
 (000.418869)  can0  0CF00300   [8]  D1 00 0C FF FF 0F 69 7E
 (000.419430)  can0  18FEF100   [8]  FF 00 00 FC FF 68 00 CF
 (000.424039)  can0  0CF00203   [8]  C0 00 00 FF F7 53 16 03
 (000.424454)  can0  0CF00C03   [8]  EE 03 FA 16 FF FF FF FF
 (000.426033)  can0  0CF00400   [8]  40 7D 83 BA 16 00 0F 83
 (000.428813)  can0  10FDA300   [8]  FF FF 14 FF FF FF FF FF
 (000.429010)  can0  18F00029   [8]  F0 7D 7D F3 29 FF FF 3C
 (000.433998)  can0  18FD8C00   [8]  FF FF 00 00 FF FF FF FF
 (000.434009)  can0  0CF00203   [8]  C0 00 00 FF F7 56 16 03
 (000.434626)  can0  18FEDF00   [8]  84 A0 28 7D 7D FF FF F5
 (000.439402)  can0  18FCDC00   [8]  9F FF FF FF 50 68 00 00
 (000.439413)  can0  0CF00300   [8]  D1 00 0B FF FF 0F 6A 7E
 (000.439968)  can0  1CFE9200   [8]  FF 40 90 FF FF FF 00 00
 (000.443859)  can0  0CF00203   [8]  C0 00 00 FF F7 56 16 03
 (000.444433)  can0  0CF00C03   [8]  E9 03 89 16 FF FF FF FF
 (000.445035)  can0  18F00503   [8]  7D 00 00 7D 4E 20 4E 43
 (000.445643)  can0  0CF00400   [8]  40 7D 83 B7 16 00 0F 83
 (000.446242)  can0  18FE4A03   [8]  03 1F 4F FF FF F3 FF FF
 (000.448535)  can0  0CF00A00   [8]  F7 02 01 06 FF FF FF FF
 (000.449063)  can0  18FD9400   [8]  96 0F FF FF FF FF FF FF
 (000.449736)  can0  0C010305   [8]  FF FF FF FF FF F3 FF FF
 (000.450225)  can0  18F00131   [8]  FF FF FF 3F 00 FF FF FF
 (000.450747)  can0  18F00E00   [8]  DE 25 FF FF D5 9F FF FF
 (000.451361)  can0  18FEF131   [8]  F3 FF FF C3 CC FF FF F0
 (000.451939)  can0  18FEF031   [8]  FF FF FF FF FF FC CC FF
 (000.452561)  can0  18FF4831   [8]  00 00 FF FF 00 00 00 00
 (000.453138)  can0  18FEF231   [8]  FF FF FF FF FF FF FF FF
 (000.453682)  can0  18FD2000   [8]  CC 39 FF FF FF FF FF FF
 (000.454293)  can0  0CF00203   [8]  C0 00 00 FF F7 59 16 03
 (000.454879)  can0  0CF00331   [8]  FF FF FF FF FF FF FF FF
 (000.455460)  can0  18F03300   [8]  FF FF FF FF FF FF FF FF
 (000.456051)  can0  18FEDF00   [8]  84 A0 28 7D 7D FF FF F5
 (000.459603)  can0  18FEE000   [8]  00 00 00 00 15 96 35 00
 (000.459612)  can0  0CF00300   [8]  D1 00 0B FF FF 0F 6A 7E
 (000.464100)  can0  18FEF200   [8]  12 00 00 00 00 00 E1 FF
 (000.464110)  can0  0CF00203   [8]  C0 00 00 FF F7 59 16 03
 (000.464707)  can0  18F00F00   [8]  76 0F FF FF D5 9F FF FF
 (000.465235)  can0  0CF00C03   [8]  EB 03 6F 16 FF FF FF FF
 (000.465783)  can0  0CF00400   [8]  40 7D 83 B0 16 00 0F 84
 (000.473530)  can0  18FEDF00   [8]  84 A0 28 7D 7D FF FF F5
 (000.474065)  can0  0CF00203   [8]  C0 00 00 FF F7 59 16 03
 (000.474688)  can0  10FCFD00   [8]  FF FF FF FF 00 32 FF FF
 (000.478803)  can0  18FD3E00   [8]  43 40 FF 03 40 FF FF FF
 (000.479381)  can0  0CF00300   [8]  D1 00 0C FF FF 0F 69 7E
 (000.483662)  can0  18F00100   [8]  FF FF FF FF FF FF FF FF
 (000.484044)  can0  0CF00203   [8]  C0 00 00 FF F7 59 16 03
 (000.484658)  can0  0CF00C03   [8]  EE 03 CF 16 FF FF FF FF
 (000.485324)  can0  0CF00400   [8]  60 7D 83 93 16 00 0F 84
 (000.493525)  can0  18FEDF00   [8]  84 A0 28 7D 7D FF FF F5
 (000.494019)  can0  0CF00203   [8]  C0 00 00 FF F7 5A 16 03
 (000.499366)  can0  18FD4000   [8]  FF 3F 00 FF FF FF FF FF
 (000.499383)  can0  0C010305   [8]  FF FF FF FF FF F3 FF FF
 (000.500018)  can0  0CF00300   [8]  D1 00 0C FF FF 0F 69 7E
 (000.500545)  can0  0CF00331   [8]  FF FF FF FF FF FF FF FF
 (000.501172)  can0  0CF00A00   [8]  F7 02 14 06 FF FF FF FF
 (000.501675)  can0  18F0010B   [8]  CF FF F0 FF FF CD FF FF
 (000.502291)  can0  18FEF000   [8]  FF FF FF A4 16 FF FF FF
 (000.502859)  can0  18F00E00   [8]  DE 25 FF FF D5 9F FF FF
 (000.504271)  can0  18F03300   [8]  FF FF FF FF FF FF FF FF
 (000.504279)  can0  0CF00203   [8]  C0 00 00 FF F7 5A 16 03
 (000.504637)  can0  0CF00C03   [8]  EA 03 BC 16 FF FF FF FF
 (000.505363)  can0  0CF00400   [8]  10 7D 84 8D 16 00 0F 84
 (000.508436)  can0  18FCF200   [8]  E1 FF FF FF FF FF FF FF
 (000.510640)  can0  18FEBF0B   [8]  00 00 7D 7D 7D 7D FF FF
 (000.513906)  can0  18FEDF00   [8]  84 A0 28 7D 7D FF FF F5
 (000.514084)  can0  0CF00203   [8]  C0 00 00 FF F7 58 16 03
 (000.515040)  can0  18F00F00   [8]  6C 0F FF FF D5 9F FF FF
 (000.518842)  can0  0CF00300   [8]  D1 00 0D FF FF 0F 6A 7E
 (000.519445)  can0  18FEF100   [8]  FF 00 00 FC FF 68 00 CF
 (000.523674)  can0  18FCC500   [8]  43 40 FF FF FF FF FF FF
 (000.524064)  can0  0CF00203   [8]  C0 00 00 FF F7 58 16 03
 (000.524712)  can0  0CFD9200   [8]  F4 FF FA FF FF FF FF FF
 (000.525232)  can0  0CF00C03   [8]  EA 03 4F 16 FF FF FF FF
 (000.525795)  can0  0CF00400   [8]  70 7D 83 99 16 00 0F 84
 (000.528819)  can0  10FDA300   [8]  FF FF 14 FF FF FF FF FF
 (000.529016)  can0  18F00029   [8]  F0 7D 7D F3 29 FF FF 3C
 (000.533967)  can0  18FEDF00   [8]  84 A0 28 7D 7D FF FF F5
 (000.534027)  can0  0CF00203   [8]  C0 00 00 FF F7 53 16 03
 (000.538835)  can0  18FCDC00   [8]  9F FF FF FF 50 68 00 00
 (000.539379)  can0  0CF00300   [8]  D1 00 0C FF FF 0F 6C 7E
 (000.539932)  can0  1CFE9200   [8]  FF 34 90 FF FF FF 00 00
 (000.543908)  can0  0CF00203   [8]  C0 00 00 FF F7 53 16 03
 (000.544492)  can0  0CF00C03   [8]  EC 03 89 16 FF FF FF FF
 (000.545093)  can0  18F00503   [8]  7D 00 00 7D 4E 20 4E 43
 (000.545712)  can0  0CF00400   [8]  70 7D 83 9D 16 00 0F 84
 (000.546179)  can0  18FE4A03   [8]  03 1F 4F FF FF F3 FF FF
 (000.548600)  can0  0CF00A00   [8]  EE 02 01 06 FF FF FF FF
 (000.549122)  can0  18FD9400   [8]  96 0F FF FF FF FF FF FF
 (000.549722)  can0  0C010305   [8]  FF FF FF FF FF F3 FF FF
 (000.550290)  can0  18F00131   [8]  FF FF FF 3F 00 FF FF FF
 (000.550870)  can0  18FEEF00   [8]  FF FF FF 1F 43 7D FF FA
 (000.551433)  can0  18E0FF31   [8]  00 FF FF FF FF F0 FF FF
 (000.551985)  can0  18F00E00   [8]  DE 25 FF FF D5 9F FF FF
 (000.552594)  can0  18FEF131   [8]  F3 FF FF C3 CC FF FF F0
 (000.553156)  can0  18FEF031   [8]  FF FF FF FF FF FC CC FF
 (000.553725)  can0  18F03300   [8]  FF FF FF FF FF FF FF FF
 (000.554258)  can0  0CF00203   [8]  C0 00 00 FF F7 4C 16 03
 (000.554913)  can0  18FEDF00   [8]  84 A0 28 7D 7D FF FF F5
 (000.555495)  can0  18FEFC31   [8]  FF 75 FF FF FF FF 00 FF
 (000.556077)  can0  18FEAE31   [8]  FF FF 6F 6F FF FF FF FF
 (000.556590)  can0  18FEF731   [8]  FF FF FF FF 1A 01 FF FF
 (000.557949)  can0  18FF4831   [8]  00 00 FF FF 00 00 00 00
 (000.557957)  can0  18FD8331   [8]  F8 FF FF FF FF FF FF FF
 (000.558445)  can0  18FEF831   [8]  FF FF FF FF FF FF FF FF
 (000.559068)  can0  18FEE000   [8]  00 00 00 00 15 96 35 00
 (000.559628)  can0  18FEF231   [8]  FF FF FF FF FF FF FF FF
 (000.560138)  can0  0CF00300   [8]  D1 00 0C FF FF 0F 6A 7E
 (000.560750)  can0  18FEFA31   [8]  FF DD DE FF FF FF FF FF
 (000.561293)  can0  18FEC131   [8]  2F 42 67 06 FF FF FF FF
 (000.561895)  can0  0CF00331   [8]  FF FF FF FF FF FF FF FF
 (000.563976)  can0  18FEF200   [8]  0D 00 00 00 00 00 E1 FF
 (000.564270)  can0  0CF00203   [8]  C0 00 00 FF F7 4C 16 03
 (000.565644)  can0  18F00F00   [8]  6C 0F FF FF D5 9F FF FF
 (000.565652)  can0  0CF00C03   [8]  ED 03 EB 16 FF FF FF FF
 (000.565984)  can0  0CF00400   [8]  60 7D 83 A3 16 00 0F 84
 (000.568691)  can0  18FEDB00   [8]  FF FF EA 31 FF FF FF FF
 (000.573464)  can0  18FEDF00   [8]  84 A0 28 7D 7D FF FF F5
 (000.574044)  can0  0CF00203   [8]  C0 00 00 FF F7 49 16 03
 (000.574643)  can0  10FCFD00   [8]  FF FF FF FF 00 32 FF FF
 (000.579207)  can0  0CF00300   [8]  D1 00 0C FF FF 0F 69 7E
 (000.583663)  can0  18F00100   [8]  FF FF FF FF FF FF FF FF
 (000.584034)  can0  0CF00203   [8]  C0 00 00 FF F7 49 16 03
 (000.584647)  can0  0CF00C03   [8]  E9 03 BD 16 FF FF FF FF
 (000.585330)  can0  0CF00400   [8]  50 7D 83 B3 16 00 0F 84
 (000.588691)  can0  18FEF600   [8]  FF 01 65 FF FF FF FF FF
 (000.593547)  can0  18FEDF00   [8]  84 A0 28 7D 7D FF FF F5
 (000.594090)  can0  0CF00203   [8]  C0 00 00 FF F7 48 16 03
 (000.599213)  can0  0CF00300   [8]  D1 00 0C FF FF 0F 6A 7E
 (000.599343)  can0  0C010305   [8]  FF FF FF FF FF F3 FF FF
 (000.600735)  can0  0CF00331   [8]  FF FF FF FF FF FF FF FF
 (000.600743)  can0  0CF00A00   [8]  EE 02 14 06 FF FF FF FF
 (000.601076)  can0  18F0010B   [8]  CF FF F0 FF FF CD FF FF
 (000.602534)  can0  18FEF000   [8]  FF FF FF AE 16 FF FF FF
 (000.602541)  can0  18F00E00   [8]  DE 25 FF FF D5 9F FF FF
 (000.603484)  can0  18F03300   [8]  FF FF FF FF FF FF FF FF
 (000.604053)  can0  0CF00203   [8]  C0 00 00 FF F7 48 16 03
 (000.604657)  can0  0CF00C03   [8]  E9 03 6F 16 FF FF FF FF
 (000.605330)  can0  0CF00400   [8]  50 7D 83 B1 16 00 0F 84
 (000.608477)  can0  18FCF200   [8]  E1 FF FF FF FF FF FF FF
 (000.611567)  can0  18FEBF0B   [8]  00 00 7D 7D 7D 7D FF FF
 (000.613886)  can0  18FEDF00   [8]  84 A0 28 7D 7D FF FF F5
 (000.614092)  can0  0CF00203   [8]  C0 00 00 FF F7 4D 16 03
 (000.615033)  can0  18FDC600   [8]  FC 04 FF FF FF FF FF FF
 (000.615264)  can0  18F00F00   [8]  76 0F FF FF D5 9F FF FF
 (000.618908)  can0  0CF00300   [8]  D1 00 0C FF FF 0F 6A 7E
 (000.619413)  can0  18FEF100   [8]  FF 00 00 FC FF 68 00 CF
 (000.624131)  can0  0CF00203   [8]  C0 00 00 FF F7 4D 16 03
 (000.624512)  can0  0CF00C03   [8]  F0 03 B9 16 FF FF FF FF
 (000.626092)  can0  0CF00400   [8]  50 7D 83 A7 16 00 0F 84
 (000.628847)  can0  10FDA300   [8]  FF FF 14 FF FF FF FF FF
 (000.629065)  can0  18F00029   [8]  F0 7D 7D F3 29 FF FF 3C
 (000.633779)  can0  18FEDF00   [8]  84 A0 28 7D 7D FF FF F5
 (000.634052)  can0  0CF00203   [8]  C0 00 00 FF F7 4F 16 03
 (000.638800)  can0  18FCDC00   [8]  9F FF FF FF 50 68 00 00
 (000.639371)  can0  0CF00300   [8]  D1 00 0C FF FF 0F 69 7E
 (000.639942)  can0  1CFE9200   [8]  FF A4 90 FF FF FF 00 00
 (000.644077)  can0  0CF00203   [8]  C0 00 00 FF F7 4F 16 03
 (000.644472)  can0  0CF00C03   [8]  ED 03 BF 16 FF FF FF FF
 (000.645103)  can0  18F00503   [8]  7D 00 00 7D 4E 20 4E 43
 (000.645704)  can0  0CF00400   [8]  60 7D 83 96 16 00 0F 84
 (000.646253)  can0  18FE4A03   [8]  03 1F 4F FF FF F3 FF FF
 (000.648591)  can0  0CF00A00   [8]  EE 02 14 06 FF FF FF FF
 (000.649087)  can0  18FD9400   [8]  96 0F FF FF FF FF FF FF
 (000.649692)  can0  0C010305   [8]  FF FF FF FF FF F3 FF FF
 (000.650271)  can0  18F00131   [8]  FF FF FF 3F 00 FF FF FF
 (000.650825)  can0  18F00E00   [8]  DE 25 FF FF D5 9F FF FF
 (000.651385)  can0  18FEF131   [8]  F3 FF FF C3 CC FF FF F0
 (000.651988)  can0  18FEF031   [8]  FF FF FF FF FF FC CC FF
 (000.652583)  can0  18FF4831   [8]  00 00 FF FF 00 00 00 00
 (000.653148)  can0  18FEF231   [8]  FF FF FF FF FF FF FF FF
 (000.653746)  can0  18F03300   [8]  FF FF FF FF FF FF FF FF
 (000.654343)  can0  0CF00203   [8]  C0 00 00 FF F7 4E 16 03
 (000.654923)  can0  0CF00331   [8]  FF FF FF FF FF FF FF FF
 (000.655436)  can0  18FEDF00   [8]  84 A0 28 7D 7D FF FF F5
 (000.659512)  can0  18FEF700   [8]  FF FF FF FF 17 01 FF FF
 (000.659521)  can0  18FEE000   [8]  00 00 00 00 15 96 35 00
 (000.659986)  can0  0CF00300   [8]  D1 00 0C FF FF 0F 69 7E
 (000.663556)  can0  18FEF200   [8]  12 00 00 00 00 00 E1 FF
 (000.664063)  can0  0CF00203   [8]  C0 00 00 FF F7 4E 16 03
 (000.664644)  can0  18F00F00   [8]  76 0F FF FF D5 9F FF FF
 (000.665282)  can0  0CF00C03   [8]  EA 03 3F 16 FF FF FF FF
 (000.665834)  can0  0CF00400   [8]  10 7D 84 84 16 00 0F 84
 (000.673469)  can0  18FEDF00   [8]  84 A0 28 7D 7D FF FF F5
 (000.674016)  can0  0CF00203   [8]  C0 00 00 FF F7 4D 16 03
 (000.674689)  can0  10FCFD00   [8]  FF FF FF FF 00 32 FF FF
 (000.679609)  can0  18FEC100   [8]  17 A8 3B 05 00 00 00 00
 (000.679619)  can0  0CF00300   [8]  D1 00 0D FF FF 0F 6A 7E
 (000.683667)  can0  18F00100   [8]  FF FF FF FF FF FF FF FF
 (000.684012)  can0  0CF00203   [8]  C0 00 00 FF F7 4D 16 03
 (000.684649)  can0  0CF00C03   [8]  E9 03 63 16 FF FF FF FF
 (000.685372)  can0  0CF00400   [8]  00 7D 84 8C 16 00 0F 84
 (000.693574)  can0  18FEDF00   [8]  84 A0 28 7D 7D FF FF F5
 (000.694041)  can0  0CF00203   [8]  C0 00 00 FF F7 4D 16 03
 (000.699474)  can0  0CF00300   [8]  D1 00 0C FF FF 0F 6B 7E
 (000.699485)  can0  0C010305   [8]  FF FF FF FF FF F3 FF FF
 (000.700016)  can0  0CF00331   [8]  FF FF FF FF FF FF FF FF
 (000.700612)  can0  0CF00A00   [8]  EE 02 F8 05 FF FF FF FF
 (000.701158)  can0  18F0010B   [8]  CF FF F0 FF FF CD FF FF
 (000.701730)  can0  18FEF000   [8]  FF FF FF 8A 16 FF FF FF
 (000.702275)  can0  18F00E00   [8]  DE 25 FF FF D5 9F FF FF
 (000.703510)  can0  18FE5600   [8]  97 42 FF FF 1F 1F 00 FF
 (000.704054)  can0  0CF00203   [8]  C0 00 00 FF F7 4D 16 03
 (000.704664)  can0  18F03300   [8]  FF FF FF FF FF FF FF FF
 (000.705226)  can0  0CF00C03   [8]  ED 03 D3 16 FF FF FF FF
 (000.705840)  can0  0CF00400   [8]  00 7D 84 92 16 00 0F 84
 (000.708528)  can0  18FCF200   [8]  E1 FF FF FF FF FF FF FF
 (000.711229)  can0  18FEBF0B   [8]  00 00 7D 7D 7D 7D FF FF
 (000.713954)  can0  18FEDF00   [8]  84 A0 28 7D 7D FF FF F5
 (000.714123)  can0  0CF00203   [8]  C0 00 00 FF F7 46 16 03
 (000.714792)  can0  18F00F00   [8]  76 0F FF FF D5 9F FF FF
 (000.718821)  can0  0CF00300   [8]  D1 00 0C FF FF 0F 6B 7E
 (000.719418)  can0  18FEF100   [8]  FF 00 00 FC FF 68 00 CF
 (000.724299)  can0  18FD7B00   [8]  00 FF 30 B9 00 00 BC 55
 (000.724308)  can0  0CF00203   [8]  C0 00 00 FF F7 46 16 03
 (000.724688)  can0  0CF00C03   [8]  EA 03 B6 16 FF FF FF FF
 (000.725364)  can0  0CF00400   [8]  00 7D 84 99 16 00 0F 84
 (000.728692)  can0  10FDA300   [8]  FF FF 14 FF FF FF FF FF
 (000.729002)  can0  18F00029   [8]  F0 7D 7D F3 29 FF FF 3C
 (000.733497)  can0  18FEDF00   [8]  84 A0 28 7D 7D FF FF F5
 (000.734054)  can0  0CF00203   [8]  C0 00 00 FF F7 3D 16 03
 (000.738821)  can0  18FCDC00   [8]  9F FF FF FF 50 68 00 00
 (000.739387)  can0  0CF00300   [8]  D1 00 0C FF FF 0F 6A 7E
 (000.739970)  can0  1CFE9200   [8]  FF 48 90 FF FF FF 00 00
 (000.744057)  can0  0CF00203   [8]  C0 00 00 FF F7 3D 16 03
 (000.744458)  can0  0CF00C03   [8]  E9 03 4D 16 FF FF FF FF
 (000.745106)  can0  18F00503   [8]  7D 00 00 7D 4E 20 4E 43
 (000.745692)  can0  0CF00400   [8]  70 7D 83 A3 16 00 0F 84
 (000.746238)  can0  18FE4A03   [8]  03 1F 4F FF FF F3 FF FF
 (000.748691)  can0  0CF00A00   [8]  EE 02 1D 06 FF FF FF FF
 (000.749090)  can0  18FD9400   [8]  30 12 FF FF FF FF FF FF
 (000.749741)  can0  0C010305   [8]  FF FF FF FF FF F3 FF FF
 (000.750260)  can0  18F00131   [8]  FF FF FF 3F 00 FF FF FF
 (000.750999)  can0  18FEDD00   [8]  FF 1B 0F FF FF FF FF FF
 (000.751394)  can0  18F00E00   [8]  DE 25 FF FF D5 9F FF FF
 (000.752847)  can0  18FEF131   [8]  F3 FF FF C3 CC FF FF F0
 (000.752857)  can0  18FEF031   [8]  FF FF FF FF FF FC CC FF
 (000.753207)  can0  18FF4831   [8]  00 00 FF FF 00 00 00 00
 (000.753806)  can0  18F03300   [8]  FF FF FF FF FF FF FF FF
 (000.754285)  can0  0CF00203   [8]  C0 00 00 FF F7 3D 16 03
 (000.755031)  can0  18FEDF00   [8]  84 A0 28 7D 7D FF FF F5
 (000.755461)  can0  18FEF231   [8]  FF FF FF FF FF FF FF FF
 (000.756144)  can0  0CF00331   [8]  FF FF FF FF FF FF FF FF
 (000.759417)  can0  18FEE000   [8]  00 00 00 00 15 96 35 00
 (000.759487)  can0  0CF00300   [8]  D1 00 0C FF FF 0F 69 7E
 (000.764130)  can0  18FEF200   [8]  12 00 00 00 00 00 E1 FF
 (000.764140)  can0  0CF00203   [8]  C0 00 00 FF F7 3D 16 03
 (000.764687)  can0  18F00F00   [8]  76 0F FF FF D5 9F FF FF
 (000.765227)  can0  0CF00C03   [8]  EE 03 B4 16 FF FF FF FF
 (000.765802)  can0  0CF00400   [8]  60 7D 83 B3 16 00 0F 84
 (000.768439)  can0  18FEE400   [8]  FF 3F FC FC 00 7F FF FF
 (000.773569)  can0  18FEDF00   [8]  84 A0 28 7D 7D FF FF F5
 (000.774123)  can0  0CF00203   [8]  C0 00 00 FF F7 43 16 03
 (000.774710)  can0  10FCFD00   [8]  FF FF FF FF 00 32 FF FF
 (000.775319)  can0  0CFD9200   [8]  F4 FF FA FF FF FF FF FF
 (000.778864)  can0  0CF00300   [8]  D1 00 0C FF FF 0F 6A 7E
 (000.784131)  can0  18F00100   [8]  FF FF FF FF FF FF FF FF
 (000.784140)  can0  0CF00203   [8]  C0 00 00 FF F7 43 16 03
 (000.784636)  can0  0CF00C03   [8]  EE 03 E5 16 FF FF FF FF
 (000.785443)  can0  0CF00400   [8]  50 7D 83 AD 16 00 0F 84
 (000.794061)  can0  18FEDF00   [8]  84 A0 28 7D 7D FF FF F5
 (000.794070)  can0  0CF00203   [8]  C0 00 00 FF F7 45 16 03
 (000.798840)  can0  0CF00300   [8]  D1 00 0C FF FF 0F 69 7E
 (000.799404)  can0  0C010305   [8]  FF FF FF FF FF F3 FF FF
 (000.799981)  can0  0CF00331   [8]  FF FF FF FF FF FF FF FF
 (000.800605)  can0  0CF00A00   [8]  EE 02 0A 06 FF FF FF FF
 (000.801169)  can0  18FEF000   [8]  FF FF FF B3 16 FF FF FF
 (000.801782)  can0  18F0010B   [8]  CF FF F0 FF FF CD FF FF
 (000.802314)  can0  18FEBD00   [8]  00 F0 FF FF FF FF FF FF
 (000.802861)  can0  18F00E00   [8]  DE 25 FF FF D5 9F FF FF
 (000.803518)  can0  18F03300   [8]  FF FF FF FF FF FF FF FF
 (000.804110)  can0  0CF00203   [8]  C0 00 00 FF F7 45 16 03
 (000.804720)  can0  0CF00C03   [8]  EA 03 8E 16 FF FF FF FF
 (000.805461)  can0  0CF00400   [8]  60 7D 83 9E 16 00 0F 84
 (000.808747)  can0  18FCF200   [8]  E1 FF FF FF FF FF FF FF
 (000.811249)  can0  18FEBF0B   [8]  00 00 7D 7D 7D 7D FF FF
 (000.813830)  can0  18FEDF00   [8]  84 A0 28 7D 7D FF FF F5
 (000.814165)  can0  0CF00203   [8]  C0 00 00 FF F7 46 16 03
 (000.814770)  can0  18E0FF00   [8]  00 FF FF FF FF FF FF FF
 (000.815355)  can0  18F00F00   [8]  76 0F FF FF D5 9F FF FF
 (000.819637)  can0  18FD0700   [8]  43 0C FC FF FF FF FF FF
 (000.819651)  can0  0CF00300   [8]  D1 00 0C FF FF 0F 68 7E
 (000.820010)  can0  18FEF100   [8]  FF 00 00 FC FF 68 00 CF
 (000.824267)  can0  18FEEE00   [8]  81 FF FF FF FF FF FF FF
 (000.824279)  can0  0CF00203   [8]  C0 00 00 FF F7 46 16 03
 (000.824761)  can0  0CF00C03   [8]  EA 03 4B 16 FF FF FF FF
 (000.826278)  can0  0CF00400   [8]  00 7D 84 88 16 00 0F 84
 (000.828734)  can0  10FDA300   [8]  FF FF 14 FF FF FF FF FF
 (000.829058)  can0  18F00029   [8]  F0 7D 7D F3 29 FF FF 3C
 (000.833515)  can0  18FEDF00   [8]  84 A0 28 7D 7D FF FF F5
 (000.834048)  can0  0CF00203   [8]  C0 00 00 FF F7 4A 16 03
 (000.838920)  can0  18FCDC00   [8]  9F FF FF FF 50 68 00 00
 (000.839492)  can0  0CF00300   [8]  D1 00 0C FF FF 0F 69 7E
 (000.840067)  can0  1CFE9200   [8]  FF B0 90 FF FF FF 00 00
 (000.840682)  can0  18FEF500   [8]  A8 FF FF 55 26 FF FF FF
 (000.844199)  can0  0CF00203   [8]  C0 00 00 FF F7 4A 16 03
 (000.844460)  can0  0CF00C03   [8]  EE 03 B9 16 FF FF FF FF
 (000.845225)  can0  18F00503   [8]  7D 00 00 7D 4E 20 4E 43
 (000.845640)  can0  0CF00400   [8]  10 7D 84 95 16 00 0F 84
 (000.846338)  can0  18FE4A03   [8]  03 1F 4F FF FF F3 FF FF
 (000.848727)  can0  14FC9800   [8]  FF 00 00 00 00 00 00 FF
 (000.849170)  can0  0CF00A00   [8]  00 03 F8 05 FF FF FF FF
 (000.849750)  can0  0C010305   [8]  FF FF FF FF FF F3 FF FF
 (000.850311)  can0  18F00131   [8]  FF FF FF 3F 00 FF FF FF
 (000.850910)  can0  18FD9400   [8]  30 12 FF FF FF FF FF FF
 (000.851462)  can0  18F00E00   [8]  DE 25 FF FF D5 9F FF FF
 (000.852014)  can0  18FEF131   [8]  F3 FF FF C3 CC FF FF F0
 (000.852614)  can0  18FEF031   [8]  FF FF FF FF FF FC CC FF
 (000.854005)  can0  18FF4831   [8]  00 00 FF FF 00 00 00 00
 (000.854009)  can0  18F03300   [8]  FF FF FF FF FF FF FF FF
 (000.854352)  can0  0CF00203   [8]  C0 00 00 FF F7 4D 16 03
 (000.855713)  can0  18FEDF00   [8]  84 A0 28 7D 7D FF FF F5
 (000.855721)  can0  18FEF231   [8]  FF FF FF FF FF FF FF FF
 (000.856106)  can0  0CF00331   [8]  FF FF FF FF FF FF FF FF
 (000.859399)  can0  18FEE000   [8]  00 00 00 00 15 96 35 00
 (000.859468)  can0  0CF00300   [8]  D1 00 0C FF FF 0F 6A 7E
 (000.860140)  can0  18FEA400   [8]  FF FF 63 2A FF FF FC 2C
 (000.863586)  can0  18FDB400   [8]  CC 39 76 3B FF FF FF FF
 (000.864133)  can0  0CF00203   [8]  C0 00 00 FF F7 4D 16 03
 (000.864742)  can0  18FEF200   [8]  0E 00 00 00 00 00 E1 FF
 (000.865279)  can0  0CF00C03   [8]  EA 03 AF 16 FF FF FF FF
 (000.865855)  can0  18F00F00   [8]  76 0F FF FF D5 9F FF FF
 (000.866431)  can0  0CF00400   [8]  00 7D 84 99 16 00 0F 84
 (000.873545)  can0  18FEDF00   [8]  84 A0 28 7D 7D FF FF F5
 (000.874089)  can0  0CF00203   [8]  C0 00 00 FF F7 49 16 03
 (000.874689)  can0  10FCFD00   [8]  FF FF FF FF 00 32 FF FF
 (000.879605)  can0  0CF00300   [8]  D1 00 0C FF FF 0F 6A 7E
 (000.884149)  can0  18FD7C00   [8]  F8 83 00 00 C3 0F 03 FF
 (000.884159)  can0  0CF00203   [8]  C0 00 00 FF F7 49 16 03
 (000.884663)  can0  18F00100   [8]  FF FF FF FF FF FF FF FF
 (000.885232)  can0  0CF00C03   [8]  EA 03 7F 16 FF FF FF FF
 (000.885784)  can0  0CF00400   [8]  70 7D 83 A8 16 00 0F 84
 (000.888858)  can0  18FDB300   [8]  FF FF 76 3F FF FF FF FF
 (000.893971)  can0  18FEDF00   [8]  84 A0 28 7D 7D FF FF F5
 (000.894101)  can0  0CF00203   [8]  C0 00 00 FF F7 43 16 03
 (000.898857)  can0  0CF00300   [8]  D1 00 0C FF FF 0F 68 7E
 (000.899434)  can0  0C010305   [8]  FF FF FF FF FF F3 FF FF
 (000.900040)  can0  0CF00331   [8]  FF FF FF FF FF FF FF FF
 (000.900694)  can0  0CF00A00   [8]  0A 03 01 06 FF FF FF FF
 (000.901143)  can0  18FEF000   [8]  FF FF FF A1 16 FF FF FF
 (000.901713)  can0  18F0010B   [8]  CF FF F0 FF FF CD FF FF
 (000.902319)  can0  18F00E00   [8]  DE 25 FF FF D5 9F FF FF
 (000.903544)  can0  18F03300   [8]  FF FF FF FF FF FF FF FF
 (000.904105)  can0  0CF00203   [8]  C0 00 00 FF F7 43 16 03
 (000.904689)  can0  18FE9A00   [8]  97 27 FF FF FF FF FF FF
 (000.905290)  can0  0CF00C03   [8]  ED 03 9E 16 FF FF FF FF
 (000.905862)  can0  0CF00400   [8]  50 7D 83 B3 16 00 0F 84
 (000.908558)  can0  18FDB200   [8]  FF FF FF FF 01 00 FF FF
 (000.909087)  can0  18FCF200   [8]  E1 FF FF FF FF FF FF FF
 (000.911598)  can0  18FEBF0B   [8]  00 00 7D 7D 7D 7D FF FF
 (000.913816)  can0  18FEDF00   [8]  84 A0 28 7D 7D FF FF F5
 (000.914160)  can0  0CF00203   [8]  C0 00 00 FF F7 47 16 03
 (000.914739)  can0  18F00F00   [8]  80 0F FF FF D5 9F FF FF
 (000.919581)  can0  0CF00300   [8]  D1 00 0C FF FF 0F 68 7E
 (000.919590)  can0  18FEF100   [8]  FF 00 00 FC FF 68 00 CF
 (000.924269)  can0  0CF00203   [8]  C0 00 00 FF F7 47 16 03
 (000.924438)  can0  0CF00C03   [8]  F0 03 F4 16 FF FF FF FF
 (000.925849)  can0  0CF00400   [8]  40 7D 83 C2 16 00 0F 84
 (000.928518)  can0  10FDA300   [8]  FF FF 14 FF FF FF FF FF
 (000.929089)  can0  18FE9900   [8]  FF FF FF FF FF FF FF FF
 (000.929692)  can0  18F00029   [8]  F0 7D 7D F3 29 FF FF 3C
 (000.933568)  can0  18FD8C00   [8]  FF FF 00 00 FF FF FF FF
 (000.934142)  can0  0CF00203   [8]  C0 00 00 FF F7 4E 16 03
 (000.934682)  can0  18FEDF00   [8]  84 A0 28 7D 7D FF FF F5
 (000.938897)  can0  18FCDC00   [8]  9F FF FF FF 50 68 00 00
 (000.939404)  can0  0CF00300   [8]  D1 00 0C FF FF 0F 69 7E
 (000.939979)  can0  1CFE9200   [8]  FF 88 90 FF FF FF 00 00
 (000.943814)  can0  0CF00203   [8]  C0 00 00 FF F7 4E 16 03
 (000.944427)  can0  0CF00C03   [8]  EA 03 B5 16 FF FF FF FF
 (000.945200)  can0  18F00503   [8]  7D 00 00 7D 4E 20 4E 43
 (000.945687)  can0  0CF00400   [8]  40 7D 83 C1 16 00 0F 83
 (000.946361)  can0  18FE4A03   [8]  03 1F 4F FF FF F3 FF FF
 (000.948689)  can0  0CF00A00   [8]  0A 03 F8 05 FF FF FF FF
 (000.949203)  can0  18FD9400   [8]  30 12 FF FF FF FF FF FF
 (000.949783)  can0  0C010305   [8]  FF FF FF FF FF F3 FF FF
 (000.950339)  can0  18F00131   [8]  FF FF FF 3F 00 FF FF FF
 (000.951046)  can0  18FEFC00   [8]  FF FF FF FF FF FF FF FF
 (000.951495)  can0  18F00E00   [8]  E6 25 FF FF D5 9F FF FF
 (000.952117)  can0  18FEF131   [8]  F3 FF FF C3 CC FF FF F0
 (000.952675)  can0  18FEF031   [8]  FF FF FF FF FF FC CC FF
 (000.954111)  can0  18FF4831   [8]  00 00 FF FF 00 00 00 00
 (000.954121)  can0  18FD2000   [8]  C9 39 FF FF FF FF FF FF
 (000.954393)  can0  0CF00203   [8]  C0 00 00 FF F7 53 16 03
 (000.955076)  can0  18F03300   [8]  FF FF FF FF FF FF FF FF
 (000.955556)  can0  18FEF231   [8]  FF FF FF FF FF FF FF FF
 (000.956684)  can0  18FEDF00   [8]  84 A0 28 7D 7D FF FF F5
 (000.956693)  can0  0CF00331   [8]  FF FF FF FF FF FF FF FF
 (000.958987)  can0  18FEE000   [8]  00 00 00 00 15 96 35 00
 (000.959557)  can0  0CF00300   [8]  D1 00 0B FF FF 0F 69 7E
 (000.963546)  can0  18FEF200   [8]  12 00 00 00 00 00 E1 FF
 (000.964130)  can0  0CF00203   [8]  C0 00 00 FF F7 53 16 03
 (000.964676)  can0  18F00F00   [8]  80 0F FF FF D5 9F FF FF
 (000.965307)  can0  0CF00C03   [8]  E9 03 70 16 FF FF FF FF
 (000.965829)  can0  0CF00400   [8]  40 7D 83 B9 16 00 0F 83
 (000.973592)  can0  18FEDF00   [8]  84 A0 28 7D 7D FF FF F5
 (000.974163)  can0  0CF00203   [8]  C0 00 00 FF F7 58 16 03
 (000.974739)  can0  10FCFD00   [8]  FF FF FF FF 00 32 FF FF
 (000.979671)  can0  18FD3E00   [8]  3C 40 FF 03 40 FF FF FF
 (000.979681)  can0  0CF00300   [8]  D1 00 0C FF FF 0F 69 7E
 (000.984216)  can0  18F00100   [8]  FF FF FF FF FF FF FF FF
 (000.984226)  can0  0CF00203   [8]  C0 00 00 FF F7 58 16 03
 (000.984508)  can0  18EAFF31   [3]  EC FE 00
 (000.985828)  can0  0CF00C03   [8]  EE 03 B5 16 FF FF FF FF
 (000.985838)  can0  0CF00400   [8]  60 7D 83 9D 16 00 0F 84
 (000.988890)  can0  1CECFF00   [8]  20 12 00 03 FF EC FE 00
 (000.993532)  can0  18FEDF00   [8]  84 A0 28 7D 7D FF FF F5
 (000.994070)  can0  0CF00203   [8]  C0 00 00 FF F7 5E 16 03
 (000.999016)  can0  18FD4000   [8]  FF 3F 00 FF FF FF FF FF
 (000.999509)  can0  0C010305   [8]  FF FF FF FF FF F3 FF FF
 (001.000115)  can0  0CF00300   [8]  D1 00 0C FF FF 0F 69 7E
 (001.000658)  can0  0CF00331   [8]  FF FF FF FF FF FF FF FF
 (001.001212)  can0  0CF00A00   [8]  0A 03 0A 06 FF FF FF FF
 (001.001745)  can0  18F0010B   [8]  CF FF F0 FF FF CD FF FF
 (001.002316)  can0  18FEF000   [8]  FF FF FF AC 16 FF FF FF
 (001.002894)  can0  18F00E00   [8]  E6 25 FF FF D5 9F FF FF
 (001.003588)  can0  18F03300   [8]  FF FF FF FF FF FF FF FF
 (001.004140)  can0  0CF00203   [8]  C0 00 00 FF F7 5E 16 03
 (001.004763)  can0  0CF00C03   [8]  ED 03 E4 16 FF FF FF FF
 (001.005436)  can0  0CF00400   [8]  00 7D 84 9E 16 00 0F 84
 (001.008673)  can0  18FCF200   [8]  E1 FF FF FF FF FF FF FF
 (001.012531)  can0  18FEBF0B   [8]  00 00 7D 7D 7D 7D FF FF
 (001.014068)  can0  18FEDF00   [8]  84 A0 28 7D 7D FF FF F5
 (001.014165)  can0  0CF00203   [8]  C0 00 00 FF F7 5E 16 03
 (001.014813)  can0  18F00F00   [8]  80 0F FF FF D5 9F FF FF
 (001.019604)  can0  0CF00300   [8]  D1 00 0C FF FF 0F 6A 7E
 (001.019614)  can0  18FEF100   [8]  FF 00 00 FC FF 68 00 CF
 (001.023632)  can0  18FCC500   [8]  3C 40 FF FF FF FF FF FF
 (001.024166)  can0  0CF00203   [8]  C0 00 00 FF F7 5E 16 03
 (001.024698)  can0  0CFD9200   [8]  F4 FF FA FF FF FF FF FF
 (001.025312)  can0  0CF00C03   [8]  EA 03 75 16 FF FF FF FF
 (001.025892)  can0  0CF00400   [8]  50 7D 83 A7 16 00 0F 84
 (001.028563)  can0  10FDA300   [8]  FF FF 14 FF FF FF FF FF
 (001.029076)  can0  18F00029   [8]  F0 7D 7D F3 29 FF FF 3C
 (001.033661)  can0  18FEDF00   [8]  84 A0 28 7D 7D FF FF F5
 (001.034108)  can0  0CF00203   [8]  C0 00 00 FF F7 5D 16 03
 (001.038970)  can0  18FCDC00   [8]  9F FF FF FF 50 68 00 00
 (001.039484)  can0  0CF00300   [8]  D1 00 0C FF FF 0F 6B 7E
 (001.040130)  can0  1CFE9200   [8]  FF C0 8F FF FF FF 00 00
 (001.041901)  can0  1CEBFF00   [8]  01 32 4E 4B 48 48 4D 36
 (001.044285)  can0  0CF00203   [8]  C0 00 00 FF F7 5D 16 03
 (001.044413)  can0  0CF00C03   [8]  E9 03 79 16 FF FF FF FF
 (001.045062)  can0  18F00503   [8]  7D 00 00 7D 4E 20 4E 43
 (001.045690)  can0  0CF00400   [8]  50 7D 83 AA 16 00 0F 84
 (001.046239)  can0  18FE4A03   [8]  03 1F 4F FF FF F3 FF FF
 (001.048712)  can0  0CF00A00   [8]  55 03 AD 05 FF FF FF FF
 (001.049167)  can0  18FD9400   [8]  30 12 FF FF FF FF FF FF
 (001.049757)  can0  0C010305   [8]  FF FF FF FF FF F3 FF FF
 (001.050315)  can0  18F00131   [8]  FF FF FF 3F 00 FF FF FF
 (001.050936)  can0  18FEEF00   [8]  FF FF FF 1F 46 7D FF FA
 (001.051465)  can0  18F00E00   [8]  E6 25 FF FF D5 9F FF FF
 (001.052022)  can0  18FEF131   [8]  F3 FF FF C3 CC FF FF F0
 (001.052644)  can0  18FEF031   [8]  FF FF FF FF FF FC CC FF
 (001.053230)  can0  18FF4831   [8]  00 00 FF FF 00 00 00 00
 (001.053807)  can0  18F03300   [8]  FF FF FF FF FF FF FF FF
 (001.054397)  can0  0CF00203   [8]  C0 00 00 FF F7 58 16 03
 (001.054951)  can0  18FEDF00   [8]  84 A0 28 7D 7D FF FF F5
 (001.055549)  can0  18FEF231   [8]  FF FF FF FF FF FF FF FF
 (001.056124)  can0  0CF00331   [8]  FF FF FF FF FF FF FF FF
 (001.058983)  can0  18FEE000   [8]  00 00 00 00 15 96 35 00
 (001.059557)  can0  0CF00300   [8]  D1 00 0C FF FF 0F 69 7E
 (001.064064)  can0  18FEF200   [8]  0E 00 00 00 00 00 E1 FF
 (001.064131)  can0  0CF00203   [8]  C0 00 00 FF F7 58 16 03
 (001.064766)  can0  18F00F00   [8]  80 0F FF FF D5 9F FF FF
 (001.065323)  can0  0CF00C03   [8]  EE 03 FF 16 FF FF FF FF
 (001.065890)  can0  0CF00400   [8]  40 7D 83 B4 16 00 0F 84
 (001.068532)  can0  18FEDB00   [8]  FF FF A7 31 FF FF FF FF
 (001.073875)  can0  18FEDF00   [8]  84 A0 28 7D 7D FF FF F5
 (001.074126)  can0  0CF00203   [8]  C0 00 00 FF F7 57 16 03
 (001.074839)  can0  10FCFD00   [8]  FF FF FF FF 00 32 FF FF
 (001.078924)  can0  0CF00300   [8]  D1 00 0C FF FF 0F 68 7E
 (001.084329)  can0  18F00100   [8]  FF FF FF FF FF FF FF FF
 (001.084339)  can0  0CF00203   [8]  C0 00 00 FF F7 57 16 03
 (001.084758)  can0  0CF00C03   [8]  EC 03 EA 16 FF FF FF FF
 (001.085548)  can0  0CF00400   [8]  30 7D 83 C5 16 00 0F 83
 (001.088543)  can0  18FEF600   [8]  FF 01 65 FF FF FF FF FF
 (001.093619)  can0  18FEDF00   [8]  84 A0 28 7D 7D FF FF F5
 (001.094119)  can0  0CF00203   [8]  C0 00 00 FF F7 58 16 03
 (001.096820)  can0  1CEBFF00   [8]  02 58 32 45 4D 34 30 36
 (001.098969)  can0  0CF00300   [8]  D1 00 0B FF FF 0F 69 7E
 (001.099513)  can0  0C010305   [8]  FF FF FF FF FF F3 FF FF
 (001.100110)  can0  0CF00331   [8]  FF FF FF FF FF FF FF FF
 (001.100650)  can0  0CF00A00   [8]  55 03 B6 05 FF FF FF FF
 (001.101193)  can0  18FEF000   [8]  FF FF FF C3 16 FF FF FF
 (001.101761)  can0  18F00E00   [8]  E6 25 FF FF D5 9F FF FF
 (001.102347)  can0  18F0010B   [8]  CF FF F0 FF FF CD FF FF
 (001.103585)  can0  18F03300   [8]  FF FF FF FF FF FF FF FF
 (001.104140)  can0  0CF00203   [8]  C0 00 00 FF F7 58 16 03
 (001.104779)  can0  0CF00C03   [8]  E9 03 79 16 FF FF FF FF
 (001.105468)  can0  0CF00400   [8]  20 7D 83 C2 16 00 0F 83
 (001.108804)  can0  18FCF200   [8]  E1 FF FF FF FF FF FF FF
 (001.112335)  can0  18FEBF0B   [8]  00 00 7D 7D 7D 7D FF FF
 (001.113948)  can0  18FEDF00   [8]  84 A0 28 7D 7D FF FF F5
 (001.114103)  can0  0CF00203   [8]  C0 00 00 FF F7 5E 16 03
 (001.114761)  can0  18FDC600   [8]  FC 04 FF FF FF FF FF FF
 (001.115346)  can0  18F00F00   [8]  80 0F FF FF D5 9F FF FF
 (001.119511)  can0  0CF00300   [8]  D1 00 0B FF FF 0F 69 7E
 (001.119522)  can0  18FEF100   [8]  FF 00 00 FC FF 68 00 CF
 (001.123867)  can0  0CF00203   [8]  C0 00 00 FF F7 5E 16 03
 (001.124465)  can0  0CF00C03   [8]  EC 03 9D 16 FF FF FF FF
 (001.125373)  can0  0CF00400   [8]  30 7D 83 B9 16 00 0F 83
 (001.128503)  can0  10FDA300   [8]  FF FF 14 FF FF FF FF FF
 (001.129090)  can0  18F00029   [8]  F0 7D 7D F3 29 FF FF 3C
 (001.133599)  can0  18FEDF00   [8]  84 A0 28 7D 7D FF FF F5
 (001.134166)  can0  0CF00203   [8]  C0 00 00 FF F7 63 16 03
 (001.138941)  can0  18FCDC00   [8]  9F FF FF FF 50 68 00 00
 (001.139541)  can0  0CF00300   [8]  D1 00 0B FF FF 0F 68 7E
 (001.140120)  can0  1CFE9200   [8]  FF A8 8F FF FF FF 00 00
 (001.144304)  can0  0CF00203   [8]  C0 00 00 FF F7 63 16 03
 (001.144410)  can0  0CF00C03   [8]  EE 03 E5 16 FF FF FF FF
 (001.145094)  can0  18F00503   [8]  7D 00 00 7D 4E 20 4E 43
 (001.145705)  can0  0CF00400   [8]  40 7D 83 A3 16 00 0F 84
 (001.146220)  can0  18FE4A03   [8]  03 1F 4F FF FF F3 FF FF
 (001.148706)  can0  0CF00A00   [8]  55 03 B6 05 FF FF FF FF
 (001.149188)  can0  18FD9400   [8]  30 12 FF FF FF FF FF FF
 (001.149931)  can0  0C010305   [8]  FF FF FF FF FF F3 FF FF
 (001.150337)  can0  18F00131   [8]  FF FF FF 3F 00 FF FF FF
 (001.150951)  can0  18F00E00   [8]  E6 25 FF FF D5 9F FF FF
 (001.151470)  can0  18FEF131   [8]  F3 FF FF C3 CC FF FF F0
 (001.152094)  can0  1CEBFF00   [8]  03 34 31 32 2A FF FF FF
 (001.152645)  can0  18FEF031   [8]  FF FF FF FF FF FC CC FF
 (001.154017)  can0  1CECFF00   [8]  20 0E 00 02 FF CA FE 00
 (001.154025)  can0  18FF4831   [8]  00 00 FF FF 00 00 00 00
 (001.154339)  can0  0CF00203   [8]  C0 00 00 FF F7 62 16 03
 (001.154934)  can0  18F03300   [8]  FF FF FF FF FF FF FF FF
 (001.155507)  can0  18FEF231   [8]  FF FF FF FF FF FF FF FF
 (001.156082)  can0  18FEDF00   [8]  84 A0 28 7D 7D FF FF F5
 (001.156664)  can0  0CF00331   [8]  FF FF FF FF FF FF FF FF
 (001.158981)  can0  18FEE000   [8]  00 00 00 00 15 96 35 00
 (001.159517)  can0  0CF00300   [8]  D1 00 0C FF FF 0F 68 7E
 (001.163836)  can0  18FEF200   [8]  12 00 00 00 00 00 E1 FF
 (001.164209)  can0  0CF00203   [8]  C0 00 00 FF F7 62 16 03
 (001.164798)  can0  18F00F00   [8]  80 0F FF FF D5 9F FF FF
 (001.165363)  can0  0CF00C03   [8]  E9 03 A6 16 FF FF FF FF
 (001.165939)  can0  0CF00400   [8]  70 7D 83 94 16 00 0F 84
 (001.173873)  can0  18FEDF00   [8]  84 A0 28 7D 7D FF FF F5
 (001.174170)  can0  0CF00203   [8]  C0 00 00 FF F7 5F 16 03
 (001.175588)  can0  10FCFD00   [8]  FF FF FF FF 00 32 FF FF
 (001.178941)  can0  0CF00300   [8]  D1 00 0C FF FF 0F 68 7E
 (001.184264)  can0  18F00100   [8]  FF FF FF FF FF FF FF FF
 (001.184274)  can0  0CF00203   [8]  C0 00 00 FF F7 5F 16 03
 (001.184756)  can0  0CF00C03   [8]  E9 03 36 16 FF FF FF FF
 (001.185501)  can0  0CF00400   [8]  60 7D 83 97 16 00 0F 84
 (001.194396)  can0  18FEDF00   [8]  84 A0 28 7D 7D FF FF F5
 (001.194405)  can0  0CF00203   [8]  C0 00 00 FF F7 5E 16 03
 (001.198907)  can0  0CF00300   [8]  D1 00 0C FF FF 0F 6A 7E
 (001.199487)  can0  0C010305   [8]  FF FF FF FF FF F3 FF FF
 (001.200129)  can0  0CF00331   [8]  FF FF FF FF FF FF FF FF
 (001.200710)  can0  0CF00A00   [8]  42 03 AD 05 FF FF FF FF
 (001.201188)  can0  18FEF000   [8]  FF FF FF 96 16 FF FF FF
 (001.201737)  can0  18F00E00   [8]  E6 25 FF FF D5 9F FF FF
 (001.202351)  can0  18F0010B   [8]  CF FF F0 FF FF CD FF FF
 (001.203590)  can0  18F03300   [8]  FF FF FF FF FF FF FF FF
 (001.204225)  can0  0CF00203   [8]  C0 00 00 FF F7 5E 16 03
 (001.204771)  can0  0CF00C03   [8]  EB 03 B4 16 FF FF FF FF
 (001.205478)  can0  0CF00400   [8]  60 7D 83 A2 16 00 0F 84
 (001.206031)  can0  1CEBFF00   [8]  01 43 FF BF 00 09 08 54
 (001.208681)  can0  18FCF200   [8]  E1 FF FF FF FF FF FF FF
 (001.212124)  can0  18FEBF0B   [8]  00 00 7D 7D 7D 7D FF FF
 (001.213953)  can0  18FEDF00   [8]  84 A0 28 7D 7D FF FF F5
 (001.214202)  can0  0CF00203   [8]  C0 00 00 FF F7 58 16 03
 (001.214811)  can0  18F00F00   [8]  8A 0F FF FF D5 9F FF FF
 (001.218982)  can0  0CF00300   [8]  D1 00 0C FF FF 0F 69 7E
 (001.219529)  can0  18FEF100   [8]  FF 00 00 FC FF 68 00 CF
 (001.223866)  can0  0CF00203   [8]  C0 00 00 FF F7 58 16 03
 (001.224465)  can0  0CF00C03   [8]  EB 03 E1 16 FF FF FF FF
 (001.225419)  can0  0CF00400   [8]  50 7D 83 AD 16 00 0F 84
 (001.228811)  can0  10FDA300   [8]  FF FF 14 FF FF FF FF FF
 (001.229137)  can0  18F00029   [8]  F0 7D 7D F3 29 FF FF 3C
 (001.233571)  can0  18FEDF00   [8]  84 A0 28 7D 7D FF FF F5
 (001.234098)  can0  0CF00203   [8]  C0 00 00 FF F7 50 16 03
 (001.239490)  can0  18FCDC00   [8]  9F FF FF FF 50 68 00 00
 (001.239500)  can0  0CF00300   [8]  D1 00 0C FF FF 0F 68 7E
 (001.240175)  can0  1CFE9200   [8]  FF 18 8F FF FF FF 00 00
 (001.244316)  can0  0CF00203   [8]  C0 00 00 FF F7 50 16 03
 (001.244411)  can0  0CF00C03   [8]  E9 03 A1 16 FF FF FF FF
 (001.245216)  can0  18F00503   [8]  7D 00 00 7D 4E 20 4E 43
 (001.245690)  can0  0CF00400   [8]  40 7D 83 BD 16 00 0F 83
 (001.246211)  can0  18FE4A03   [8]  03 1F 4F FF FF F3 FF FF
 (001.246978)  can0  18FD9503   [8]  CC FF FF AF FF FF FF FF
 (001.247546)  can0  18FEF803   [8]  FF FF FF FF DA 2B FF FF
 (001.248741)  can0  0CF00A00   [8]  42 03 D2 05 FF FF FF FF
 (001.249237)  can0  18FD9400   [8]  30 12 FF FF FF FF FF FF
 (001.249880)  can0  0C010305   [8]  FF FF FF FF FF F3 FF FF
 (001.250423)  can0  18F00131   [8]  FF FF FF 3F 00 FF FF FF
 (001.250967)  can0  18F00E00   [8]  E6 25 FF FF D5 9F FF FF
 (001.251509)  can0  18FEF131   [8]  F3 FF FF C3 CC FF FF F0
 (001.252139)  can0  18FEF031   [8]  FF FF FF FF FF FC CC FF
 (001.252695)  can0  18FF4831   [8]  00 00 FF FF 00 00 00 00
 (001.253290)  can0  18FEF231   [8]  FF FF FF FF FF FF FF FF
 (001.253879)  can0  0CF00203   [8]  C0 00 00 FF F7 4F 16 03
 (001.254482)  can0  0CF00331   [8]  FF FF FF FF FF FF FF FF
 (001.255063)  can0  18F03300   [8]  FF FF FF FF FF FF FF FF
 (001.255593)  can0  18FEDF00   [8]  84 A0 28 7D 7D FF FF F5
 (001.259515)  can0  18FEE000   [8]  00 00 00 00 15 96 35 00
 (001.259566)  can0  0CF00300   [8]  D1 00 0C FF FF 0F 68 7E
 (001.262030)  can0  1CEBFF00   [8]  02 00 09 08 ED 14 1F 01
 (001.262100)  can0  1CECFF00   [8]  20 22 00 05 FF E3 FE 00
 (001.264069)  can0  18FEF200   [8]  11 00 00 00 00 00 E1 FF
 (001.264150)  can0  0CF00203   [8]  C0 00 00 FF F7 4F 16 03
 (001.264788)  can0  18F00F00   [8]  8A 0F FF FF D5 9F FF FF
 (001.265361)  can0  0CF00C03   [8]  EC 03 88 16 FF FF FF FF
 (001.265935)  can0  0CF00400   [8]  20 7D 83 CC 16 00 0F 83
 (001.273990)  can0  18FEDF00   [8]  84 A0 28 7D 7D FF FF F5
 (001.274106)  can0  0CF00203   [8]  C0 00 00 FF F7 56 16 03
 (001.274848)  can0  10FCFD00   [8]  FF FF FF FF 00 32 FF FF
 (001.275340)  can0  18FECA03   [8]  00 FF 00 00 00 00 FF FF
 (001.275923)  can0  0CFD9200   [8]  F4 FF FA FF FF FF FF FF
 (001.279567)  can0  0CF00300   [8]  D1 00 0B FF FF 0F 69 7E
 (001.283615)  can0  18F00100   [8]  FF FF FF FF FF FF FF FF
 (001.284168)  can0  0CF00203   [8]  C0 00 00 FF F7 56 16 03
 (001.284794)  can0  0CF00C03   [8]  F0 03 EC 16 FF FF FF FF
 (001.285440)  can0  0CF00400   [8]  20 7D 83 C5 16 00 0F 83
 (001.293619)  can0  18FEDF00   [8]  84 A0 28 7D 7D FF FF F5
 (001.294205)  can0  0CF00203   [8]  C0 00 00 FF F7 5D 16 03
 (001.298948)  can0  0CF00300   [8]  D1 00 0B FF FF 0F 68 7E
 (001.299565)  can0  0C010305   [8]  FF FF FF FF FF F3 FF FF
 (001.300118)  can0  0CF00331   [8]  FF FF FF FF FF FF FF FF
 (001.300681)  can0  0CF00A00   [8]  42 03 C9 05 FF FF FF FF
 (001.301283)  can0  18FEF000   [8]  FF FF FF C9 16 FF FF FF
 (001.301850)  can0  18F00E00   [8]  E6 25 FF FF D5 9F FF FF
 (001.302410)  can0  18F0010B   [8]  CF FF F0 FF FF CD FF FF
 (001.303810)  can0  18F03300   [8]  FF FF FF FF FF FF FF FF
 (001.304173)  can0  0CF00203   [8]  C0 00 00 FF F7 5D 16 03
 (001.304749)  can0  0CF00C03   [8]  EB 03 C3 16 FF FF FF FF
 (001.306286)  can0  0CF00400   [8]  30 7D 83 B5 16 00 0F 83
 (001.308758)  can0  18FCF200   [8]  E1 FF FF FF FF FF FF FF
 (001.312713)  can0  18FEBF0B   [8]  00 00 7D 7D 7D 7D FF FF
 (001.314044)  can0  18FEDF00   [8]  84 A0 28 7D 7D FF FF F5
 (001.314167)  can0  0CF00203   [8]  C0 00 00 FF F7 5E 16 03
 (001.314918)  can0  18F00F00   [8]  8A 0F FF FF D5 9F FF FF
 (001.316271)  can0  1CEBFF00   [8]  01 A8 16 B1 40 51 C2 E8
 (001.318916)  can0  0CF00300   [8]  D1 00 0B FF FF 0F 67 7E
 (001.319486)  can0  18FEF100   [8]  FF 00 00 FC FF 68 00 CF
 (001.323797)  can0  0CF00203   [8]  C0 00 00 FF F7 5E 16 03
 (001.324422)  can0  0CF00C03   [8]  EA 03 66 16 FF FF FF FF
 (001.325394)  can0  0CF00400   [8]  50 7D 83 A5 16 00 0F 84
 (001.328745)  can0  10FDA300   [8]  FF FF 14 FF FF FF FF FF
 (001.329091)  can0  18F00029   [8]  F0 7D 7D F3 29 FF FF 3C
 (001.334008)  can0  18FEDF00   [8]  84 A0 28 7D 7D FF FF F5
 (001.334081)  can0  0CF00203   [8]  C0 00 00 FF F7 62 16 03
 (001.339573)  can0  18FCDC00   [8]  9F FF FF FF 50 68 00 00
 (001.339583)  can0  0CF00300   [8]  D1 00 0C FF FF 0F 68 7E
 (001.340113)  can0  1CFE9200   [8]  FF 38 8F FF FF FF 00 00
 (001.344274)  can0  0CF00203   [8]  C0 00 00 FF F7 62 16 03
 (001.344400)  can0  0CF00C03   [8]  EC 03 A0 16 FF FF FF FF
 (001.345178)  can0  18F00503   [8]  7D 00 00 7D 4E 20 4E 43
 (001.345688)  can0  0CF00400   [8]  50 7D 83 AC 16 00 0F 84
 (001.346210)  can0  18FE4A03   [8]  03 1F 4F FF FF F3 FF FF
 (001.348673)  can0  14FC9800   [8]  FF 00 00 00 00 00 00 FF
 (001.349213)  can0  0CF00A00   [8]  2F 03 D2 05 FF FF FF FF
 (001.349789)  can0  0C010305   [8]  FF FF FF FF FF F3 FF FF
 (001.350387)  can0  18F00131   [8]  FF FF FF 3F 00 FF FF FF
 (001.350963)  can0  18FD9400   [8]  30 12 FF FF FF FF FF FF
 (001.351511)  can0  18F00E00   [8]  E6 25 FF FF D5 9F FF FF
 (001.352091)  can0  18FEF131   [8]  F3 FF FF C3 CC FF FF F0
 (001.352687)  can0  18FEF031   [8]  FF FF FF FF FF FC CC FF
 (001.353278)  can0  18FF4831   [8]  00 00 FF FF 00 00 00 00
 (001.353860)  can0  18F03300   [8]  FF FF FF FF FF FF FF FF
 (001.354421)  can0  0CF00203   [8]  C0 00 00 FF F7 66 16 03
 (001.354968)  can0  18FEDF00   [8]  84 A0 28 7D 7D FF FF F5
 (001.355539)  can0  18FEF231   [8]  FF FF FF FF FF FF FF FF
 (001.356177)  can0  0CF00331   [8]  FF FF FF FF FF FF FF FF
 (001.358966)  can0  18FEE000   [8]  00 00 00 00 15 96 35 00
 (001.359613)  can0  0CF00300   [8]  D1 00 0C FF FF 0F 69 7E
 (001.363953)  can0  18FDB400   [8]  C6 39 70 3B FF FF FF FF
 (001.364176)  can0  0CF00203   [8]  C0 00 00 FF F7 66 16 03
 (001.364788)  can0  18FEF200   [8]  0E 00 00 00 00 00 E1 FF
 (001.365362)  can0  0CF00C03   [8]  EE 03 E5 16 FF FF FF FF
 (001.365958)  can0  18F00F00   [8]  8A 0F FF FF D5 9F FF FF
 (001.366505)  can0  0CF00400   [8]  40 7D 83 B0 16 00 0F 84
 (001.369996)  can0  1CEBFF00   [8]  02 1C B9 60 22 C6 C0 44
 (001.373992)  can0  18FEDF00   [8]  84 A0 28 7D 7D FF FF F5
 (001.374092)  can0  0CF00203   [8]  C0 00 00 FF F7 65 16 03
 (001.374845)  can0  10FCFD00   [8]  FF FF FF FF 00 32 FF FF
 (001.379583)  can0  0CF00300   [8]  D1 00 0C FF FF 0F 6B 7E
 (001.383593)  can0  18F00100   [8]  FF FF FF FF FF FF FF FF
 (001.384162)  can0  0CF00203   [8]  C0 00 00 FF F7 65 16 03
 (001.384770)  can0  0CF00C03   [8]  E9 03 AD 16 FF FF FF FF
 (001.385416)  can0  0CF00400   [8]  30 7D 83 BD 16 00 0F 83
 (001.388544)  can0  18FDB300   [8]  FF FF 70 3F FF FF FF FF
 (001.390113)  can0  18FECA31   [8]  00 FF 00 00 00 00 FF FF
 (001.390739)  can0  18F11031   [8]  00 00 FF FF FF FF FF FF
 (001.393690)  can0  18FEDF00   [8]  84 A0 28 7D 7D FF FF F5
 (001.394240)  can0  0CF00203   [8]  C0 00 00 FF F7 5D 16 03
 (001.399343)  can0  0CF00300   [8]  D1 00 0B FF FF 0F 6A 7E
 (001.399481)  can0  0C010305   [8]  FF FF FF FF FF F3 FF FF
 (001.400160)  can0  0CF00331   [8]  FF FF FF FF FF FF FF FF
 (001.400669)  can0  0CF00A00   [8]  26 03 EE 05 FF FF FF FF
 (001.401354)  can0  18FEF000   [8]  FF FF FF B5 16 FF FF FF
 (001.401808)  can0  18F00E00   [8]  E6 25 FF FF D5 9F FF FF
 (001.403303)  can0  18F0010B   [8]  CF FF F0 FF FF CD FF FF
 (001.403683)  can0  18F03300   [8]  FF FF FF FF FF FF FF FF
 (001.404269)  can0  0CF00203   [8]  C0 00 00 FF F7 5D 16 03
 (001.404877)  can0  0CF00C03   [8]  E9 03 83 16 FF FF FF FF
 (001.405591)  can0  0CF00400   [8]  30 7D 83 C5 16 00 0F 83
 (001.408695)  can0  18FDB200   [8]  FF FF FF FF 01 00 FF FF
 (001.409140)  can0  18FCF200   [8]  E1 FF FF FF FF FF FF FF
 (001.412826)  can0  18FEBF0B   [8]  00 00 7D 7D 7D 7D FF FF
 (001.413687)  can0  18FEDF00   [8]  84 A0 28 7D 7D FF FF F5
 (001.414234)  can0  0CF00203   [8]  C0 00 00 FF F7 61 16 03
 (001.414783)  can0  18F00F00   [8]  80 0F FF FF D5 9F FF FF
 (001.418942)  can0  0CF00300   [8]  D1 00 0B FF FF 0F 6A 7E
 (001.419517)  can0  18FEF100   [8]  FF 00 00 FC FF 68 00 CF
 (001.423865)  can0  0CF00203   [8]  C0 00 00 FF F7 61 16 03
 (001.424492)  can0  0CF00C03   [8]  EF 03 E7 16 FF FF FF FF
 (001.425465)  can0  0CF00400   [8]  20 7D 83 C9 16 00 0F 83
 (001.426066)  can0  1CEBFF00   [8]  03 CB 40 51 FF FF 55 04
 (001.428698)  can0  10FDA300   [8]  FF FF 15 FF FF FF FF FF
 (001.429099)  can0  18F00029   [8]  F0 7D 7D F3 29 FF FF 3C
 (001.433927)  can0  18FD8C00   [8]  FF FF 00 00 FF FF FF FF
 (001.434187)  can0  0CF00203   [8]  C0 00 00 FF F7 66 16 03
 (001.434862)  can0  18FEDF00   [8]  84 A0 28 7D 7D FF FF F5
 (001.439634)  can0  18FCDC00   [8]  9F FF FF FF 50 68 00 00
 (001.439644)  can0  0CF00300   [8]  D1 00 0B FF FF 0F 6B 7E
 (001.440094)  can0  1CFE9200   [8]  FF 88 8F FF FF FF 00 00
 (001.444266)  can0  0CF00203   [8]  C0 00 00 FF F7 66 16 03
 (001.444406)  can0  0CF00C03   [8]  EE 03 EB 16 FF FF FF FF
 (001.445722)  can0  18F00503   [8]  7D 00 00 7D 4E 20 4E 43
 (001.445730)  can0  0CF00400   [8]  20 7D 83 C0 16 00 0F 83
 (001.446171)  can0  18FE4A03   [8]  03 1F 4F FF FF F3 FF FF
 (001.448639)  can0  0CF00A00   [8]  26 03 D2 05 FF FF FF FF
 (001.449183)  can0  18FD9400   [8]  96 0F FF FF FF FF FF FF
 (001.449779)  can0  0C010305   [8]  FF FF FF FF FF F3 FF FF
 (001.450406)  can0  18F00131   [8]  FF FF FF 3F 00 FF FF FF
 (001.450953)  can0  18F00E00   [8]  F2 25 FF FF D5 9F FF FF
 (001.451540)  can0  18FEF131   [8]  F3 FF FF C3 CC FF FF F0
 (001.452108)  can0  18FEF031   [8]  FF FF FF FF FF FC CC FF
 (001.452733)  can0  18FF4831   [8]  00 00 FF FF 00 00 00 00
 (001.453332)  can0  18FEF231   [8]  FF FF FF FF FF FF FF FF
 (001.453895)  can0  0CF00203   [8]  C0 00 00 FF F7 6A 16 03
 (001.454464)  can0  0CF00331   [8]  FF FF FF FF FF FF FF FF
 (001.455039)  can0  18FD2000   [8]  C6 39 FF FF FF FF FF FF
 (001.455642)  can0  18F03300   [8]  FF FF FF FF FF FF FF FF
 (001.456256)  can0  18FEDF00   [8]  84 A0 28 7D 7D FF FF F5
 (001.459677)  can0  18FEE000   [8]  00 00 00 00 15 96 35 00
 (001.459686)  can0  0CF00300   [8]  D1 00 0B FF FF 0F 6A 7E
 (001.463951)  can0  18FEF200   [8]  11 00 00 00 00 00 E1 FF
 (001.464250)  can0  0CF00203   [8]  C0 00 00 FF F7 6A 16 03
 (001.464840)  can0  18F00F00   [8]  80 0F FF FF D5 9F FF FF
 (001.465407)  can0  0CF00C03   [8]  E9 03 85 16 FF FF FF FF
 (001.465999)  can0  0CF00400   [8]  30 7D 83 B0 16 00 0F 83
 (001.473963)  can0  18FEDF00   [8]  84 A0 28 7D 7D FF FF F5
 (001.474211)  can0  0CF00203   [8]  C0 00 00 FF F7 67 16 03
 (001.474918)  can0  10FCFD00   [8]  FF FF FF FF 00 32 FF FF
 (001.478946)  can0  18FD3E00   [8]  40 40 FF 06 40 FF FF FF
 (001.479488)  can0  0CF00300   [8]  D1 00 0B FF FF 0F 6A 7E
 (001.481391)  can0  1CEBFF00   [8]  04 38 5E 14 46 FA 7D C6
 (001.483598)  can0  18F00100   [8]  FF FF FF FF FF FF FF FF
 (001.484164)  can0  0CF00203   [8]  C0 00 00 FF F7 67 16 03
 (001.484773)  can0  0CF00C03   [8]  E9 03 70 16 FF FF FF FF
 (001.485441)  can0  0CF00400   [8]  60 7D 83 93 16 00 0F 84
 (001.493595)  can0  18FEDF00   [8]  84 A0 28 7D 7D FF FF F5
 (001.494164)  can0  0CF00203   [8]  C0 00 00 FF F7 69 16 03
 (001.499305)  can0  18FD4000   [8]  FF 3F 00 FF FF FF FF FF
 (001.499531)  can0  0C010305   [8]  FF FF FF FF FF F3 FF FF
 (001.500178)  can0  0CF00300   [8]  D1 00 0C FF FF 0F 6A 7E
 (001.500712)  can0  0CF00331   [8]  FF FF FF FF FF FF FF FF
 (001.501411)  can0  0CF00A00   [8]  26 03 E5 05 FF FF FF FF
 (001.501841)  can0  18FEF000   [8]  FF FF FF A3 16 FF FF FF
 (001.503234)  can0  18F00E00   [8]  F2 25 FF FF D5 9F FF FF
 (001.503242)  can0  18F0010B   [8]  CF FF F0 FF FF CD FF FF
 (001.503643)  can0  18F03300   [8]  FF FF FF FF FF FF FF FF
 (001.504690)  can0  0CF00203   [8]  C0 00 00 FF F7 69 16 03
 (001.504788)  can0  0CF00C03   [8]  ED 03 E1 16 FF FF FF FF
 (001.505489)  can0  0CF00400   [8]  60 7D 83 A2 16 00 0F 84
 (001.508658)  can0  18FCF200   [8]  E1 FF FF FF FF FF FF FF
 (001.512684)  can0  18FEBF0B   [8]  00 00 7D 7D 7D 7D FF FF
 (001.513693)  can0  18FEDF00   [8]  84 A0 28 7D 7D FF FF F5
 (001.514263)  can0  0CF00203   [8]  C0 00 00 FF F7 66 16 03
 (001.514841)  can0  18F00F00   [8]  80 0F FF FF D5 9F FF FF
 (001.519072)  can0  0CF00300   [8]  D1 00 0C FF FF 0F 6B 7E
 (001.519514)  can0  18FEF100   [8]  FF 00 00 FC FF 68 00 CF
 (001.524470)  can0  18FCC500   [8]  40 40 FF FF FF FF FF FF
 (001.524480)  can0  0CF00203   [8]  C0 00 00 FF F7 66 16 03
 (001.524788)  can0  0CFD9200   [8]  F4 FF FA FF FF FF FF FF
 (001.525317)  can0  0CF00C03   [8]  EA 03 C1 16 FF FF FF FF
 (001.525914)  can0  0CF00400   [8]  50 7D 83 A4 16 00 0F 84
 (001.528673)  can0  10FDA300   [8]  FF FF 14 FF FF FF FF FF
 (001.529197)  can0  18F00029   [8]  F0 7D 7D F3 29 FF FF 3C
 (001.533950)  can0  18FEDF00   [8]  84 A0 28 7D 7D FF FF F5
 (001.534119)  can0  0CF00203   [8]  C0 00 00 FF F7 60 16 03
 (001.536334)  can0  1CEBFF00   [8]  05 40 51 86 00 F7 02 FF
 (001.539511)  can0  18FCDC00   [8]  9F FF FF FF 50 68 00 00
 (001.539526)  can0  0CF00300   [8]  D1 00 0C FF FF 0F 6B 7E
 (001.540214)  can0  1CFE9200   [8]  FF 04 90 FF FF FF 00 00
 (001.543881)  can0  0CF00203   [8]  C0 00 00 FF F7 60 16 03
 (001.544472)  can0  0CF00C03   [8]  EA 03 61 16 FF FF FF FF
 (001.545085)  can0  18F00503   [8]  7D 00 00 7D 4E 20 4E 43
 (001.545634)  can0  0CF00400   [8]  50 7D 83 A7 16 00 0F 84
 (001.546212)  can0  18FE4A03   [8]  03 1F 4F FF FF F3 FF FF
 (001.548589)  can0  0CF00A00   [8]  EE 02 0A 06 FF FF FF FF
 (001.549171)  can0  18FD9400   [8]  96 0F FF FF FF FF FF FF
 (001.549823)  can0  0C010305   [8]  FF FF FF FF FF F3 FF FF
 (001.550367)  can0  18F00131   [8]  FF FF FF 3F 00 FF FF FF
 (001.550927)  can0  18FEEF00   [8]  FF FF FF 1F 49 7D FF FA
 (001.551487)  can0  18E0FF31   [8]  00 FF FF FF FF F0 FF FF
 (001.552088)  can0  18F00E00   [8]  F2 25 FF FF D5 9F FF FF
 (001.552661)  can0  18FEF131   [8]  F3 FF FF C3 CC FF FF F0
 (001.553229)  can0  18FEF031   [8]  FF FF FF FF FF FC CC FF
 (001.553813)  can0  18F03300   [8]  FF FF FF FF FF FF FF FF
 (001.554386)  can0  0CF00203   [8]  C0 00 00 FF F7 5A 16 03
 (001.555008)  can0  18FEDF00   [8]  84 A0 28 7D 7D FF FF F5
 (001.555568)  can0  18FEFC31   [8]  FF 75 FF FF FF FF 00 FF
 (001.556125)  can0  18FEAE31   [8]  FF FF 6E 6F FF FF FF FF
 (001.556670)  can0  18FEF731   [8]  FF FF FF FF 1A 01 FF FF
 (001.557287)  can0  18FF4831   [8]  00 00 FF FF 00 00 00 00
 (001.557888)  can0  18FD8331   [8]  F8 FF FF FF FF FF FF FF
 (001.558487)  can0  18FEF831   [8]  FF FF FF FF FF FF FF FF
 (001.559092)  can0  18FEF231   [8]  FF FF FF FF FF FF FF FF
 (001.559686)  can0  18FEE000   [8]  00 00 00 00 15 96 35 00
 (001.560287)  can0  18FEFA31   [8]  FF DD DD FF FF FF FF FF
 (001.560792)  can0  0CF00300   [8]  D1 00 0C FF FF 0F 6A 7E
 (001.561473)  can0  18FEC131   [8]  2F 42 67 06 FF FF FF FF
 (001.561957)  can0  0CF00331   [8]  FF FF FF FF FF FF FF FF
 (001.564060)  can0  18FEF200   [8]  11 00 00 00 00 00 E1 FF
 (001.564388)  can0  0CF00203   [8]  C0 00 00 FF F7 5A 16 03
 (001.564998)  can0  18F00F00   [8]  80 0F FF FF D5 9F FF FF
 (001.566348)  can0  0CF00C03   [8]  EB 03 B2 16 FF FF FF FF
 (001.566356)  can0  0CF00400   [8]  50 7D 83 AF 16 00 0F 84
 (001.568687)  can0  18FEDB00   [8]  FF FF 3A 31 FF FF FF FF
 (001.574017)  can0  18FEDF00   [8]  84 A0 28 7D 7D FF FF F5
 (001.574119)  can0  0CF00203   [8]  C0 00 00 FF F7 57 16 03
 (001.575574)  can0  10FCFD00   [8]  FF FF FF FF 00 32 FF FF
 (001.578950)  can0  0CF00300   [8]  D1 00 0C FF FF 0F 69 7E
 (001.583643)  can0  18F00100   [8]  FF FF FF FF FF FF FF FF
 (001.584202)  can0  0CF00203   [8]  C0 00 00 FF F7 57 16 03
 (001.584764)  can0  0CF00C03   [8]  EE 03 FC 16 FF FF FF FF
 (001.585466)  can0  0CF00400   [8]  40 7D 83 BD 16 00 0F 83
 (001.588692)  can0  18FEF600   [8]  FF 00 65 FF FF FF FF FF
 (001.593695)  can0  18FEDF00   [8]  84 A0 28 7D 7D FF FF F5
 (001.594235)  can0  0CF00203   [8]  C0 00 00 FF F7 56 16 03
 (001.599731)  can0  0CF00300   [8]  D1 00 0B FF FF 0F 6A 7E
 (001.599741)  can0  0C010305   [8]  FF FF FF FF FF F3 FF FF
 (001.600119)  can0  0CF00331   [8]  FF FF FF FF FF FF FF FF
 (001.600679)  can0  0CF00A00   [8]  EE 02 14 06 FF FF FF FF
 (001.601318)  can0  18FEF000   [8]  FF FF FF B9 16 FF FF FF
 (001.601887)  can0  18F00E00   [8]  FE 25 FF FF D5 9F FF FF
 (001.603446)  can0  18F0010B   [8]  CF FF F0 FF FF CD FF FF
 (001.603632)  can0  18F03300   [8]  FF FF FF FF FF FF FF FF
 (001.604701)  can0  0CF00203   [8]  C0 00 00 FF F7 56 16 03
 (001.604736)  can0  0CF00C03   [8]  EA 03 B6 16 FF FF FF FF
 (001.605814)  can0  0CF00400   [8]  40 7D 83 B9 16 00 0F 83
 (001.608807)  can0  18FCF200   [8]  E1 FF FF FF FF FF FF FF
 (001.612909)  can0  18FEBF0B   [8]  00 00 7D 7D 7D 7D FF FF
 (001.613631)  can0  18FEDF00   [8]  84 A0 28 7D 7D FF FF F5
 (001.614170)  can0  0CF00203   [8]  C0 00 00 FF F7 59 16 03
 (001.614741)  can0  18FDC600   [8]  FC 04 FF FF FF FF FF FF
 (001.615336)  can0  18F00F00   [8]  80 0F FF FF D5 9F FF FF
 (001.619023)  can0  0CF00300   [8]  D1 00 0B FF FF 0F 6A 7E
 (001.619571)  can0  18FEF100   [8]  FF 00 00 FC FF 68 00 CF
 (001.624285)  can0  0CF00203   [8]  C0 00 00 FF F7 59 16 03
 (001.624441)  can0  0CF00C03   [8]  E9 03 57 16 FF FF FF FF
 (001.625490)  can0  0CF00400   [8]  50 7D 83 B2 16 00 0F 84
 (001.628795)  can0  10FDA300   [8]  FF FF 14 FF FF FF FF FF
 (001.629157)  can0  18F00029   [8]  F0 7D 7D F3 29 FF FF 3C
 (001.633929)  can0  18FEDF00   [8]  84 A0 28 7D 7D FF FF F5
 (001.634219)  can0  0CF00203   [8]  C0 00 00 FF F7 5A 16 03
 (001.639630)  can0  18FCDC00   [8]  9F FF FF FF 50 68 00 00
 (001.639641)  can0  0CF00300   [8]  D1 00 0C FF FF 0F 69 7E
 (001.640164)  can0  1CFE9200   [8]  FF C4 90 FF FF FF 00 00
 (001.643859)  can0  0CF00203   [8]  C0 00 00 FF F7 5A 16 03
 (001.644463)  can0  0CF00C03   [8]  EE 03 B8 16 FF FF FF FF
 (001.645064)  can0  18F00503   [8]  7D 00 00 7D 4E 20 4E 43
 (001.645638)  can0  0CF00400   [8]  60 7D 83 98 16 00 0F 84
 (001.646213)  can0  18FE4A03   [8]  03 1F 4F FF FF F3 FF FF
 (001.648703)  can0  0CF00A00   [8]  EE 02 1D 06 FF FF FF FF
 (001.649214)  can0  18FD9400   [8]  96 0F FF FF FF FF FF FF
 (001.649842)  can0  0C010305   [8]  FF FF FF FF FF F3 FF FF
 (001.650391)  can0  18F00131   [8]  FF FF FF 3F 00 FF FF FF
 (001.650989)  can0  18F00E00   [8]  FE 25 FF FF D5 9F FF FF
 (001.651557)  can0  18FEF131   [8]  F3 FF FF C3 CC FF FF F0
 (001.652159)  can0  18FEF031   [8]  FF FF FF FF FF FC CC FF
 (001.652723)  can0  18FF4831   [8]  00 00 FF FF 00 00 00 00
 (001.653361)  can0  18FEF231   [8]  FF FF FF FF FF FF FF FF
 (001.653914)  can0  0CF00203   [8]  C0 00 00 FF F7 5B 16 03
 (001.654486)  can0  0CF00331   [8]  FF FF FF FF FF FF FF FF
 (001.655088)  can0  18F03300   [8]  FF FF FF FF FF FF FF FF
 (001.655753)  can0  18FEDF00   [8]  84 A0 28 7D 7D FF FF F5
 (001.659631)  can0  18FEF700   [8]  FF FF FF FF 18 01 FF FF
 (001.659641)  can0  18FEE000   [8]  00 00 00 00 15 96 35 00
 (001.660209)  can0  0CF00300   [8]  D1 00 0C FF FF 0F 69 7E
 (001.664013)  can0  18FEF200   [8]  0D 00 00 00 00 00 E1 FF
 (001.664299)  can0  0CF00203   [8]  C0 00 00 FF F7 5B 16 03
 (001.664892)  can0  18F00F00   [8]  80 0F FF FF D5 9F FF FF
 (001.665436)  can0  0CF00C03   [8]  EB 03 B4 16 FF FF FF FF
 (001.666016)  can0  0CF00400   [8]  00 7D 84 92 16 00 0F 84
 (001.673990)  can0  18FEDF00   [8]  84 A0 28 7D 7D FF FF F5
 (001.674236)  can0  0CF00203   [8]  C0 00 00 FF F7 57 16 03
 (001.675621)  can0  10FCFD00   [8]  FF FF FF FF 00 32 FF FF
 (001.678984)  can0  18FEC100   [8]  17 A8 3B 05 00 00 00 00
 (001.679555)  can0  0CF00300   [8]  D1 00 0C FF FF 0F 6A 7E
 (001.683823)  can0  18F00100   [8]  FF FF FF FF FF FF FF FF
 (001.684192)  can0  0CF00203   [8]  C0 00 00 FF F7 57 16 03
 (001.684837)  can0  0CF00C03   [8]  EA 03 69 16 FF FF FF FF
 (001.685503)  can0  0CF00400   [8]  70 7D 83 96 16 00 0F 84
 (001.693649)  can0  18FEDF00   [8]  84 A0 28 7D 7D FF FF F5
 (001.694175)  can0  0CF00203   [8]  C0 00 00 FF F7 55 16 03
 (001.699331)  can0  0CF00300   [8]  D1 00 0C FF FF 0F 6B 7E
 (001.699577)  can0  0C010305   [8]  FF FF FF FF FF F3 FF FF
 (001.700105)  can0  0CF00331   [8]  FF FF FF FF FF FF FF FF
 (001.700738)  can0  0CF00A00   [8]  D1 02 14 06 FF FF FF FF
 (001.701311)  can0  18FEF000   [8]  FF FF FF 95 16 FF FF FF
 (001.701888)  can0  18F00E00   [8]  FE 25 FF FF D5 9F FF FF
 (001.703539)  can0  18F0010B   [8]  CF FF F0 FF FF CD FF FF
 (001.703643)  can0  18FE5600   [8]  97 42 FF FF 1F 1F 00 FF
 (001.704216)  can0  0CF00203   [8]  C0 00 00 FF F7 55 16 03
 (001.704815)  can0  18F03300   [8]  FF FF FF FF FF FF FF FF
 (001.705358)  can0  0CF00C03   [8]  EA 03 8D 16 FF FF FF FF
 (001.705974)  can0  0CF00400   [8]  70 7D 83 9B 16 00 0F 84
 (001.708667)  can0  18FCF200   [8]  E1 FF FF FF FF FF FF FF
 (001.713094)  can0  18FEBF0B   [8]  00 00 7D 7D 7D 7D FF FF
 (001.713705)  can0  18FEDF00   [8]  84 A0 28 7D 7D FF FF F5
 (001.714261)  can0  0CF00203   [8]  C0 00 00 FF F7 50 16 03
 (001.714841)  can0  18F00F00   [8]  80 0F FF FF D5 9F FF FF
 (001.719088)  can0  0CF00300   [8]  D1 00 0C FF FF 0F 6A 7E
 (001.719632)  can0  18FEF100   [8]  FF 00 00 FC FF 68 00 CF
 (001.723888)  can0  18FD7B00   [8]  00 FF 31 B9 00 00 BC 55
 (001.724189)  can0  0CF00203   [8]  C0 00 00 FF F7 50 16 03
 (001.724802)  can0  0CF00C03   [8]  EE 03 DD 16 FF FF FF FF
 (001.725470)  can0  0CF00400   [8]  60 7D 83 9D 16 00 0F 84
 (001.728780)  can0  10FDA300   [8]  FF FF 14 FF FF FF FF FF
 (001.729218)  can0  18F00029   [8]  F0 7D 7D F3 29 FF FF 3C
 (001.733852)  can0  18FEDF00   [8]  84 A0 28 7D 7D FF FF F5
 (001.734186)  can0  0CF00203   [8]  C0 00 00 FF F7 4A 16 03
 (001.739651)  can0  18FCDC00   [8]  9F FF FF FF 50 68 00 00
 (001.739662)  can0  0CF00300   [8]  D1 00 0C FF FF 0F 69 7E
 (001.740188)  can0  1CFE9200   [8]  FF 78 90 FF FF FF 00 00
 (001.743866)  can0  0CF00203   [8]  C0 00 00 FF F7 4A 16 03
 (001.744464)  can0  0CF00C03   [8]  EB 03 AE 16 FF FF FF FF
 (001.745061)  can0  18F00503   [8]  7D 00 00 7D 4E 20 4E 43
 (001.745627)  can0  0CF00400   [8]  60 7D 83 AC 16 00 0F 84
 (001.746202)  can0  18FE4A03   [8]  03 1F 4F FF FF F3 FF FF
 (001.748685)  can0  0CF00A00   [8]  D1 02 30 06 FF FF FF FF
 (001.749259)  can0  18FD9400   [8]  96 0F FF FF FF FF FF FF
 (001.749825)  can0  0C010305   [8]  FF FF FF FF FF F3 FF FF
 (001.750421)  can0  18F00131   [8]  FF FF FF 3F 00 FF FF FF
 (001.750963)  can0  18FEDD00   [8]  FF 11 0F FF FF FF FF FF
 (001.751552)  can0  18F00E00   [8]  FE 25 FF FF D5 9F FF FF
 (001.752117)  can0  18FEF131   [8]  F3 FF FF C3 CC FF FF F0
 (001.752670)  can0  18FEF031   [8]  FF FF FF FF FF FC CC FF
 (001.753320)  can0  18FF4831   [8]  00 00 FF FF 00 00 00 00
 (001.753865)  can0  0CF00203   [8]  C0 00 00 FF F7 47 16 03
 (001.754462)  can0  18F03300   [8]  FF FF FF FF FF FF FF FF
 (001.755037)  can0  18FEF231   [8]  FF FF FF FF FF FF FF FF
 (001.755652)  can0  18FEDF00   [8]  84 A0 28 7D 7D FF FF F5
 (001.756239)  can0  0CF00331   [8]  FF FF FF FF FF FF FF FF
 (001.759066)  can0  18FEE000   [8]  00 00 00 00 15 96 35 00
 (001.759690)  can0  0CF00300   [8]  D1 00 0C FF FF 0F 69 7E
 (001.764074)  can0  18FEF200   [8]  12 00 00 00 00 00 E1 FF
 (001.764320)  can0  0CF00203   [8]  C0 00 00 FF F7 47 16 03
 (001.764888)  can0  18F00F00   [8]  80 0F FF FF D5 9F FF FF
 (001.765466)  can0  0CF00C03   [8]  E9 03 76 16 FF FF FF FF
 (001.766056)  can0  0CF00400   [8]  40 7D 83 B8 16 00 0F 84
 (001.768843)  can0  18FEE400   [8]  FF 3F FC FC 00 7F FF FF
 (001.773642)  can0  18FEDF00   [8]  84 A0 28 7D 7D FF FF F5
 (001.774205)  can0  0CF00203   [8]  C0 00 00 FF F7 4B 16 03
 (001.774782)  can0  10FCFD00   [8]  FF FF FF FF 00 32 FF FF
 (001.775381)  can0  0CFD9200   [8]  F4 FF FA FF FF FF FF FF
 (001.778976)  can0  0CF00300   [8]  D1 00 0C FF FF 0F 6A 7E
 (001.783862)  can0  18F00100   [8]  FF FF FF FF FF FF FF FF
 (001.784192)  can0  0CF00203   [8]  C0 00 00 FF F7 4B 16 03
 (001.784863)  can0  0CF00C03   [8]  EE 03 C1 16 FF FF FF FF
 (001.785532)  can0  0CF00400   [8]  50 7D 83 AC 16 00 0F 84
 (001.793697)  can0  18FEDF00   [8]  84 A0 28 7D 7D FF FF F5
 (001.794263)  can0  0CF00203   [8]  C0 00 00 FF F7 51 16 03
 (001.799392)  can0  0CF00300   [8]  D1 00 0C FF FF 0F 69 7E
 (001.799535)  can0  0C010305   [8]  FF FF FF FF FF F3 FF FF
 (001.800378)  can0  0CF00331   [8]  FF FF FF FF FF FF FF FF
 (001.800732)  can0  0CF00A00   [8]  D1 02 30 06 FF FF FF FF
 (001.801345)  can0  18FEF000   [8]  FF FF FF B4 16 FF FF FF
 (001.801911)  can0  18FEBD00   [8]  00 F0 FF FF FF FF FF FF
 (001.802488)  can0  18F00E00   [8]  0C 26 FF FF D5 9F FF FF
 (001.803960)  can0  18F0010B   [8]  CF FF F0 FF FF CD FF FF
 (001.803969)  can0  18F03300   [8]  FF FF FF FF FF FF FF FF
 (001.804459)  can0  0CF00203   [8]  C0 00 00 FF F7 51 16 03
 (001.805076)  can0  0CF00C03   [8]  EE 03 D1 16 FF FF FF FF
 (001.805593)  can0  0CF00400   [8]  70 7D 83 98 16 00 0F 84
 (001.808657)  can0  18FCF200   [8]  E1 FF FF FF FF FF FF FF
 (001.814029)  can0  18FEBF0B   [8]  00 00 7D 7D 7D 7D FF FF
 (001.814039)  can0  0CF00203   [8]  C0 00 00 FF F7 50 16 03
 (001.814391)  can0  18FEDF00   [8]  84 A0 28 7D 7D FF FF F5
 (001.815073)  can0  18E0FF00   [8]  00 FF FF FF FF FF FF FF
 (001.815711)  can0  18F00F00   [8]  80 0F FF FF D5 9F FF FF
 (001.819067)  can0  18FD0700   [8]  43 0C FC FF FF FF FF FF
 (001.819634)  can0  0CF00300   [8]  D1 00 0C FF FF 0F 69 7E
 (001.820217)  can0  18FEF100   [8]  FF 00 00 FC FF 68 00 CF
 (001.824126)  can0  18FEEE00   [8]  81 FF FF FF FF FF FF FF
 (001.824209)  can0  0CF00203   [8]  C0 00 00 FF F7 50 16 03
 (001.824863)  can0  0CF00C03   [8]  E9 03 70 16 FF FF FF FF
 (001.825594)  can0  0CF00400   [8]  10 7D 84 8B 16 00 0F 84
 (001.828838)  can0  10FDA300   [8]  FF FF 14 FF FF FF FF FF
 (001.829201)  can0  18F00029   [8]  F0 7D 7D F3 29 FF FF 3C
 (001.833924)  can0  18FEDF00   [8]  84 A0 28 7D 7D FF FF F5
 (001.834261)  can0  0CF00203   [8]  C0 00 00 FF F7 4E 16 03
 (001.838994)  can0  18FCDC00   [8]  9F FF FF FF 50 68 00 00
 (001.839584)  can0  0CF00300   [8]  D1 00 0D FF FF 0F 6A 7E
 (001.840136)  can0  1CFE9200   [8]  FF 90 90 FF FF FF 00 00
 (001.840726)  can0  18FEF500   [8]  A8 FF FF 55 26 FF FF FF
 (001.843842)  can0  0CF00203   [8]  C0 00 00 FF F7 4E 16 03
 (001.844467)  can0  0CF00C03   [8]  E9 03 48 16 FF FF FF FF
 (001.845075)  can0  18F00503   [8]  7D 00 00 7D 4E 20 4E 43
 (001.845633)  can0  0CF00400   [8]  00 7D 84 92 16 00 0F 84
 (001.846212)  can0  18FE4A03   [8]  03 1F 4F FF FF F3 FF FF
 (001.848671)  can0  14FC9800   [8]  FF 00 00 00 00 00 00 FF
 (001.849216)  can0  0CF00A00   [8]  E4 02 14 06 FF FF FF FF
 (001.849814)  can0  0C010305   [8]  FF FF FF FF FF F3 FF FF
 (001.850360)  can0  18F00131   [8]  FF FF FF 3F 00 FF FF FF
 (001.850994)  can0  18FD9400   [8]  30 12 FF FF FF FF FF FF
 (001.851522)  can0  18F00E00   [8]  0C 26 FF FF D5 9F FF FF
 (001.852088)  can0  18FEF131   [8]  F3 FF FF C3 CC FF FF F0
 (001.852646)  can0  18FEF031   [8]  FF FF FF FF FF FC CC FF
 (001.853295)  can0  18FF4831   [8]  00 00 FF FF 00 00 00 00
 (001.853839)  can0  0CF00203   [8]  C0 00 00 FF F7 4D 16 03
 (001.854438)  can0  18F03300   [8]  FF FF FF FF FF FF FF FF
 (001.855082)  can0  18FEF231   [8]  FF FF FF FF FF FF FF FF
 (001.855564)  can0  18FEDF00   [8]  84 A0 28 7D 7D FF FF F5
 (001.856663)  can0  0CF00331   [8]  FF FF FF FF FF FF FF FF
 (001.859719)  can0  18FEE000   [8]  00 00 00 00 15 96 35 00
 (001.859728)  can0  0CF00300   [8]  D1 00 0C FF FF 0F 6B 7E
 (001.860273)  can0  18FEA400   [8]  FF FF 63 2A FF FF FB 2C
 (001.864015)  can0  18FDB400   [8]  C6 39 70 3B FF FF FF FF
 (001.864263)  can0  0CF00203   [8]  C0 00 00 FF F7 4D 16 03
 (001.864844)  can0  18FEF200   [8]  0E 00 00 00 00 00 E1 FF
 (001.865386)  can0  0CF00C03   [8]  ED 03 D1 16 FF FF FF FF
 (001.866087)  can0  18F00F00   [8]  80 0F FF FF D5 9F FF FF
 (001.866530)  can0  0CF00400   [8]  00 7D 84 9A 16 00 0F 84
 (001.873687)  can0  18FEDF00   [8]  84 A0 28 7D 7D FF FF F5
 (001.874227)  can0  0CF00203   [8]  C0 00 00 FF F7 4B 16 03
 (001.874806)  can0  10FCFD00   [8]  FF FF FF FF 00 32 FF FF
 (001.879228)  can0  0CF00300   [8]  D1 00 0C FF FF 0F 6A 7E
 (001.883863)  can0  18FD7C00   [8]  F8 83 00 00 C3 0F 03 FF
 (001.884195)  can0  0CF00203   [8]  C0 00 00 FF F7 4B 16 03
 (001.884800)  can0  18F00100   [8]  FF FF FF FF FF FF FF FF
 (001.885372)  can0  0CF00C03   [8]  EB 03 DD 16 FF FF FF FF
 (001.885924)  can0  0CF00400   [8]  60 7D 83 A6 16 00 0F 84
 (001.888716)  can0  18FDB300   [8]  FF FF 70 3F FF FF FF FF
 (001.893696)  can0  18FEDF00   [8]  84 A0 28 7D 7D FF FF F5
 (001.894237)  can0  0CF00203   [8]  C0 00 00 FF F7 43 16 03
 (001.899276)  can0  0CF00300   [8]  D1 00 0C FF FF 0F 69 7E
 (001.899575)  can0  0C010305   [8]  FF FF FF FF FF F3 FF FF
 (001.900711)  can0  0CF00331   [8]  FF FF FF FF FF FF FF FF
 (001.900721)  can0  0CF00A00   [8]  E4 02 27 06 FF FF FF FF
 (001.902144)  can0  18FEF000   [8]  FF FF FF A1 16 FF FF FF
 (001.902153)  can0  18F00E00   [8]  0C 26 FF FF D5 9F FF FF
 (001.903467)  can0  18F0010B   [8]  CF FF F0 FF FF CD FF FF
 (001.904034)  can0  0CF00203   [8]  C0 00 00 FF F7 43 16 03
 (001.904651)  can0  18F03300   [8]  FF FF FF FF FF FF FF FF
 (001.905179)  can0  0CF00C03   [8]  E9 03 62 16 FF FF FF FF
 (001.905754)  can0  18FE9A00   [8]  99 27 FF FF FF FF FF FF
 (001.906332)  can0  0CF00400   [8]  60 7D 83 B1 16 00 0F 84
 (001.908681)  can0  18FDB200   [8]  FF FF FF FF 01 00 FF FF
 (001.909236)  can0  18FCF200   [8]  E1 FF FF FF FF FF FF FF
 (001.914016)  can0  18FEBF0B   [8]  00 00 7D 7D 7D 7D FF FF
 (001.914025)  can0  0CF00203   [8]  C0 00 00 FF F7 46 16 03
 (001.914946)  can0  18FEDF00   [8]  84 A0 28 7D 7D FF FF F5
 (001.915225)  can0  18F00F00   [8]  80 0F FF FF D5 9F FF FF
 (001.919067)  can0  0CF00300   [8]  D1 00 0C FF FF 0F 68 7E
 (001.919681)  can0  18FEF100   [8]  FF 00 00 FC FF 68 00 CF
 (001.923990)  can0  0CF00203   [8]  C0 00 00 FF F7 46 16 03
 (001.924429)  can0  0CF00C03   [8]  EE 03 8F 16 FF FF FF FF
 (001.925806)  can0  0CF00400   [8]  50 7D 83 B5 16 00 0F 84
 (001.928837)  can0  10FDA300   [8]  FF FF 14 FF FF FF FF FF
 (001.929186)  can0  18FE9900   [8]  FF FF FF FF FF FF FF FF
 (001.930699)  can0  18F00029   [8]  F0 7D 7D F3 29 FF FF 3C
 (001.933773)  can0  18FD8C00   [8]  FF FF 00 00 FF FF FF FF
 (001.934225)  can0  0CF00203   [8]  C0 00 00 FF F7 4C 16 03
 (001.934789)  can0  18FEDF00   [8]  84 A0 28 7D 7D FF FF F5
 (001.939064)  can0  18FCDC00   [8]  9F FF FF FF 50 68 00 00
 (001.939649)  can0  0CF00300   [8]  D1 00 0C FF FF 0F 6A 7E
 (001.940203)  can0  1CFE9200   [8]  FF E4 90 FF FF FF 00 00
 (001.944650)  can0  0CF00203   [8]  C0 00 00 FF F7 4C 16 03
 (001.944662)  can0  0CF00C03   [8]  F0 03 E2 16 FF FF FF FF
 (001.945022)  can0  18F00503   [8]  7D 00 00 7D 4E 20 4E 43
 (001.945760)  can0  0CF00400   [8]  50 7D 83 AA 16 00 0F 84
 (001.946218)  can0  18FE4A03   [8]  03 1F 4F FF FF F3 FF FF
 (001.948833)  can0  0CF00A00   [8]  E4 02 14 06 FF FF FF FF
 (001.949257)  can0  18FD9400   [8]  30 12 FF FF FF FF FF FF
 (001.949844)  can0  0C010305   [8]  FF FF FF FF FF F3 FF FF
 (001.950414)  can0  18F00131   [8]  FF FF FF 3F 00 FF FF FF
 (001.951002)  can0  18FEFC00   [8]  FF FF FF FF FF FF FF FF
 (001.951584)  can0  18F00E00   [8]  0C 26 FF FF D5 9F FF FF
 (001.952164)  can0  18FEF131   [8]  F3 FF FF C3 CC FF FF F0
 (001.952732)  can0  18FEF031   [8]  FF FF FF FF FF FC CC FF
 (001.953345)  can0  18FF4831   [8]  00 00 FF FF 00 00 00 00
 (001.953894)  can0  0CF00203   [8]  C0 00 00 FF F7 52 16 03
 (001.954491)  can0  18FD2000   [8]  C9 39 FF FF FF FF FF FF
 (001.955066)  can0  18FEF231   [8]  FF FF FF FF FF FF FF FF
 (001.955622)  can0  18F03300   [8]  FF FF FF FF FF FF FF FF
 (001.956678)  can0  0CF00331   [8]  FF FF FF FF FF FF FF FF
 (001.956732)  can0  18FEDF00   [8]  84 A0 28 7D 7D FF FF F5
 (001.959082)  can0  18FEE000   [8]  00 00 00 00 15 96 35 00
 (001.959777)  can0  0CF00300   [8]  D1 00 0C FF FF 0F 69 7E
 (001.963911)  can0  18FEF200   [8]  12 00 00 00 00 00 E1 FF
 (001.964291)  can0  0CF00203   [8]  C0 00 00 FF F7 52 16 03
 (001.964888)  can0  18F00F00   [8]  80 0F FF FF D5 9F FF FF
 (001.965457)  can0  0CF00C03   [8]  EA 03 B0 16 FF FF FF FF
 (001.966039)  can0  0CF00400   [8]  60 7D 83 9D 16 00 0F 84
 (001.973683)  can0  18FEDF00   [8]  84 A0 28 7D 7D FF FF F5
 (001.974237)  can0  0CF00203   [8]  C0 00 00 FF F7 52 16 03
 (001.974816)  can0  10FCFD00   [8]  FF FF FF FF 00 32 FF FF
 (001.979629)  can0  18FD3E00   [8]  3C 40 FF 06 40 FF FF FF
 (001.979639)  can0  0CF00300   [8]  D1 00 0C FF FF 0F 69 7E
 (001.984218)  can0  18F00100   [8]  FF FF FF FF FF FF FF FF
 (001.984226)  can0  0CF00203   [8]  C0 00 00 FF F7 52 16 03
 (001.984835)  can0  0CF00C03   [8]  E9 03 4C 16 FF FF FF FF
 (001.985610)  can0  0CF00400   [8]  10 7D 84 80 16 00 0F 84
 (001.994064)  can0  18FEDF00   [8]  84 A0 28 7D 7D FF FF F5
 (001.994163)  can0  0CF00203   [8]  C0 00 00 FF F7 51 16 03
 (001.999044)  can0  18FD4000   [8]  FF 3F 00 FF FF FF FF FF
 (001.999603)  can0  0C010305   [8]  FF FF FF FF FF F3 FF FF
 (002.000154)  can0  0CF00300   [8]  D1 00 0C FF FF 0F 69 7E
 (002.000693)  can0  0CF00331   [8]  FF FF FF FF FF FF FF FF
 (002.001302)  can0  0CF00A00   [8]  E4 02 1D 06 FF FF FF FF
 (002.001880)  can0  18FEF000   [8]  FF FF FF 8F 16 FF FF FF
 (002.002462)  can0  18F00E00   [8]  16 26 FF FF D5 9F FF FF
 (002.003029)  can0  1CECFF00   [8]  20 0E 00 02 FF CA FE 00
 (002.003681)  can0  18F0010B   [8]  CF FF F0 FF FF CD FF FF
 (002.004264)  can0  0CF00203   [8]  C0 00 00 FF F7 51 16 03
 (002.004830)  can0  18F03300   [8]  FF FF FF FF FF FF FF FF
 (002.005404)  can0  0CF00C03   [8]  ED 03 B5 16 FF FF FF FF
 (002.005971)  can0  0CF00400   [8]  10 7D 84 91 16 00 0F 84
 (002.008656)  can0  18FCF200   [8]  E1 FF FF FF FF FF FF FF
 (002.013713)  can0  18FEBF0B   [8]  00 00 7D 7D 7D 7D FF FF
 (002.014247)  can0  0CF00203   [8]  C0 00 00 FF F7 4E 16 03
 (002.014838)  can0  18FEDF00   [8]  84 A0 28 7D 7D FF FF F5
 (002.015434)  can0  18F00F00   [8]  80 0F FF FF D5 9F FF FF
 (002.019659)  can0  0CF00300   [8]  D1 00 0D FF FF 0F 6B 7E
 (002.019669)  can0  18FEF100   [8]  FF 00 00 FC FF 68 00 CF
 (002.024338)  can0  18FCC500   [8]  3C 40 FF FF FF FF FF FF
 (002.024348)  can0  0CF00203   [8]  C0 00 00 FF F7 4E 16 03
 (002.024830)  can0  0CFD9200   [8]  F4 FF FA FF FF FF FF FF
 (002.025540)  can0  0CF00C03   [8]  EC 03 C8 16 FF FF FF FF
 (002.025980)  can0  0CF00400   [8]  00 7D 84 99 16 00 0F 84
 (002.028694)  can0  10FDA300   [8]  FF FF 14 FF FF FF FF FF
 (002.029301)  can0  18F00029   [8]  F0 7D 7D F3 29 FF FF 3C
 (002.033685)  can0  18FEDF00   [8]  84 A0 28 7D 7D FF FF F5
 (002.034229)  can0  0CF00203   [8]  C0 00 00 FF F7 4B 16 03
 (002.039057)  can0  18FCDC00   [8]  9F FF FF FF 50 68 00 00
 (002.039636)  can0  0CF00300   [8]  D1 00 0C FF FF 0F 6B 7E
 (002.040217)  can0  1CFE9200   [8]  FF D0 90 FF FF FF 00 00
 (002.044404)  can0  0CF00203   [8]  C0 00 00 FF F7 4B 16 03
 (002.044414)  can0  0CF00C03   [8]  EA 03 88 16 FF FF FF FF
 (002.045065)  can0  18F00503   [8]  7D 00 00 7D 4E 20 4E 43
 (002.045636)  can0  0CF00400   [8]  70 7D 83 A6 16 00 0F 84
 (002.046190)  can0  18FE4A03   [8]  03 1F 4F FF FF F3 FF FF
 (002.048702)  can0  0CF00A00   [8]  F7 02 01 06 FF FF FF FF
 (002.049257)  can0  18FD9400   [8]  30 12 FF FF FF FF FF FF
 (002.049962)  can0  0C010305   [8]  FF FF FF FF FF F3 FF FF
 (002.050430)  can0  18F00131   [8]  FF FF FF 3F 00 FF FF FF
 (002.051118)  can0  18FEEF00   [8]  FF FF FF 1F 4B 7D FF FA
 (002.051565)  can0  18F00E00   [8]  16 26 FF FF D5 9F FF FF
 (002.052198)  can0  18FEF131   [8]  F3 FF FF C3 CC FF FF F0
 (002.052726)  can0  1CEBFF00   [8]  01 43 FF BF 00 09 08 54
 (002.053302)  can0  18FEF031   [8]  FF FF FF FF FF FC CC FF
 (002.053899)  can0  18F03300   [8]  FF FF FF FF FF FF FF FF
 (002.054434)  can0  0CF00203   [8]  C0 00 00 FF F7 46 16 03
 (002.055121)  can0  18FEDF00   [8]  84 A0 28 7D 7D FF FF F5
 (002.055606)  can0  18FF4831   [8]  00 00 FF FF 00 00 00 00
 (002.056246)  can0  18FEF231   [8]  FF FF FF FF FF FF FF FF
 (002.056830)  can0  0CF00331   [8]  FF FF FF FF FF FF FF FF
 (002.059851)  can0  18FEE000   [8]  00 00 00 00 15 96 35 00
 (002.059856)  can0  0CF00300   [8]  D1 00 0C FF FF 0F 69 7E
 (002.063731)  can0  18FEF200   [8]  12 00 00 00 00 00 E1 FF
 (002.064304)  can0  0CF00203   [8]  C0 00 00 FF F7 46 16 03
 (002.064881)  can0  18F00F00   [8]  80 0F FF FF D5 9F FF FF
 (002.065427)  can0  0CF00C03   [8]  EA 03 8C 16 FF FF FF FF
 (002.066003)  can0  0CF00400   [8]  60 7D 83 B7 16 00 0F 84
 (002.068674)  can0  18FEDB00   [8]  FF FF 5D 31 FF FF FF FF
 (002.074029)  can0  18FEDF00   [8]  84 A0 28 7D 7D FF FF F5
 (002.074204)  can0  0CF00203   [8]  C0 00 00 FF F7 46 16 03
 (002.075688)  can0  10FCFD00   [8]  FF FF FF FF 00 32 FF FF
 (002.079013)  can0  0CF00300   [8]  D1 00 0C FF FF 0F 69 7E
 (002.084154)  can0  18F00100   [8]  FF FF FF FF FF FF FF FF
 (002.084221)  can0  0CF00203   [8]  C0 00 00 FF F7 46 16 03
 (002.085013)  can0  0CF00C03   [8]  F0 03 FB 16 FF FF FF FF
 (002.085563)  can0  0CF00400   [8]  40 7D 83 C2 16 00 0F 84
 (002.088859)  can0  18FEF600   [8]  FF 00 65 FF FF FF FF FF
 (002.094109)  can0  18FEDF00   [8]  84 A0 28 7D 7D FF FF F5
 (002.094221)  can0  0CF00203   [8]  C0 00 00 FF F7 4B 16 03
 (002.099064)  can0  0CF00300   [8]  D1 00 0C FF FF 0F 69 7E
 (002.099694)  can0  0C010305   [8]  FF FF FF FF FF F3 FF FF
 (002.100215)  can0  0CF00331   [8]  FF FF FF FF FF FF FF FF
 (002.100788)  can0  0CF00A00   [8]  F7 02 01 06 FF FF FF FF
 (002.101379)  can0  18FEF000   [8]  FF FF FF BE 16 FF FF FF
 (002.101957)  can0  18F00E00   [8]  22 26 FF FF D5 9F FF FF
 (002.103688)  can0  18F03300   [8]  FF FF FF FF FF FF FF FF
 (002.104259)  can0  0CF00203   [8]  C0 00 00 FF F7 4B 16 03
 (002.104801)  can0  18F0010B   [8]  CF FF F0 FF FF CD FF FF
 (002.105391)  can0  0CF00C03   [8]  ED 03 D7 16 FF FF FF FF
 (002.105939)  can0  0CF00400   [8]  40 7D 83 B9 16 00 0F 84
 (002.106499)  can0  1CEBFF00   [8]  02 00 09 08 ED 14 1F 01
 (002.108701)  can0  18FCF200   [8]  E1 FF FF FF FF FF FF FF
 (002.114005)  can0  18FEDF00   [8]  84 A0 28 7D 7D FF FF F5
 (002.114289)  can0  0CF00203   [8]  C0 00 00 FF F7 52 16 03
 (002.114883)  can0  18FDC600   [8]  FC 04 FF FF FF FF FF FF
 (002.115519)  can0  18FEBF0B   [8]  00 00 7D 7D 7D 7D FF FF
 (002.116073)  can0  18F00F00   [8]  80 0F FF FF D5 9F FF FF
 (002.119500)  can0  0CF00300   [8]  D1 00 0C FF FF 0F 69 7E
 (002.119567)  can0  18FEF100   [8]  FF 00 00 FC FF 68 00 CF
 (002.124091)  can0  0CF00203   [8]  C0 00 00 FF F7 52 16 03
 (002.124396)  can0  0CF00C03   [8]  E9 03 61 16 FF FF FF FF
 (002.125809)  can0  0CF00400   [8]  50 7D 83 B6 16 00 0F 84
 (002.128719)  can0  10FDA300   [8]  FF FF 14 FF FF FF FF FF
 (002.129235)  can0  18F00029   [8]  F0 7D 7D F3 29 FF FF 3C
 (002.133689)  can0  18FEDF00   [8]  84 A0 28 7D 7D FF FF F5
 (002.134230)  can0  0CF00203   [8]  C0 00 00 FF F7 58 16 03
 (002.139106)  can0  18FCDC00   [8]  9F FF FF FF 50 68 00 00
 (002.139633)  can0  0CF00300   [8]  D1 00 0C FF FF 0F 69 7E
 (002.140272)  can0  1CFE9200   [8]  FF 34 91 FF FF FF 00 00
 (002.144154)  can0  0CF00203   [8]  C0 00 00 FF F7 58 16 03
 (002.144404)  can0  0CF00C03   [8]  ED 03 99 16 FF FF FF FF
 (002.145083)  can0  18F00503   [8]  7D 00 00 7D 4E 20 4E 43
 (002.145648)  can0  0CF00400   [8]  60 7D 83 99 16 00 0F 84
 (002.146207)  can0  18FE4A03   [8]  03 1F 4F FF FF F3 FF FF
 (002.148734)  can0  0CF00A00   [8]  F7 02 14 06 FF FF FF FF
 (002.149345)  can0  18FD9400   [8]  30 12 FF FF FF FF FF FF
 (002.149918)  can0  0C010305   [8]  FF FF FF FF FF F3 FF FF
 (002.150466)  can0  18F00131   [8]  FF FF FF 3F 00 FF FF FF
 (002.151110)  can0  18F00E00   [8]  22 26 FF FF D5 9F FF FF
 (002.151637)  can0  18FEF131   [8]  F3 FF FF C3 CC FF FF F0
 (002.152255)  can0  18FEF031   [8]  FF FF FF FF FF FC CC FF
 (002.152817)  can0  18FF4831   [8]  00 00 FF FF 00 00 00 00
 (002.153457)  can0  18FEF231   [8]  FF FF FF FF FF FF FF FF
 (002.153955)  can0  0CF00203   [8]  C0 00 00 FF F7 5B 16 03
 (002.155314)  can0  0CF00331   [8]  FF FF FF FF FF FF FF FF
 (002.155321)  can0  18F03300   [8]  FF FF FF FF FF FF FF FF
 (002.155706)  can0  18FEDF00   [8]  84 A0 28 7D 7D FF FF F5
 (002.159499)  can0  18FEE000   [8]  00 00 00 00 15 96 35 00
 (002.159568)  can0  0CF00300   [8]  D1 00 0C FF FF 0F 69 7E
 (002.163784)  can0  18FEF200   [8]  0E 00 00 00 00 00 E1 FF
 (002.164338)  can0  0CF00203   [8]  C0 00 00 FF F7 5B 16 03
 (002.164930)  can0  18F00F00   [8]  80 0F FF FF D5 9F FF FF
 (002.165481)  can0  0CF00C03   [8]  ED 03 E1 16 FF FF FF FF
 (002.166054)  can0  0CF00400   [8]  00 7D 84 9D 16 00 0F 84
 (002.173738)  can0  18FEDF00   [8]  84 A0 28 7D 7D FF FF F5
 (002.174296)  can0  0CF00203   [8]  C0 00 00 FF F7 5B 16 03
 (002.174887)  can0  10FCFD00   [8]  FF FF FF FF 00 32 FF FF
 (002.179432)  can0  0CF00300   [8]  D1 00 0C FF FF 0F 6A 7E
 (002.184107)  can0  18F00100   [8]  FF FF FF FF FF FF FF FF
 (002.184194)  can0  0CF00203   [8]  C0 00 00 FF F7 5B 16 03
 (002.184955)  can0  0CF00C03   [8]  E9 03 9A 16 FF FF FF FF
 (002.185576)  can0  0CF00400   [8]  70 7D 83 9B 16 00 0F 84
 (002.193741)  can0  18FEDF00   [8]  84 A0 28 7D 7D FF FF F5
 (002.194302)  can0  0CF00203   [8]  C0 00 00 FF F7 5B 16 03
 (002.199038)  can0  0CF00300   [8]  D1 00 0C FF FF 0F 6B 7E
 (002.199610)  can0  0C010305   [8]  FF FF FF FF FF F3 FF FF
 (002.200227)  can0  0CF00331   [8]  FF FF FF FF FF FF FF FF
 (002.200757)  can0  0CF00A00   [8]  13 03 DC 05 FF FF FF FF
 (002.201313)  can0  18FEF000   [8]  FF FF FF 9F 16 FF FF FF
 (002.201930)  can0  18F00E00   [8]  22 26 FF FF D5 9F FF FF
 (002.203737)  can0  18F03300   [8]  FF FF FF FF FF FF FF FF
 (002.204313)  can0  0CF00203   [8]  C0 00 00 FF F7 5B 16 03
 (002.204874)  can0  18F0010B   [8]  CF FF F0 FF FF CD FF FF
 (002.205435)  can0  0CF00C03   [8]  E9 03 5B 16 FF FF FF FF
 (002.205986)  can0  0CF00400   [8]  60 7D 83 A5 16 00 0F 84
 (002.208700)  can0  18FCF200   [8]  E1 FF FF FF FF FF FF FF
 (002.214000)  can0  18FEDF00   [8]  84 A0 28 7D 7D FF FF F5
 (002.214280)  can0  0CF00203   [8]  C0 00 00 FF F7 5A 16 03
 (002.214857)  can0  18F00F00   [8]  80 0F FF FF D5 9F FF FF
 (002.215515)  can0  18FEBF0B   [8]  00 00 7D 7D 7D 7D FF FF
 (002.219451)  can0  0CF00300   [8]  D1 00 0C FF FF 0F 69 7E
 (002.219709)  can0  18FEF100   [8]  FF 00 00 FC FF 68 00 CF
 (002.224311)  can0  0CF00203   [8]  C0 00 00 FF F7 5A 16 03
 (002.224361)  can0  0CF00C03   [8]  ED 03 D2 16 FF FF FF FF
 (002.225945)  can0  0CF00400   [8]  50 7D 83 A9 16 00 0F 84
 (002.228717)  can0  10FDA300   [8]  FF FF 14 FF FF FF FF FF
 (002.229277)  can0  18F00029   [8]  F0 7D 7D F3 29 FF FF 3C
 (002.233716)  can0  18FEDF00   [8]  84 A0 28 7D 7D FF FF F5
 (002.234254)  can0  0CF00203   [8]  C0 00 00 FF F7 56 16 03
 (002.239797)  can0  18FCDC00   [8]  9F FF FF FF 50 68 00 00
 (002.239805)  can0  0CF00300   [8]  D1 00 0C FF FF 0F 69 7E
 (002.240214)  can0  1CFE9200   [8]  FF F0 8F FF FF FF 00 00
 (002.244326)  can0  0CF00203   [8]  C0 00 00 FF F7 56 16 03
 (002.244397)  can0  0CF00C03   [8]  EC 03 07 17 FF FF FF FF
 (002.245179)  can0  18F00503   [8]  7D 00 00 7D 4E 20 4E 43
 (002.245610)  can0  0CF00400   [8]  40 7D 83 BD 16 00 0F 84
 (002.246315)  can0  18FE4A03   [8]  03 1F 4F FF FF F3 FF FF
 (002.246805)  can0  18FD9503   [8]  CC FF FF AF FF FF FF FF
 (002.247431)  can0  18FEF803   [8]  FF FF FF FF EA 2B FF FF
 (002.248829)  can0  0CF00A00   [8]  13 03 F8 05 FF FF FF FF
 (002.249437)  can0  18FD9400   [8]  30 12 FF FF FF FF FF FF
 (002.250005)  can0  0C010305   [8]  FF FF FF FF FF F3 FF FF
 (002.250645)  can0  18F00131   [8]  FF FF FF 3F 00 FF FF FF
 (002.251152)  can0  18F00E00   [8]  2E 26 FF FF D5 9F FF FF
 (002.251764)  can0  18FEF131   [8]  F3 FF FF C3 CC FF FF F0
 (002.252381)  can0  18FEF031   [8]  FF FF FF FF FF FC CC FF
 (002.253034)  can0  18FF4831   [8]  00 00 FF FF 00 00 00 00
 (002.253505)  can0  18FEF231   [8]  FF FF FF FF FF FF FF FF
 (002.254109)  can0  0CF00203   [8]  C0 00 00 FF F7 56 16 03
 (002.254667)  can0  0CF00331   [8]  FF FF FF FF FF FF FF FF
 (002.255281)  can0  18F03300   [8]  FF FF FF FF FF FF FF FF
 (002.255828)  can0  18FEDF00   [8]  84 A0 28 7D 7D FF FF F5
 (002.259133)  can0  18FEE000   [8]  00 00 00 00 15 96 35 00
 (002.259731)  can0  0CF00300   [8]  D1 00 0C FF FF 0F 69 7E
 (002.263791)  can0  18FEF200   [8]  12 00 00 00 00 00 E1 FF
 (002.264336)  can0  0CF00203   [8]  C0 00 00 FF F7 56 16 03
 (002.264897)  can0  18F00F00   [8]  80 0F FF FF D5 9F FF FF
 (002.265541)  can0  0CF00C03   [8]  E9 03 99 16 FF FF FF FF
 (002.266047)  can0  0CF00400   [8]  30 7D 83 BF 16 00 0F 83
 (002.273764)  can0  18FEDF00   [8]  84 A0 28 7D 7D FF FF F5
 (002.274334)  can0  0CF00203   [8]  C0 00 00 FF F7 58 16 03
 (002.274914)  can0  10FCFD00   [8]  FF FF FF FF 00 32 FF FF
 (002.275518)  can0  18FECA03   [8]  00 FF 00 00 00 00 FF FF
 (002.276714)  can0  0CFD9200   [8]  F4 FF FA FF FF FF FF FF
 (002.279970)  can0  0CF00300   [8]  D1 00 0B FF FF 0F 6A 7E
 (002.284224)  can0  18F00100   [8]  FF FF FF FF FF FF FF FF
 (002.284239)  can0  0CF00203   [8]  C0 00 00 FF F7 58 16 03
 (002.285015)  can0  0CF00C03   [8]  ED 03 7D 16 FF FF FF FF
 (002.285552)  can0  0CF00400   [8]  40 7D 83 B3 16 00 0F 83
 (002.293715)  can0  18FEDF00   [8]  84 A0 28 7D 7D FF FF F5
 (002.294276)  can0  0CF00203   [8]  C0 00 00 FF F7 5F 16 03
 (002.299244)  can0  0CF00300   [8]  D1 00 0B FF FF 0F 69 7E
 (002.299682)  can0  0C010305   [8]  FF FF FF FF FF F3 FF FF
 (002.300322)  can0  0CF00331   [8]  FF FF FF FF FF FF FF FF
 (002.300833)  can0  0CF00A00   [8]  13 03 F8 05 FF FF FF FF
 (002.301408)  can0  18FEF000   [8]  FF FF FF B9 16 FF FF FF
 (002.301980)  can0  18F00E00   [8]  2E 26 FF FF D5 9F FF FF
 (002.303684)  can0  18F03300   [8]  FF FF FF FF FF FF FF FF
 (002.304285)  can0  0CF00203   [8]  C0 00 00 FF F7 5F 16 03
 (002.304851)  can0  18F0010B   [8]  CF FF F0 FF FF CD FF FF
 (002.305410)  can0  0CF00C03   [8]  EE 03 D3 16 FF FF FF FF
 (002.305946)  can0  0CF00400   [8]  50 7D 83 9E 16 00 0F 84
 (002.308724)  can0  18FCF200   [8]  E1 FF FF FF FF FF FF FF
 (002.313989)  can0  18FEDF00   [8]  84 A0 28 7D 7D FF FF F5
 (002.314323)  can0  0CF00203   [8]  C0 00 00 FF F7 5D 16 03
 (002.314955)  can0  18F00F00   [8]  80 0F FF FF D5 9F FF FF
 (002.315480)  can0  18FEBF0B   [8]  00 00 7D 7D 7D 7D FF FF
 (002.319090)  can0  0CF00300   [8]  D1 00 0C FF FF 0F 69 7E
 (002.319630)  can0  18FEF100   [8]  FF 00 00 FC FF 68 00 CF
 (002.323832)  can0  0CF00203   [8]  C0 00 00 FF F7 5D 16 03
 (002.324432)  can0  0CF00C03   [8]  E9 03 BE 16 FF FF FF FF
 (002.325554)  can0  0CF00400   [8]  70 7D 83 9A 16 00 0F 84
 (002.328694)  can0  10FDA300   [8]  FF FF 14 FF FF FF FF FF
 (002.329271)  can0  18F00029   [8]  F0 7D 7D F3 29 FF FF 3C
 (002.333728)  can0  18FEDF00   [8]  84 A0 28 7D 7D FF FF F5
 (002.334258)  can0  0CF00203   [8]  C0 00 00 FF F7 5C 16 03
 (002.339150)  can0  18FCDC00   [8]  9F FF FF FF 50 68 00 00
 (002.339691)  can0  0CF00300   [8]  D1 00 0C FF FF 0F 6A 7E
 (002.340237)  can0  1CFE9200   [8]  FF 68 8F FF FF FF 00 00
 (002.344284)  can0  0CF00203   [8]  C0 00 00 FF F7 5C 16 03
 (002.344469)  can0  0CF00C03   [8]  EA 03 56 16 FF FF FF FF
 (002.345044)  can0  18F00503   [8]  7D 00 00 7D 4E 20 4E 43
 (002.345616)  can0  0CF00400   [8]  60 7D 83 9B 16 00 0F 84
 (002.346190)  can0  18FE4A03   [8]  03 1F 4F FF FF F3 FF FF
 (002.348771)  can0  14FC9800   [8]  FF 00 00 00 00 00 00 FF
 (002.349337)  can0  0CF00A00   [8]  4B 03 AD 05 FF FF FF FF
 (002.349911)  can0  0C010305   [8]  FF FF FF FF FF F3 FF FF
 (002.350488)  can0  18F00131   [8]  FF FF FF 3F 00 FF FF FF
 (002.351104)  can0  18FD9400   [8]  30 12 FF FF FF FF FF FF
 (002.351681)  can0  18F00E00   [8]  2E 26 FF FF D5 9F FF FF
 (002.352228)  can0  18FEF131   [8]  F3 FF FF C3 CC FF FF F0
 (002.352844)  can0  18FEF031   [8]  FF FF FF FF FF FC CC FF
