 (000.000000)  can0  18FEDF00   [8]  84 A0 28 7D 7D FF FF F5
 (000.001573)  can0  0CF00203   [8]  C0 00 00 FF F7 50 16 03
 (000.002174)  can0  0C010305   [8]  FF FF FF FF FF F3 FF FF
 (000.002723)  can0  0CF00C03   [8]  E9 03 75 16 FF FF FF FF
 (000.005320)  can0  18FD4000   [8]  FF 3F 00 FF FF FF FF FF
 (000.005851)  can0  0CF00300   [8]  D1 00 0C FF FF 0F 65 7E
 (000.006471)  can0  0CF00A00   [8]  4B 03 C9 05 FF FF FF FF
 (000.007079)  can0  18FEF000   [8]  FF FF FF B5 16 FF FF FF
 (000.007630)  can0  18F00E00   [8]  F2 24 FF FF D5 9F FF FF
 (000.008206)  can0  1CECFF00   [8]  20 0E 00 02 FF CA FE 00
 (000.009915)  can0  18F03300   [8]  FF FF FF FF FF FF FF FF
 (000.011877)  can0  0CF00203   [8]  C0 00 00 FF F7 55 16 03
 (000.012112)  can0  0CF00400   [8]  50 7D 83 C5 16 00 0F 84
 (000.014983)  can0  18FCF200   [8]  E1 FF FF FF FF FF FF FF
 (000.019949)  can0  18FEDF00   [8]  84 A0 28 7D 7D FF FF F5
 (000.020519)  can0  18F00F00   [8]  6C 0F FF FF D5 9F FF FF
 (000.021619)  can0  0CF00203   [8]  C0 00 00 FF F7 55 16 03
 (000.022143)  can0  0CF00C03   [8]  EC 03 8F 16 FF FF FF FF
 (000.024328)  can0  18F0010B   [8]  CF FF F0 FF FF CD FF FF
 (000.025548)  can0  0CF00300   [8]  D1 00 0C FF FF 0F 66 7E
 (000.026380)  can0  18FEF100   [8]  FF 00 00 FC FF 68 00 CF
 (000.029933)  can0  18FCC500   [8]  E9 3F FF FF FF FF FF FF
 (000.030539)  can0  0CFD9200   [8]  F4 FF FA FF FF FF FF FF
 (000.031606)  can0  0CF00203   [8]  C0 00 00 FF F7 58 16 03
 (000.032166)  can0  0CF00400   [8]  60 7D 83 AE 16 00 0F 84
 (000.034623)  can0  18FEBF0B   [8]  00 00 7D 7D 7D 7D FF FF
 (000.034925)  can0  10FDA300   [8]  FF FF 14 FF FF FF FF FF
 (000.035871)  can0  18F00029   [8]  F0 7D 7D F3 29 FF FF 3C
 (000.040046)  can0  18FEDF00   [8]  84 A0 28 7D 7D FF FF F5
 (000.042231)  can0  0CF00203   [8]  C0 00 00 FF F7 58 16 03
 (000.042236)  can0  0CF00C03   [8]  F0 03 E3 16 FF FF FF FF
 (000.043014)  can0  18F00503   [8]  7D 00 00 7D 4E 20 4E 43
 (000.043416)  can0  18FE4A03   [8]  03 1F 4F FF FF F3 FF FF
 (000.045770)  can0  18FCDC00   [8]  9F FF FF FF 50 68 00 00
 (000.045945)  can0  0CF00300   [8]  D1 00 0C FF FF 0F 66 7E
 (000.046572)  can0  1CFE9200   [8]  FF 68 8F FF FF FF 00 00
 (000.048943)  can0  18F00131   [8]  FF FF FF 3F 00 FF FF FF
 (000.049130)  can0  18FEF131   [8]  F3 FF FF C3 CC FF FF F0
 (000.049760)  can0  18FEF031   [8]  FF FF FF FF FF FC CC FF
 (000.050300)  can0  18FF4831   [8]  00 00 FF FF 00 00 00 00
 (000.050904)  can0  18FEF231   [8]  FF FF FF FF FF FF FF FF
 (000.051535)  can0  0CF00331   [8]  FF FF FF FF FF FF FF FF
 (000.052104)  can0  0C010305   [8]  FF FF FF FF FF F3 FF FF
 (000.052675)  can0  0CF00203   [8]  C0 00 00 FF F7 5C 16 03
 (000.053217)  can0  0CF00400   [8]  00 7D 84 A5 16 00 0F 84
 (000.055100)  can0  0CF00A00   [8]  4B 03 B6 05 FF FF FF FF
 (000.055692)  can0  18FD9400   [8]  30 12 FF FF FF FF FF FF
 (000.056273)  can0  18FEEF00   [8]  FF FF FF 1F 46 7D FF FA
 (000.056879)  can0  18F00E00   [8]  F2 24 FF FF D5 9F FF FF
 (000.057443)  can0  1CEBFF00   [8]  01 43 FF BF 00 09 08 54
 (000.059949)  can0  18F03300   [8]  FF FF FF FF FF FF FF FF
 (000.060512)  can0  18FEDF00   [8]  84 A0 28 7D 7D FF FF F5
 (000.061658)  can0  0CF00203   [8]  C0 00 00 FF F7 5C 16 03
 (000.062285)  can0  0CF00C03   [8]  EA 03 AF 16 FF FF FF FF
 (000.065299)  can0  18FEE000   [8]  00 00 00 00 15 96 35 00
 (000.065906)  can0  0CF00300   [8]  D1 00 0C FF FF 0F 66 7E
 (000.070123)  can0  18FEF200   [8]  0E 00 00 00 00 00 E1 FF
 (000.070591)  can0  18F00F00   [8]  6C 0F FF FF D5 9F FF FF
 (000.071895)  can0  0CF00203   [8]  C0 00 00 FF F7 5A 16 03
 (000.072070)  can0  0CF00400   [8]  10 7D 84 92 16 00 0F 84
 (000.075302)  can0  18FEDB00   [8]  FF FF FA 30 FF FF FF FF
 (000.079997)  can0  18FEDF00   [8]  84 A0 28 7D 7D FF FF F5
 (000.080566)  can0  10FCFD00   [8]  FF FF FF FF 00 32 FF FF
 (000.081565)  can0  0CF00203   [8]  C0 00 00 FF F7 5A 16 03
 (000.082153)  can0  0CF00C03   [8]  E9 03 45 16 FF FF FF FF
 (000.085274)  can0  0CF00300   [8]  D1 00 0D FF FF 0F 66 7E
 (000.090853)  can0  18F00100   [8]  FF FF FF FF FF FF FF FF
 (000.091584)  can0  0CF00203   [8]  C0 00 00 FF F7 5B 16 03
 (000.092132)  can0  0CF00400   [8]  30 7D 84 92 16 00 0F 84
 (000.095138)  can0  18FEF600   [8]  FF 00 65 FF FF FF FF FF
 (000.098512)  can0  0CF00331   [8]  FF FF FF FF FF FF FF FF
 (000.099921)  can0  18FEDF00   [8]  84 A0 28 7D 7D FF FF F5
 (000.101581)  can0  0CF00203   [8]  C0 00 00 FF F7 5B 16 03
 (000.102141)  can0  0C010305   [8]  FF FF FF FF FF F3 FF FF
 (000.102736)  can0  0CF00C03   [8]  EB 03 9E 16 FF FF FF FF
 (000.105293)  can0  0CF00300   [8]  D1 00 0D FF FF 0F 67 7E
 (000.105843)  can0  0CF00A00   [8]  42 03 AD 05 FF FF FF FF
 (000.106442)  can0  18FEF000   [8]  FF FF FF 89 16 FF FF FF
 (000.107143)  can0  18F00E00   [8]  F2 24 FF FF D5 9F FF FF
 (000.109898)  can0  18F03300   [8]  FF FF FF FF FF FF FF FF
 (000.111879)  can0  0CF00203   [8]  C0 00 00 FF F7 55 16 03
 (000.112125)  can0  0CF00400   [8]  10 7D 84 9E 16 00 0F 84
 (000.112620)  can0  1CEBFF00   [8]  02 00 09 08 ED 14 1F 01
 (000.114890)  can0  18FCF200   [8]  E1 FF FF FF FF FF FF FF
 (000.119977)  can0  18FEDF00   [8]  84 A0 28 7D 7D FF FF F5
 (000.120548)  can0  18FDC600   [8]  FC 04 FF FF FF FF FF FF
 (000.121172)  can0  18F00F00   [8]  6C 0F FF FF D5 9F FF FF
 (000.121760)  can0  0CF00203   [8]  C0 00 00 FF F7 55 16 03
 (000.122353)  can0  0CF00C03   [8]  EC 03 D2 16 FF FF FF FF
 (000.124495)  can0  18F0010B   [8]  CF FF F0 FF FF CD FF FF
 (000.125372)  can0  0CF00300   [8]  D1 00 0D FF FF 0F 67 7E
 (000.125923)  can0  18FEF100   [8]  FF 00 00 FC FF 68 00 CF
 (000.132036)  can0  0CF00203   [8]  C0 00 00 FF F7 4D 16 03
 (000.132052)  can0  0CF00400   [8]  00 7D 84 AB 16 00 0F 84
 (000.135318)  can0  18FEBF0B   [8]  00 00 7D 7D 7D 7D FF FF
 (000.135327)  can0  10FDA300   [8]  FF FF 14 FF FF FF FF FF
 (000.135666)  can0  18F00029   [8]  F0 7D 7D F3 29 FF FF 3C
 (000.140031)  can0  18FEDF00   [8]  84 A0 28 7D 7D FF FF F5
 (000.141737)  can0  0CF00203   [8]  C0 00 00 FF F7 4D 16 03
 (000.142142)  can0  0CF00C03   [8]  EA 03 AC 16 FF FF FF FF
 (000.143000)  can0  18F00503   [8]  7D 00 00 7D 4E 20 4E 43
 (000.143366)  can0  18FE4A03   [8]  03 1F 4F FF FF F3 FF FF
 (000.145344)  can0  18FCDC00   [8]  9F FF FF FF 50 68 00 00
 (000.145910)  can0  0CF00300   [8]  D1 00 0C FF FF 0F 66 7E
 (000.146489)  can0  1CFE9200   [8]  FF 08 8F FF FF FF 00 00
 (000.148488)  can0  18F00131   [8]  FF FF FF 3F 00 FF FF FF
 (000.149139)  can0  18FEF131   [8]  F3 FF FF C3 CC FF FF F0
 (000.149763)  can0  18FEF031   [8]  FF FF FF FF FF FC CC FF
 (000.150297)  can0  18FF4831   [8]  00 00 FF FF 00 00 00 00
 (000.150876)  can0  18FEF231   [8]  FF FF FF FF FF FF FF FF
 (000.151468)  can0  0CF00331   [8]  FF FF FF FF FF FF FF FF
 (000.152049)  can0  0C010305   [8]  FF FF FF FF FF F3 FF FF
 (000.152667)  can0  0CF00203   [8]  C0 00 00 FF F7 47 16 03
 (000.153221)  can0  0CF00400   [8]  70 7D 83 B3 16 00 0F 84
 (000.155114)  can0  0CF00A00   [8]  42 03 C9 05 FF FF FF FF
 (000.155643)  can0  18FD9400   [8]  30 12 FF FF FF FF FF FF
 (000.156197)  can0  18F00E00   [8]  E6 24 FF FF D5 9F FF FF
 (000.159982)  can0  18F03300   [8]  FF FF FF FF FF FF FF FF
 (000.160552)  can0  18FEDF00   [8]  84 A0 28 7D 7D FF FF F5
 (000.162106)  can0  0CF00203   [8]  C0 00 00 FF F7 47 16 03
 (000.162159)  can0  0CF00C03   [8]  EB 03 96 16 FF FF FF FF
 (000.165943)  can0  18FEE000   [8]  00 00 00 00 15 96 35 00
 (000.165953)  can0  0CF00300   [8]  D1 00 0C FF FF 0F 65 7E
 (000.170752)  can0  18FEF200   [8]  13 00 00 00 00 00 E1 FF
 (000.170762)  can0  18F00F00   [8]  6C 0F FF FF D5 9F FF FF
 (000.171868)  can0  0CF00203   [8]  C0 00 00 FF F7 4E 16 03
 (000.172120)  can0  0CF00400   [8]  60 7D 83 C4 16 00 0F 84
 (000.179901)  can0  18FEDF00   [8]  84 A0 28 7D 7D FF FF F5
 (000.180486)  can0  10FCFD00   [8]  FF FF FF FF 00 32 FF FF
 (000.181518)  can0  0CF00203   [8]  C0 00 00 FF F7 4E 16 03
 (000.182137)  can0  0CF00C03   [8]  F1 03 EB 16 FF FF FF FF
 (000.185252)  can0  0CF00300   [8]  D1 00 0C FF FF 0F 65 7E
 (000.190540)  can0  18F00100   [8]  FF FF FF FF FF FF FF FF
 (000.191877)  can0  0CF00203   [8]  C0 00 00 FF F7 52 16 03
 (000.192115)  can0  0CF00400   [8]  50 7D 83 C3 16 00 0F 84
 (000.199328)  can0  0CF00331   [8]  FF FF FF FF FF FF FF FF
 (000.200043)  can0  18FEDF00   [8]  84 A0 28 7D 7D FF FF F5
 (000.201706)  can0  0CF00203   [8]  C0 00 00 FF F7 52 16 03
 (000.202102)  can0  0C010305   [8]  FF FF FF FF FF F3 FF FF
 (000.202735)  can0  0CF00C03   [8]  ED 03 CD 16 FF FF FF FF
 (000.205508)  can0  0CF00300   [8]  D1 00 0C FF FF 0F 66 7E
 (000.205913)  can0  0CF00A00   [8]  42 03 B6 05 FF FF FF FF
 (000.206459)  can0  18FEF000   [8]  FF FF FF C9 16 FF FF FF
 (000.207077)  can0  18F00E00   [8]  E6 24 FF FF D5 9F FF FF
 (000.209892)  can0  18F03300   [8]  FF FF FF FF FF FF FF FF
 (000.211487)  can0  0CF00203   [8]  C0 00 00 FF F7 54 16 03
 (000.212063)  can0  0CF00400   [8]  60 7D 83 AF 16 00 0F 84
 (000.214975)  can0  18FCF200   [8]  E1 FF FF FF FF FF FF FF
 (000.219971)  can0  18FEDF00   [8]  84 A0 28 7D 7D FF FF F5
 (000.220542)  can0  18F00F00   [8]  76 0F FF FF D5 9F FF FF
 (000.222230)  can0  0CF00203   [8]  C0 00 00 FF F7 54 16 03
 (000.222239)  can0  0CF00C03   [8]  E9 03 6F 16 FF FF FF FF
 (000.224727)  can0  18F0010B   [8]  CF FF F0 FF FF CD FF FF
 (000.225382)  can0  0CF00300   [8]  D1 00 0C FF FF 0F 65 7E
 (000.225970)  can0  18FEF100   [8]  FF 00 00 FC FF 68 00 CF
 (000.232023)  can0  0CF00203   [8]  C0 00 00 FF F7 58 16 03
 (000.232068)  can0  0CF00400   [8]  00 7D 84 9C 16 00 0F 84
 (000.235282)  can0  18FEBF0B   [8]  00 00 7D 7D 7D 7D FF FF
 (000.235292)  can0  10FDA300   [8]  FF FF 14 FF FF FF FF FF
 (000.235853)  can0  18F00029   [8]  F0 7D 7D F3 29 FF FF 3C
 (000.240034)  can0  18FEDF00   [8]  84 A0 28 7D 7D FF FF F5
 (000.241604)  can0  0CF00203   [8]  C0 00 00 FF F7 58 16 03
 (000.242138)  can0  0CF00C03   [8]  EC 03 9C 16 FF FF FF FF
 (000.242733)  can0  18F00503   [8]  7D 00 00 7D 4E 20 4E 43
 (000.243356)  can0  18FE4A03   [8]  03 1F 4F FF FF F3 FF FF
 (000.243963)  can0  18FD9503   [8]  CC FF FF AF FF FF FF FF
 (000.244583)  can0  18FEF803   [8]  FF FF FF FF C4 2B FF FF
 (000.245394)  can0  18FCDC00   [8]  9F FF FF FF 50 68 00 00
 (000.246012)  can0  0CF00300   [8]  D1 00 0C FF FF 0F 65 7E
 (000.246636)  can0  1CFE9200   [8]  FF 70 8F FF FF FF 00 00
 (000.248540)  can0  18F00131   [8]  FF FF FF 3F 00 FF FF FF
 (000.249105)  can0  18FEF131   [8]  F3 FF FF C3 CC FF FF F0
 (000.249722)  can0  18FEF031   [8]  FF FF FF FF FF FC CC FF
 (000.250318)  can0  18FF4831   [8]  00 00 FF FF 00 00 00 00
 (000.250920)  can0  18FEF231   [8]  FF FF FF FF FF FF FF FF
 (000.251536)  can0  0CF00331   [8]  FF FF FF FF FF FF FF FF
 (000.252122)  can0  0C010305   [8]  FF FF FF FF FF F3 FF FF
 (000.252669)  can0  0CF00203   [8]  C0 00 00 FF F7 5D 16 03
 (000.253283)  can0  0CF00400   [8]  20 7D 84 97 16 00 0F 84
 (000.255510)  can0  0CF00A00   [8]  42 03 BF 05 FF FF FF FF
 (000.255709)  can0  18FD9400   [8]  30 12 FF FF FF FF FF FF
 (000.256260)  can0  18F00E00   [8]  E6 24 FF FF D5 9F FF FF
 (000.259998)  can0  18F03300   [8]  FF FF FF FF FF FF FF FF
 (000.260522)  can0  18FEDF00   [8]  84 A0 28 7D 7D FF FF F5
 (000.262146)  can0  0CF00203   [8]  C0 00 00 FF F7 5D 16 03
 (000.262155)  can0  0CF00C03   [8]  ED 03 DB 16 FF FF FF FF
 (000.265933)  can0  18FEE000   [8]  00 00 00 00 15 96 35 00
 (000.265943)  can0  0CF00300   [8]  D1 00 0D FF FF 0F 66 7E
 (000.270687)  can0  18FEF200   [8]  13 00 00 00 00 00 E1 FF
 (000.270697)  can0  18F00F00   [8]  76 0F FF FF D5 9F FF FF
 (000.271878)  can0  0CF00203   [8]  C0 00 00 FF F7 5A 16 03
 (000.272113)  can0  0CF00400   [8]  00 7D 84 A7 16 00 0F 84
 (000.272726)  can0  18FECA03   [8]  00 FF 00 00 00 00 FF FF
 (000.279999)  can0  18FEDF00   [8]  84 A0 28 7D 7D FF FF F5
 (000.280551)  can0  10FCFD00   [8]  FF FF FF FF 00 32 FF FF
 (000.281118)  can0  0CFD9200   [8]  F4 FF FA FF FF FF FF FF
 (000.281725)  can0  0CF00203   [8]  C0 00 00 FF F7 5A 16 03
 (000.282343)  can0  0CF00C03   [8]  E9 03 9C 16 FF FF FF FF
 (000.286060)  can0  0CF00300   [8]  D1 00 0C FF FF 0F 67 7E
 (000.290747)  can0  18F00100   [8]  FF FF FF FF FF FF FF FF
 (000.291883)  can0  0CF00203   [8]  C0 00 00 FF F7 51 16 03
 (000.292111)  can0  0CF00400   [8]  00 7D 84 B2 16 00 0F 84
 (000.298802)  can0  0CF00331   [8]  FF FF FF FF FF FF FF FF
 (000.300029)  can0  18FEDF00   [8]  84 A0 28 7D 7D FF FF F5
 (000.302452)  can0  0CF00203   [8]  C0 00 00 FF F7 51 16 03
 (000.302463)  can0  0C010305   [8]  FF FF FF FF FF F3 FF FF
 (000.302699)  can0  0CF00C03   [8]  E9 03 89 16 FF FF FF FF
 (000.305832)  can0  0CF00300   [8]  D1 00 0C FF FF 0F 66 7E
 (000.305890)  can0  0CF00A00   [8]  42 03 AD 05 FF FF FF FF
 (000.306469)  can0  18FEF000   [8]  FF FF FF A7 16 FF FF FF
 (000.307037)  can0  18F00E00   [8]  E6 24 FF FF D5 9F FF FF
 (000.309943)  can0  18F03300   [8]  FF FF FF FF FF FF FF FF
 (000.311543)  can0  0CF00203   [8]  C0 00 00 FF F7 52 16 03
 (000.312168)  can0  0CF00400   [8]  60 7D 83 C8 16 00 0F 84
 (000.314928)  can0  18FCF200   [8]  E1 FF FF FF FF FF FF FF
 (000.320005)  can0  18FEDF00   [8]  84 A0 28 7D 7D FF FF F5
 (000.320513)  can0  18F00F00   [8]  76 0F FF FF D5 9F FF FF
 (000.321569)  can0  0CF00203   [8]  C0 00 00 FF F7 52 16 03
 (000.322170)  can0  0CF00C03   [8]  EF 03 01 17 FF FF FF FF
 (000.325183)  can0  18F0010B   [8]  CF FF F0 FF FF CD FF FF
 (000.325483)  can0  0CF00300   [8]  D1 00 0C FF FF 0F 65 7E
 (000.326183)  can0  18FEF100   [8]  FF 00 00 FC FF 68 00 CF
 (000.332037)  can0  0CF00203   [8]  C0 00 00 FF F7 56 16 03
 (000.332052)  can0  0CF00400   [8]  40 7D 83 D9 16 00 0F 84
 (000.335291)  can0  18FEBF0B   [8]  00 00 7D 7D 7D 7D FF FF
 (000.335544)  can0  10FDA300   [8]  FF FF 14 FF FF FF FF FF
 (000.336849)  can0  18F00029   [8]  F0 7D 7D F3 29 FF FF 3C
 (000.340045)  can0  18FEDF00   [8]  84 A0 28 7D 7D FF FF F5
 (000.341513)  can0  0CF00203   [8]  C0 00 00 FF F7 56 16 03
 (000.342112)  can0  0CF00C03   [8]  F0 03 0E 17 FF FF FF FF
 (000.342733)  can0  18F00503   [8]  7D 00 00 7D 4E 20 4E 43
 (000.343376)  can0  18FE4A03   [8]  03 1F 4F FF FF F3 FF FF
 (000.345401)  can0  18FCDC00   [8]  9F FF FF FF 50 68 00 00
 (000.345972)  can0  0CF00300   [8]  D1 00 0C FF FF 0F 64 7E
 (000.346522)  can0  1CFE9200   [8]  FF 70 8F FF FF FF 00 00
 (000.348524)  can0  18F00131   [8]  FF FF FF 3F 00 FF FF FF
 (000.349090)  can0  18FEF131   [8]  F3 FF FF C3 CC FF FF F0
 (000.349721)  can0  18FEF031   [8]  FF FF FF FF FF FC CC FF
 (000.350319)  can0  18FF4831   [8]  00 00 FF FF 00 00 00 00
 (000.350971)  can0  18FEF231   [8]  FF FF FF FF FF FF FF FF
 (000.351518)  can0  0CF00331   [8]  FF FF FF FF FF FF FF FF
 (000.352098)  can0  0C010305   [8]  FF FF FF FF FF F3 FF FF
 (000.352668)  can0  0CF00203   [8]  C0 00 00 FF F7 5E 16 03
 (000.353246)  can0  0CF00400   [8]  30 7D 83 CD 16 00 0F 83
 (000.355297)  can0  14FC9800   [8]  FF 00 00 00 00 00 00 FF
 (000.355628)  can0  0CF00A00   [8]  42 03 C9 05 FF FF FF FF
 (000.356898)  can0  18FD9400   [8]  30 12 FF FF FF FF FF FF
 (000.356905)  can0  18F00E00   [8]  E6 24 FF FF D5 9F FF FF
 (000.360001)  can0  18F03300   [8]  FF FF FF FF FF FF FF FF
 (000.360550)  can0  18FEDF00   [8]  84 A0 28 7D 7D FF FF F5
 (000.362102)  can0  0CF00203   [8]  C0 00 00 FF F7 5E 16 03
 (000.362153)  can0  0CF00C03   [8]  E9 03 AA 16 FF FF FF FF
 (000.365977)  can0  18FEE000   [8]  00 00 00 00 15 96 35 00
 (000.365987)  can0  0CF00300   [8]  D1 00 0B FF FF 0F 65 7E
 (000.369998)  can0  18FDB400   [8]  C6 38 86 3A FF FF FF FF
 (000.370515)  can0  18FEF200   [8]  0E 00 00 00 00 00 E1 FF
 (000.371145)  can0  18F00F00   [8]  76 0F FF FF D5 9F FF FF
 (000.371721)  can0  0CF00203   [8]  C0 00 00 FF F7 60 16 03
 (000.372218)  can0  0CF00400   [8]  50 7D 83 BD 16 00 0F 84
 (000.379980)  can0  18FEDF00   [8]  84 A0 28 7D 7D FF FF F5
 (000.380570)  can0  10FCFD00   [8]  FF FF FF FF 00 32 FF FF
 (000.381555)  can0  0CF00203   [8]  C0 00 00 FF F7 60 16 03
 (000.382154)  can0  0CF00C03   [8]  EA 03 7C 16 FF FF FF FF
 (000.385320)  can0  0CF00300   [8]  D1 00 0C FF FF 0F 66 7E
 (000.389209)  can0  18FECA31   [8]  00 FF 00 00 00 00 FF FF
 (000.389628)  can0  18F11031   [8]  00 00 FF FF FF FF FF FF
 (000.390244)  can0  18F00100   [8]  FF FF FF FF FF FF FF FF
 (000.391666)  can0  0CF00203   [8]  C0 00 00 FF F7 68 16 03
 (000.392122)  can0  0CF00400   [8]  60 7D 83 AF 16 00 0F 84
 (000.395822)  can0  18FDB300   [8]  FF FF 29 3E FF FF FF FF
 (000.399151)  can0  0CF00331   [8]  FF FF FF FF FF FF FF FF
 (000.400002)  can0  18FEDF00   [8]  84 A0 28 7D 7D FF FF F5
 (000.402401)  can0  0CF00203   [8]  C0 00 00 FF F7 68 16 03
 (000.402410)  can0  0C010305   [8]  FF FF FF FF FF F3 FF FF
 (000.402710)  can0  0CF00C03   [8]  EE 03 D6 16 FF FF FF FF
 (000.405365)  can0  0CF00300   [8]  D1 00 0C FF FF 0F 66 7E
 (000.405937)  can0  0CF00A00   [8]  42 03 C9 05 FF FF FF FF
 (000.406512)  can0  18FEF000   [8]  FF FF FF BB 16 FF FF FF
 (000.407062)  can0  18F00E00   [8]  E6 24 FF FF D5 9F FF FF
 (000.409970)  can0  18F03300   [8]  FF FF FF FF FF FF FF FF
 (000.411583)  can0  0CF00203   [8]  C0 00 00 FF F7 6A 16 03
 (000.412174)  can0  0CF00400   [8]  10 7D 84 91 16 00 0F 84
 (000.415031)  can0  18FDB200   [8]  FF FF FF FF 02 00 FF FF
 (000.415624)  can0  18FCF200   [8]  E1 FF FF FF FF FF FF FF
 (000.420066)  can0  18FEDF00   [8]  84 A0 28 7D 7D FF FF F5
 (000.420575)  can0  18F00F00   [8]  76 0F FF FF D5 9F FF FF
 (000.422122)  can0  0CF00203   [8]  C0 00 00 FF F7 6A 16 03
 (000.422132)  can0  0CF00C03   [8]  EB 03 C9 16 FF FF FF FF
 (000.425355)  can0  18F0010B   [8]  CF FF F0 FF FF CD FF FF
 (000.425739)  can0  0CF00300   [8]  D1 00 0C FF FF 0F 66 7E
 (000.426317)  can0  18FEF100   [8]  FF 00 00 FC FF 68 00 CF
 (000.431788)  can0  0CF00203   [8]  C0 00 00 FF F7 6B 16 03
 (000.432095)  can0  0CF00400   [8]  10 7D 84 A5 16 00 0F 84
 (000.435056)  can0  10FDA300   [8]  FF FF 14 FF FF FF FF FF
 (000.435572)  can0  18FEBF0B   [8]  00 00 7D 7D 7D 7D FF FF
 (000.436096)  can0  18F00029   [8]  F0 7D 7D F3 29 FF FF 3C
 (000.440050)  can0  18FD8C00   [8]  FF FF 01 00 FF FF FF FF
 (000.440626)  can0  18FEDF00   [8]  84 A0 28 7D 7D FF FF F5
 (000.441621)  can0  0CF00203   [8]  C0 00 00 FF F7 6B 16 03
 (000.442223)  can0  0CF00C03   [8]  EA 03 5E 16 FF FF FF FF
 (000.442823)  can0  18F00503   [8]  7D 00 00 7D 4E 20 4E 43
 (000.443451)  can0  18FE4A03   [8]  03 1F 4F FF FF F3 FF FF
 (000.445613)  can0  18FCDC00   [8]  9F FF FF FF 50 68 00 00
 (000.445990)  can0  0CF00300   [8]  D1 00 0D FF FF 0F 67 7E
 (000.446580)  can0  1CFE9200   [8]  FF F4 8E FF FF FF 00 00
 (000.448529)  can0  18F00131   [8]  FF FF FF 3F 00 FF FF FF
 (000.449099)  can0  18FEF131   [8]  F3 FF FF C3 CC FF FF F0
 (000.449673)  can0  18FEF031   [8]  FF FF FF FF FF FC CC FF
 (000.450387)  can0  18FF4831   [8]  00 00 FF FF 00 00 00 00
 (000.450922)  can0  18FEF231   [8]  FF FF FF FF FF FF FF FF
 (000.451574)  can0  0CF00331   [8]  FF FF FF FF FF FF FF FF
 (000.452101)  can0  0C010305   [8]  FF FF FF FF FF F3 FF FF
 (000.452686)  can0  0CF00203   [8]  C0 00 00 FF F7 60 16 03
 (000.453240)  can0  0CF00400   [8]  70 7D 83 B0 16 00 0F 84
 (000.455134)  can0  0CF00A00   [8]  4B 03 A3 05 FF FF FF FF
 (000.455695)  can0  18FD9400   [8]  30 12 FF FF FF FF FF FF
 (000.456235)  can0  18F00E00   [8]  E6 24 FF FF D5 9F FF FF
 (000.459975)  can0  18FD2000   [8]  C6 38 FF FF FF FF FF FF
 (000.460639)  can0  18F03300   [8]  FF FF FF FF FF FF FF FF
 (000.461219)  can0  18FEDF00   [8]  84 A0 28 7D 7D FF FF F5
 (000.461792)  can0  0CF00203   [8]  C0 00 00 FF F7 60 16 03
 (000.462403)  can0  0CF00C03   [8]  EA 03 A4 16 FF FF FF FF
 (000.465539)  can0  18FEE000   [8]  00 00 00 00 15 96 35 00
 (000.465925)  can0  0CF00300   [8]  D1 00 0C FF FF 0F 67 7E
 (000.470074)  can0  18FEF200   [8]  13 00 00 00 00 00 E1 FF
 (000.470639)  can0  18F00F00   [8]  76 0F FF FF D5 9F FF FF
 (000.471538)  can0  0CF00203   [8]  C0 00 00 FF F7 5E 16 03
 (000.472071)  can0  0CF00400   [8]  60 7D 83 BC 16 00 0F 84
 (000.479962)  can0  18FEDF00   [8]  84 A0 28 7D 7D FF FF F5
 (000.480558)  can0  10FCFD00   [8]  FF FF FF FF 00 32 FF FF
 (000.481502)  can0  0CF00203   [8]  C0 00 00 FF F7 5E 16 03
 (000.482132)  can0  0CF00C03   [8]  EE 03 13 17 FF FF FF FF
 (000.485537)  can0  18FD3E00   [8]  E6 3F FF 16 40 FF FF FF
 (000.485914)  can0  0CF00300   [8]  D1 00 0C FF FF 0F 66 7E
 (000.490081)  can0  18F00100   [8]  FF FF FF FF FF FF FF FF
 (000.491738)  can0  0CF00203   [8]  C0 00 00 FF F7 5D 16 03
 (000.492113)  can0  0CF00400   [8]  50 7D 83 CD 16 00 0F 84
 (000.498521)  can0  0CF00331   [8]  FF FF FF FF FF FF FF FF
 (000.500216)  can0  18FEDF00   [8]  84 A0 28 7D 7D FF FF F5
 (000.501616)  can0  0CF00203   [8]  C0 00 00 FF F7 5D 16 03
 (000.502148)  can0  0C010305   [8]  FF FF FF FF FF F3 FF FF
 (000.502702)  can0  0CF00C03   [8]  EB 03 D1 16 FF FF FF FF
 (000.505418)  can0  18FD4000   [8]  FF 3F 00 FF FF FF FF FF
 (000.505954)  can0  0CF00300   [8]  D1 00 0C FF FF 0F 65 7E
 (000.506567)  can0  0CF00A00   [8]  4B 03 C9 05 FF FF FF FF
 (000.507144)  can0  18FEF000   [8]  FF FF FF C1 16 FF FF FF
 (000.507671)  can0  18F00E00   [8]  E6 24 FF FF D5 9F FF FF
 (000.510093)  can0  18F03300   [8]  FF FF FF FF FF FF FF FF
 (000.511685)  can0  0CF00203   [8]  C0 00 00 FF F7 61 16 03
 (000.512114)  can0  0CF00400   [8]  40 7D 83 C5 16 00 0F 84
 (000.515089)  can0  18FCF200   [8]  E1 FF FF FF FF FF FF FF
 (000.520008)  can0  18FEDF00   [8]  84 A0 28 7D 7D FF FF F5
 (000.520589)  can0  18F00F00   [8]  76 0F FF FF D5 9F FF FF
 (000.521548)  can0  0CF00203   [8]  C0 00 00 FF F7 61 16 03
 (000.522174)  can0  0CF00C03   [8]  EA 03 5A 16 FF FF FF FF
 (000.525578)  can0  18F0010B   [8]  CF FF F0 FF FF CD FF FF
 (000.525924)  can0  0CF00300   [8]  D1 00 0C FF FF 0F 66 7E
 (000.526528)  can0  18FEF100   [8]  FF 00 00 FC FF 68 00 CF
 (000.530261)  can0  18FCC500   [8]  E6 3F FF FF FF FF FF FF
 (000.530636)  can0  0CFD9200   [8]  F4 FF FA FF FF FF FF FF
 (000.531617)  can0  0CF00203   [8]  C0 00 00 FF F7 66 16 03
 (000.532122)  can0  0CF00400   [8]  70 7D 83 B0 16 00 0F 84
 (000.534971)  can0  10FDA300   [8]  FF FF 14 FF FF FF FF FF
 (000.535575)  can0  18FEBF0B   [8]  00 00 7D 7D 7D 7D FF FF
 (000.536123)  can0  18F00029   [8]  F0 7D 7D F3 29 FF FF 3C
 (000.540118)  can0  18FEDF00   [8]  84 A0 28 7D 7D FF FF F5
 (000.541572)  can0  0CF00203   [8]  C0 00 00 FF F7 66 16 03
 (000.542172)  can0  0CF00C03   [8]  ED 03 B9 16 FF FF FF FF
 (000.542778)  can0  18F00503   [8]  7D 00 00 7D 4E 20 4E 43
 (000.543886)  can0  18FE4A03   [8]  03 1F 4F FF FF F3 FF FF
 (000.545581)  can0  18FCDC00   [8]  9F FF FF FF 50 68 00 00
 (000.546013)  can0  0CF00300   [8]  D1 00 0C FF FF 0F 66 7E
 (000.546551)  can0  1CFE9200   [8]  FF 64 8F FF FF FF 00 00
 (000.548569)  can0  18F00131   [8]  FF FF FF 3F 00 FF FF FF
 (000.549099)  can0  18E0FF31   [8]  00 FF FF FF FF F0 FF FF
 (000.549717)  can0  18FEF131   [8]  F3 FF FF C3 CC FF FF F0
 (000.550467)  can0  18FEF031   [8]  FF FF FF FF FF FC CC FF
 (000.550915)  can0  18FEFC31   [8]  FF 75 FF FF FF FF 00 FF
 (000.551862)  can0  18FEAE31   [8]  FF FF 6C 6D FF FF FF FF
 (000.552092)  can0  0C010305   [8]  FF FF FF FF FF F3 FF FF
 (000.552780)  can0  0CF00203   [8]  C0 00 00 FF F7 66 16 03
 (000.553212)  can0  0CF00400   [8]  70 7D 83 A7 16 00 0F 84
 (000.553899)  can0  18FEF731   [8]  FF FF FF FF 1A 01 FF FF
 (000.554389)  can0  18FF4831   [8]  00 00 FF FF 00 00 00 00
 (000.555091)  can0  18FD8331   [8]  F8 FF FF FF FF FF FF FF
 (000.555563)  can0  0CF00A00   [8]  4B 03 B6 05 FF FF FF FF
 (000.556140)  can0  18FEF831   [8]  FF FF FF FF FF FF FF FF
 (000.556721)  can0  18FD9400   [8]  30 12 FF FF FF FF FF FF
 (000.557294)  can0  18FEEF00   [8]  FF FF FF 1F 4A 7D FF FA
 (000.557871)  can0  18FEF231   [8]  FF FF FF FF FF FF FF FF
 (000.558449)  can0  18F00E00   [8]  F2 24 FF FF D5 9F FF FF
 (000.558997)  can0  18FEFA31   [8]  FF D8 D9 FF FF FF FF FF
 (000.559640)  can0  18FEC131   [8]  2F 42 67 06 FF FF FF FF
 (000.560156)  can0  18F03300   [8]  FF FF FF FF FF FF FF FF
 (000.561525)  can0  0CF00331   [8]  FF FF FF FF FF FF FF FF
 (000.561534)  can0  18FEDF00   [8]  84 A0 28 7D 7D FF FF F5
 (000.561892)  can0  0CF00203   [8]  C0 00 00 FF F7 66 16 03
 (000.562575)  can0  0CF00C03   [8]  EB 03 D8 16 FF FF FF FF
 (000.565932)  can0  18FEE000   [8]  00 00 00 00 15 96 35 00
 (000.565942)  can0  0CF00300   [8]  D1 00 0C FF FF 0F 66 7E
 (000.570065)  can0  18FEF200   [8]  13 00 00 00 00 00 E1 FF
 (000.570660)  can0  18F00F00   [8]  76 0F FF FF D5 9F FF FF
 (000.571500)  can0  0CF00203   [8]  C0 00 00 FF F7 63 16 03
 (000.572087)  can0  0CF00400   [8]  10 7D 84 92 16 00 0F 84
 (000.575024)  can0  18FEDB00   [8]  FF FF ED 30 FF FF FF FF
 (000.580047)  can0  18FEDF00   [8]  84 A0 28 7D 7D FF FF F5
 (000.580596)  can0  10FCFD00   [8]  FF FF FF FF 00 32 FF FF
 (000.581499)  can0  0CF00203   [8]  C0 00 00 FF F7 63 16 03
 (000.582147)  can0  0CF00C03   [8]  E9 03 84 16 FF FF FF FF
 (000.585889)  can0  0CF00300   [8]  D1 00 0D FF FF 0F 65 7E
 (000.590053)  can0  18F00100   [8]  FF FF FF FF FF FF FF FF
 (000.591681)  can0  0CF00203   [8]  C0 00 00 FF F7 61 16 03
 (000.592118)  can0  0CF00400   [8]  20 7D 84 9A 16 00 0F 84
 (000.595815)  can0  18FEF600   [8]  FF 00 65 FF FF FF FF FF
 (000.598839)  can0  0CF00331   [8]  FF FF FF FF FF FF FF FF
 (000.600032)  can0  18FEDF00   [8]  84 A0 28 7D 7D FF FF F5
 (000.601548)  can0  0CF00203   [8]  C0 00 00 FF F7 61 16 03
 (000.602144)  can0  0C010305   [8]  FF FF FF FF FF F3 FF FF
 (000.602695)  can0  0CF00C03   [8]  E9 03 5A 16 FF FF FF FF
 (000.605353)  can0  0CF00300   [8]  D1 00 0D FF FF 0F 66 7E
 (000.605959)  can0  0CF00A00   [8]  39 03 B6 05 FF FF FF FF
 (000.606524)  can0  18FEF000   [8]  FF FF FF 92 16 FF FF FF
 (000.607122)  can0  18F00E00   [8]  F2 24 FF FF D5 9F FF FF
 (000.610683)  can0  18F03300   [8]  FF FF FF FF FF FF FF FF
 (000.611680)  can0  0CF00203   [8]  C0 00 00 FF F7 5B 16 03
 (000.612099)  can0  0CF00400   [8]  00 7D 84 A3 16 00 0F 84
 (000.615017)  can0  18FCF200   [8]  E1 FF FF FF FF FF FF FF
 (000.620049)  can0  18FEDF00   [8]  84 A0 28 7D 7D FF FF F5
 (000.620652)  can0  18FDC600   [8]  FC 04 FF FF FF FF FF FF
 (000.621228)  can0  18F00F00   [8]  76 0F FF FF D5 9F FF FF
 (000.621772)  can0  0CF00203   [8]  C0 00 00 FF F7 5B 16 03
 (000.622372)  can0  0CF00C03   [8]  ED 03 D9 16 FF FF FF FF
 (000.625927)  can0  0CF00300   [8]  D1 00 0C FF FF 0F 66 7E
 (000.625998)  can0  18F0010B   [8]  CF FF F0 FF FF CD FF FF
 (000.626558)  can0  18FEF100   [8]  FF 00 00 FC FF 68 00 CF
 (000.632024)  can0  0CF00203   [8]  C0 00 00 FF F7 54 16 03
 (000.632099)  can0  0CF00400   [8]  70 7D 83 B1 16 00 0F 84
 (000.635047)  can0  10FDA300   [8]  FF FF 14 FF FF FF FF FF
 (000.635592)  can0  18F00029   [8]  F0 7D 7D F3 29 FF FF 3C
 (000.636196)  can0  18FEBF0B   [8]  00 00 7D 7D 7D 7D FF FF
 (000.640108)  can0  18FEDF00   [8]  84 A0 28 7D 7D FF FF F5
 (000.641898)  can0  0CF00203   [8]  C0 00 00 FF F7 54 16 03
 (000.642111)  can0  0CF00C03   [8]  EA 03 D0 16 FF FF FF FF
 (000.643040)  can0  18F00503   [8]  7D 00 00 7D 4E 20 4E 43
 (000.643389)  can0  18FE4A03   [8]  03 1F 4F FF FF F3 FF FF
 (000.645428)  can0  18FCDC00   [8]  9F FF FF FF 50 68 00 00
 (000.646023)  can0  0CF00300   [8]  D1 00 0C FF FF 0F 65 7E
 (000.646597)  can0  1CFE9200   [8]  FF 28 8F FF FF FF 00 00
 (000.648501)  can0  18F00131   [8]  FF FF FF 3F 00 FF FF FF
 (000.649110)  can0  18FEF131   [8]  F3 FF FF C3 CC FF FF F0
 (000.649672)  can0  18FEF031   [8]  FF FF FF FF FF FC CC FF
 (000.650320)  can0  18FF4831   [8]  00 00 FF FF 00 00 00 00
 (000.650919)  can0  18FEF231   [8]  FF FF FF FF FF FF FF FF
 (000.651553)  can0  0CF00331   [8]  FF FF FF FF FF FF FF FF
 (000.652179)  can0  0C010305   [8]  FF FF FF FF FF F3 FF FF
 (000.652673)  can0  0CF00203   [8]  C0 00 00 FF F7 51 16 03
 (000.653293)  can0  0CF00400   [8]  60 7D 83 BA 16 00 0F 84
 (000.655944)  can0  0CF00A00   [8]  39 03 D2 05 FF FF FF FF
 (000.655957)  can0  18FD9400   [8]  30 12 FF FF FF FF FF FF
 (000.656250)  can0  18F00E00   [8]  F2 24 FF FF D5 9F FF FF
 (000.660033)  can0  18F03300   [8]  FF FF FF FF FF FF FF FF
 (000.660644)  can0  18FEDF00   [8]  84 A0 28 7D 7D FF FF F5
 (000.662221)  can0  0CF00203   [8]  C0 00 00 FF F7 51 16 03
 (000.662231)  can0  0CF00C03   [8]  E9 03 78 16 FF FF FF FF
 (000.665422)  can0  18FEF700   [8]  FF FF FF FF 18 01 FF FF
 (000.665988)  can0  18FEE000   [8]  00 00 00 00 15 96 35 00
 (000.666559)  can0  0CF00300   [8]  D1 00 0C FF FF 0F 64 7E
 (000.670051)  can0  18FEF200   [8]  0E 00 00 00 00 00 E1 FF
 (000.670643)  can0  18F00F00   [8]  76 0F FF FF D5 9F FF FF
 (000.671552)  can0  0CF00203   [8]  C0 00 00 FF F7 56 16 03
 (000.672097)  can0  0CF00400   [8]  50 7D 83 C5 16 00 0F 84
 (000.680002)  can0  18FEDF00   [8]  84 A0 28 7D 7D FF FF F5
 (000.680578)  can0  10FCFD00   [8]  FF FF FF FF 00 32 FF FF
 (000.681508)  can0  0CF00203   [8]  C0 00 00 FF F7 56 16 03
 (000.682126)  can0  0CF00C03   [8]  EE 03 B4 16 FF FF FF FF
 (000.685947)  can0  18FEC100   [8]  17 A8 3B 05 00 00 00 00
 (000.685958)  can0  0CF00300   [8]  D1 00 0C FF FF 0F 65 7E
 (000.690106)  can0  18F00100   [8]  FF FF FF FF FF FF FF FF
 (000.691772)  can0  0CF00203   [8]  C0 00 00 FF F7 5D 16 03
 (000.692113)  can0  0CF00400   [8]  50 7D 83 BA 16 00 0F 84
 (000.698561)  can0  0CF00331   [8]  FF FF FF FF FF FF FF FF
 (000.700051)  can0  18FEDF00   [8]  84 A0 28 7D 7D FF FF F5
 (000.701505)  can0  0CF00203   [8]  C0 00 00 FF F7 5D 16 03
 (000.702149)  can0  0C010305   [8]  FF FF FF FF FF F3 FF FF
 (000.702734)  can0  0CF00C03   [8]  F0 03 DF 16 FF FF FF FF
 (000.706005)  can0  0CF00300   [8]  D1 00 0C FF FF 0F 66 7E
 (000.706023)  can0  0CF00A00   [8]  39 03 BF 05 FF FF FF FF
 (000.706563)  can0  18FEF000   [8]  FF FF FF C2 16 FF FF FF
 (000.707161)  can0  18F00E00   [8]  F2 24 FF FF D5 9F FF FF
 (000.710131)  can0  18FE5600   [8]  97 42 FF FF 1F 1F 00 FF
 (000.710594)  can0  18F03300   [8]  FF FF FF FF FF FF FF FF
 (000.711594)  can0  0CF00203   [8]  C0 00 00 FF F7 5D 16 03
 (000.712109)  can0  0CF00400   [8]  70 7D 83 AA 16 00 0F 84
 (000.715027)  can0  18FCF200   [8]  E1 FF FF FF FF FF FF FF
 (000.720003)  can0  18FEDF00   [8]  84 A0 28 7D 7D FF FF F5
 (000.720622)  can0  18F00F00   [8]  76 0F FF FF D5 9F FF FF
 (000.722166)  can0  0CF00203   [8]  C0 00 00 FF F7 5D 16 03
 (000.722177)  can0  0CF00C03   [8]  E9 03 AA 16 FF FF FF FF
 (000.725954)  can0  0CF00300   [8]  D1 00 0C FF FF 0F 65 7E
 (000.725965)  can0  18F0010B   [8]  CF FF F0 FF FF CD FF FF
 (000.726508)  can0  18FEF100   [8]  FF 00 00 FC FF 68 00 CF
 (000.730076)  can0  18FD7B00   [8]  00 FF 69 B9 00 00 D6 55
 (000.731546)  can0  0CF00203   [8]  C0 00 00 FF F7 5E 16 03
 (000.732118)  can0  0CF00400   [8]  00 7D 84 9C 16 00 0F 84
 (000.734976)  can0  10FDA300   [8]  FF FF 14 FF FF FF FF FF
 (000.735522)  can0  18F00029   [8]  F0 7D 7D F3 29 FF FF 3C
 (000.736098)  can0  18FEBF0B   [8]  00 00 7D 7D 7D 7D FF FF
 (000.740154)  can0  18FEDF00   [8]  84 A0 28 7D 7D FF FF F5
 (000.741779)  can0  0CF00203   [8]  C0 00 00 FF F7 5E 16 03
 (000.742163)  can0  0CF00C03   [8]  EA 03 68 16 FF FF FF FF
 (000.742937)  can0  18F00503   [8]  7D 00 00 7D 4E 20 4E 43
 (000.743355)  can0  18FE4A03   [8]  03 1F 4F FF FF F3 FF FF
 (000.745477)  can0  18FCDC00   [8]  9F FF FF FF 50 68 00 00
 (000.746022)  can0  0CF00300   [8]  D1 00 0C FF FF 0F 65 7E
 (000.746762)  can0  1CFE9200   [8]  FF 88 8F FF FF FF 00 00
 (000.749040)  can0  18F00131   [8]  FF FF FF 3F 00 FF FF FF
 (000.749124)  can0  18FEF131   [8]  F3 FF FF C3 CC FF FF F0
 (000.749718)  can0  18FEF031   [8]  FF FF FF FF FF FC CC FF
 (000.750475)  can0  18FF4831   [8]  00 00 FF FF 00 00 00 00
 (000.750914)  can0  18FEF231   [8]  FF FF FF FF FF FF FF FF
 (000.751603)  can0  0CF00331   [8]  FF FF FF FF FF FF FF FF
 (000.752096)  can0  0C010305   [8]  FF FF FF FF FF F3 FF FF
 (000.752679)  can0  0CF00203   [8]  C0 00 00 FF F7 5F 16 03
 (000.753246)  can0  0CF00400   [8]  10 7D 84 A0 16 00 0F 84
 (000.755605)  can0  0CF00A00   [8]  42 03 BF 05 FF FF FF FF
 (000.755708)  can0  18FD9400   [8]  30 12 FF FF FF FF FF FF
 (000.756401)  can0  18FEDD00   [8]  FF 4A 0E FF FF FF FF FF
 (000.756895)  can0  18F00E00   [8]  F2 24 FF FF D5 9F FF FF
 (000.760146)  can0  18F03300   [8]  FF FF FF FF FF FF FF FF
 (000.760623)  can0  18FEDF00   [8]  84 A0 28 7D 7D FF FF F5
 (000.761641)  can0  0CF00203   [8]  C0 00 00 FF F7 5F 16 03
 (000.762203)  can0  0CF00C03   [8]  ED 03 C6 16 FF FF FF FF
 (000.765374)  can0  18FEE000   [8]  00 00 00 00 15 96 35 00
 (000.765943)  can0  0CF00300   [8]  D1 00 0D FF FF 0F 66 7E
 (000.770082)  can0  18FEF200   [8]  13 00 00 00 00 00 E1 FF
 (000.770690)  can0  18F00F00   [8]  76 0F FF FF D5 9F FF FF
 (000.771547)  can0  0CF00203   [8]  C0 00 00 FF F7 5E 16 03
 (000.772102)  can0  0CF00400   [8]  00 7D 84 A5 16 00 0F 84
 (000.775440)  can0  18FEE400   [8]  FF 3F FC FC 00 7F FF FF
 (000.780000)  can0  18FEDF00   [8]  84 A0 28 7D 7D FF FF F5
 (000.780617)  can0  10FCFD00   [8]  FF FF FF FF 00 32 FF FF
 (000.781373)  can0  0CFD9200   [8]  F4 FF FA FF FF FF FF FF
 (000.781781)  can0  0CF00203   [8]  C0 00 00 FF F7 5E 16 03
 (000.782513)  can0  0CF00C03   [8]  EC 03 DC 16 FF FF FF FF
 (000.785886)  can0  0CF00300   [8]  D1 00 0C FF FF 0F 67 7E
 (000.790833)  can0  18F00100   [8]  FF FF FF FF FF FF FF FF
 (000.791586)  can0  0CF00203   [8]  C0 00 00 FF F7 56 16 03
 (000.792135)  can0  0CF00400   [8]  70 7D 83 B5 16 00 0F 84
 (000.798515)  can0  0CF00331   [8]  FF FF FF FF FF FF FF FF
 (000.800069)  can0  18FEDF00   [8]  84 A0 28 7D 7D FF FF F5
 (000.801500)  can0  0CF00203   [8]  C0 00 00 FF F7 56 16 03
 (000.802101)  can0  0C010305   [8]  FF FF FF FF FF F3 FF FF
 (000.802640)  can0  0CF00C03   [8]  EA 03 A3 16 FF FF FF FF
 (000.805372)  can0  0CF00300   [8]  D1 00 0C FF FF 0F 66 7E
 (000.805972)  can0  0CF00A00   [8]  42 03 B6 05 FF FF FF FF
 (000.806572)  can0  18FEF000   [8]  FF FF FF A9 16 FF FF FF
 (000.807165)  can0  18FEBD00   [8]  00 F0 FF FF FF FF FF FF
 (000.807667)  can0  18F00E00   [8]  FE 24 FF FF D5 9F FF FF
 (000.810037)  can0  18F03300   [8]  FF FF FF FF FF FF FF FF
 (000.811605)  can0  0CF00203   [8]  C0 00 00 FF F7 54 16 03
 (000.812123)  can0  0CF00400   [8]  60 7D 83 C3 16 00 0F 84
 (000.815884)  can0  18FCF200   [8]  E1 FF FF FF FF FF FF FF
 (000.820042)  can0  18FEDF00   [8]  84 A0 28 7D 7D FF FF F5
 (000.820671)  can0  18E0FF00   [8]  00 FF FF FF FF FF FF FF
 (000.821225)  can0  18F00F00   [8]  76 0F FF FF D5 9F FF FF
 (000.821782)  can0  0CF00203   [8]  C0 00 00 FF F7 54 16 03
 (000.822435)  can0  0CF00C03   [8]  EB 03 A1 16 FF FF FF FF
 (000.825914)  can0  18FD0700   [8]  43 0C FC FF FF FF FF FF
 (000.825994)  can0  0CF00300   [8]  D1 00 0C FF FF 0F 65 7E
 (000.826619)  can0  18F0010B   [8]  CF FF F0 FF FF CD FF FF
 (000.827148)  can0  18FEF100   [8]  FF 00 00 FC FF 68 00 CF
 (000.830097)  can0  18FEEE00   [8]  82 FF FF FF FF FF FF FF
 (000.831478)  can0  0CF00203   [8]  C0 00 00 FF F7 57 16 03
 (000.832092)  can0  0CF00400   [8]  40 7D 83 CB 16 00 0F 84
 (000.834981)  can0  10FDA300   [8]  FF FF 14 FF FF FF FF FF
 (000.835545)  can0  18F00029   [8]  F0 7D 7D F3 29 FF FF 3C
 (000.836175)  can0  18FEBF0B   [8]  00 00 7D 7D 7D 7D FF FF
 (000.840175)  can0  18FEDF00   [8]  84 A0 28 7D 7D FF FF F5
 (000.841546)  can0  0CF00203   [8]  C0 00 00 FF F7 57 16 03
 (000.842171)  can0  0CF00C03   [8]  F1 03 F7 16 FF FF FF FF
 (000.842950)  can0  18F00503   [8]  7D 00 00 7D 4E 20 4E 43
 (000.843349)  can0  18FE4A03   [8]  03 1F 4F FF FF F3 FF FF
 (000.845785)  can0  18FCDC00   [8]  9F FF FF FF 50 68 00 00
 (000.846052)  can0  0CF00300   [8]  D1 00 0C FF FF 0F 65 7E
 (000.846645)  can0  1CFE9200   [8]  FF B8 8F FF FF FF 00 00
 (000.847169)  can0  18FEF500   [8]  A8 FF FF 63 26 FF FF FF
 (000.848682)  can0  18F00131   [8]  FF FF FF 3F 00 FF FF FF
 (000.849138)  can0  18FEF131   [8]  F3 FF FF C3 CC FF FF F0
 (000.849859)  can0  18FEF031   [8]  FF FF FF FF FF FC CC FF
 (000.850350)  can0  18FF4831   [8]  00 00 FF FF 00 00 00 00
 (000.850941)  can0  18FEF231   [8]  FF FF FF FF FF FF FF FF
 (000.851519)  can0  0CF00331   [8]  FF FF FF FF FF FF FF FF
 (000.852219)  can0  0C010305   [8]  FF FF FF FF FF F3 FF FF
 (000.852666)  can0  0CF00203   [8]  C0 00 00 FF F7 60 16 03
 (000.853343)  can0  0CF00400   [8]  50 7D 83 B8 16 00 0F 84
 (000.855747)  can0  14FC9800   [8]  FF 00 00 00 00 00 00 FF
 (000.855759)  can0  0CF00A00   [8]  42 03 BF 05 FF FF FF FF
 (000.856316)  can0  18FD9400   [8]  30 12 FF FF FF FF FF FF
 (000.856899)  can0  18F00E00   [8]  FE 24 FF FF D5 9F FF FF
 (000.860046)  can0  18F03300   [8]  FF FF FF FF FF FF FF FF
 (000.860627)  can0  18FEDF00   [8]  84 A0 28 7D 7D FF FF F5
 (000.861594)  can0  0CF00203   [8]  C0 00 00 FF F7 60 16 03
 (000.862195)  can0  0CF00C03   [8]  EC 03 CB 16 FF FF FF FF
 (000.865373)  can0  18FEE000   [8]  00 00 00 00 15 96 35 00
 (000.865949)  can0  0CF00300   [8]  D1 00 0C FF FF 0F 66 7E
 (000.866514)  can0  18FEA400   [8]  FF FF 54 2A FF FF 06 2D
 (000.870045)  can0  18FDB400   [8]  C0 38 86 3A FF FF FF FF
 (000.870643)  can0  18FEF200   [8]  0E 00 00 00 00 00 E1 FF
 (000.871274)  can0  18F00F00   [8]  76 0F FF FF D5 9F FF FF
 (000.871822)  can0  0CF00203   [8]  C0 00 00 FF F7 60 16 03
 (000.872343)  can0  0CF00400   [8]  70 7D 83 A8 16 00 0F 84
 (000.880103)  can0  18FEDF00   [8]  84 A0 28 7D 7D FF FF F5
 (000.880714)  can0  10FCFD00   [8]  FF FF FF FF 00 32 FF FF
 (000.882312)  can0  0CF00203   [8]  C0 00 00 FF F7 60 16 03
 (000.882322)  can0  0CF00C03   [8]  E9 03 4F 16 FF FF FF FF
 (000.885920)  can0  0CF00300   [8]  D1 00 0C FF FF 0F 66 7E
 (000.890676)  can0  18FD7C00   [8]  F8 83 00 00 C3 0F 03 FF
 (000.890687)  can0  18F00100   [8]  FF FF FF FF FF FF FF FF
 (000.891864)  can0  0CF00203   [8]  C0 00 00 FF F7 62 16 03
 (000.892148)  can0  0CF00400   [8]  00 7D 84 9A 16 00 0F 84
 (000.895064)  can0  18FDB300   [8]  FF FF 26 3E FF FF FF FF
 (000.898500)  can0  0CF00331   [8]  FF FF FF FF FF FF FF FF
 (000.900055)  can0  18FEDF00   [8]  84 A0 28 7D 7D FF FF F5
 (000.901563)  can0  0CF00203   [8]  C0 00 00 FF F7 62 16 03
 (000.902125)  can0  0C010305   [8]  FF FF FF FF FF F3 FF FF
 (000.902690)  can0  0CF00C03   [8]  EB 03 8A 16 FF FF FF FF
 (000.906035)  can0  0CF00300   [8]  D1 00 0C FF FF 0F 66 7E
 (000.906061)  can0  0CF00A00   [8]  42 03 C9 05 FF FF FF FF
 (000.906541)  can0  18FEF000   [8]  FF FF FF A4 16 FF FF FF
 (000.907173)  can0  18F00E00   [8]  FE 24 FF FF D5 9F FF FF
 (000.910037)  can0  18F03300   [8]  FF FF FF FF FF FF FF FF
 (000.910688)  can0  18FE9A00   [8]  AA 27 FF FF FF FF FF FF
 (000.911881)  can0  0CF00203   [8]  C0 00 00 FF F7 60 16 03
 (000.912103)  can0  0CF00400   [8]  20 7D 84 8B 16 00 0F 84
 (000.915324)  can0  18FDB200   [8]  FF FF FF FF 02 00 FF FF
 (000.915684)  can0  18FCF200   [8]  E1 FF FF FF FF FF FF FF
 (000.920068)  can0  18FEDF00   [8]  84 A0 28 7D 7D FF FF F5
 (000.920711)  can0  18F00F00   [8]  76 0F FF FF D5 9F FF FF
 (000.922283)  can0  0CF00203   [8]  C0 00 00 FF F7 60 16 03
 (000.922292)  can0  0CF00C03   [8]  EC 03 DE 16 FF FF FF FF
 (000.925351)  can0  0CF00300   [8]  D1 00 0D FF FF 0F 66 7E
 (000.925922)  can0  18FEF100   [8]  FF 00 00 FC FF 68 00 CF
 (000.926489)  can0  18F0010B   [8]  CF FF F0 FF FF CD FF FF
 (000.931532)  can0  0CF00203   [8]  C0 00 00 FF F7 5E 16 03
 (000.932086)  can0  0CF00400   [8]  10 7D 84 A3 16 00 0F 84
 (000.935008)  can0  10FDA300   [8]  FF FF 14 FF FF FF FF FF
 (000.935657)  can0  18FE9900   [8]  FF FF FF FF FF FF FF FF
 (000.936197)  can0  18F00029   [8]  F0 7D 7D F3 29 FF FF 3C
 (000.936771)  can0  18FEBF0B   [8]  00 00 7D 7D 7D 7D FF FF
 (000.940070)  can0  18FD8C00   [8]  FF FF 01 00 FF FF FF FF
 (000.940666)  can0  18FEDF00   [8]  84 A0 28 7D 7D FF FF F5
 (000.941593)  can0  0CF00203   [8]  C0 00 00 FF F7 5E 16 03
 (000.942222)  can0  0CF00C03   [8]  EA 03 A2 16 FF FF FF FF
 (000.942854)  can0  18F00503   [8]  7D 00 00 7D 4E 20 4E 43
 (000.943384)  can0  18FE4A03   [8]  03 1F 4F FF FF F3 FF FF
 (000.945941)  can0  18FCDC00   [8]  9F FF FF FF 50 68 00 00
 (000.945990)  can0  0CF00300   [8]  D1 00 0D FF FF 0F 67 7E
 (000.946749)  can0  1CFE9200   [8]  FF 20 8F FF FF FF 00 00
 (000.949019)  can0  18F00131   [8]  FF FF FF 3F 00 FF FF FF
 (000.949069)  can0  18FEF131   [8]  F3 FF FF C3 CC FF FF F0
 (000.949877)  can0  18FEF031   [8]  FF FF FF FF FF FC CC FF
 (000.950289)  can0  18FF4831   [8]  00 00 FF FF 00 00 00 00
 (000.951023)  can0  18FEF231   [8]  FF FF FF FF FF FF FF FF
 (000.951466)  can0  0CF00331   [8]  FF FF FF FF FF FF FF FF
 (000.952215)  can0  0C010305   [8]  FF FF FF FF FF F3 FF FF
 (000.952613)  can0  0CF00203   [8]  C0 00 00 FF F7 54 16 03
 (000.953278)  can0  0CF00400   [8]  70 7D 83 AB 16 00 0F 84
 (000.955468)  can0  0CF00A00   [8]  42 03 AD 05 FF FF FF FF
 (000.955707)  can0  18FD9400   [8]  30 12 FF FF FF FF FF FF
 (000.957142)  can0  18FEFC00   [8]  FF FF FF FF FF FF FF FF
 (000.957150)  can0  18F00E00   [8]  FE 24 FF FF D5 9F FF FF
 (000.960012)  can0  18FD2000   [8]  C0 38 FF FF FF FF FF FF
 (000.960606)  can0  18F03300   [8]  FF FF FF FF FF FF FF FF
 (000.961180)  can0  18FEDF00   [8]  84 A0 28 7D 7D FF FF F5
 (000.961736)  can0  0CF00203   [8]  C0 00 00 FF F7 54 16 03
 (000.962358)  can0  0CF00C03   [8]  E9 03 64 16 FF FF FF FF
 (000.965376)  can0  18FEE000   [8]  00 00 00 00 15 96 35 00
 (000.965916)  can0  0CF00300   [8]  D1 00 0C FF FF 0F 66 7E
 (000.970790)  can0  18FEF200   [8]  13 00 00 00 00 00 E1 FF
 (000.970800)  can0  18F00F00   [8]  76 0F FF FF D5 9F FF FF
 (000.971598)  can0  0CF00203   [8]  C0 00 00 FF F7 51 16 03
 (000.972039)  can0  0CF00400   [8]  70 7D 83 B5 16 00 0F 84
 (000.980042)  can0  18FEDF00   [8]  84 A0 28 7D 7D FF FF F5
 (000.980597)  can0  10FCFD00   [8]  FF FF FF FF 00 32 FF FF
 (000.982262)  can0  0CF00203   [8]  C0 00 00 FF F7 51 16 03
 (000.982272)  can0  0CF00C03   [8]  EE 03 E7 16 FF FF FF FF
 (000.985928)  can0  18FD3E00   [8]  E6 3F FF 16 40 FF FF FF
 (000.985939)  can0  0CF00300   [8]  D1 00 0C FF FF 0F 65 7E
 (000.990786)  can0  18F00100   [8]  FF FF FF FF FF FF FF FF
 (000.991506)  can0  0CF00203   [8]  C0 00 00 FF F7 52 16 03
 (000.992039)  can0  0CF00400   [8]  60 7D 83 CA 16 00 0F 84
 (000.998506)  can0  0CF00331   [8]  FF FF FF FF FF FF FF FF
 (001.000123)  can0  18FEDF00   [8]  84 A0 28 7D 7D FF FF F5
 (001.001548)  can0  0CF00203   [8]  C0 00 00 FF F7 52 16 03
 (001.002122)  can0  0C010305   [8]  FF FF FF FF FF F3 FF FF
 (001.002660)  can0  0CF00C03   [8]  ED 03 E0 16 FF FF FF FF
 (001.005443)  can0  18FD4000   [8]  FF 3F 00 FF FF FF FF FF
 (001.005993)  can0  0CF00300   [8]  D1 00 0C FF FF 0F 65 7E
 (001.006627)  can0  0CF00A00   [8]  42 03 D2 05 FF FF FF FF
 (001.007175)  can0  18FEF000   [8]  FF FF FF B9 16 FF FF FF
 (001.007718)  can0  18F00E00   [8]  FE 24 FF FF D5 9F FF FF
 (001.008340)  can0  1CECFF00   [8]  20 0E 00 02 FF CA FE 00
 (001.010034)  can0  18F03300   [8]  FF FF FF FF FF FF FF FF
 (001.011629)  can0  0CF00203   [8]  C0 00 00 FF F7 58 16 03
 (001.012072)  can0  0CF00400   [8]  50 7D 83 C3 16 00 0F 84
 (001.016050)  can0  18FCF200   [8]  E1 FF FF FF FF FF FF FF
 (001.020088)  can0  18FEDF00   [8]  84 A0 28 7D 7D FF FF F5
 (001.020589)  can0  18F00F00   [8]  76 0F FF FF D5 9F FF FF
 (001.022116)  can0  0CF00203   [8]  C0 00 00 FF F7 58 16 03
 (001.022126)  can0  0CF00C03   [8]  E9 03 89 16 FF FF FF FF
 (001.025446)  can0  0CF00300   [8]  D1 00 0C FF FF 0F 66 7E
 (001.026011)  can0  18FEF100   [8]  FF 00 00 FC FF 68 00 CF
 (001.026557)  can0  18F0010B   [8]  CF FF F0 FF FF CD FF FF
 (001.030103)  can0  18FCC500   [8]  E6 3F FF FF FF FF FF FF
 (001.030741)  can0  0CFD9200   [8]  F4 FF FA FF FF FF FF FF
 (001.031517)  can0  0CF00203   [8]  C0 00 00 FF F7 5A 16 03
 (001.032121)  can0  0CF00400   [8]  60 7D 83 AE 16 00 0F 84
 (001.035715)  can0  10FDA300   [8]  FF FF 14 FF FF FF FF FF
 (001.035724)  can0  18F00029   [8]  F0 7D 7D F3 29 FF FF 3C
 (001.036519)  can0  18FEBF0B   [8]  00 00 7D 7D 7D 7D FF FF
 (001.040316)  can0  18FEDF00   [8]  84 A0 28 7D 7D FF FF F5
 (001.041861)  can0  0CF00203   [8]  C0 00 00 FF F7 5A 16 03
 (001.042149)  can0  0CF00C03   [8]  EC 03 76 16 FF FF FF FF
 (001.042917)  can0  18F00503   [8]  7D 00 00 7D 4E 20 4E 43
 (001.043319)  can0  18FE4A03   [8]  03 1F 4F FF FF F3 FF FF
 (001.045535)  can0  18FCDC00   [8]  9F FF FF FF 50 68 00 00
 (001.046079)  can0  0CF00300   [8]  D1 00 0C FF FF 0F 66 7E
 (001.046603)  can0  1CFE9200   [8]  FF 84 8F FF FF FF 00 00
 (001.049093)  can0  18F00131   [8]  FF FF FF 3F 00 FF FF FF
 (001.049102)  can0  18FEF131   [8]  F3 FF FF C3 CC FF FF F0
 (001.049724)  can0  18FEF031   [8]  FF FF FF FF FF FC CC FF
 (001.050342)  can0  18FF4831   [8]  00 00 FF FF 00 00 00 00
 (001.050869)  can0  18FEF231   [8]  FF FF FF FF FF FF FF FF
 (001.051553)  can0  0CF00331   [8]  FF FF FF FF FF FF FF FF
 (001.052156)  can0  0C010305   [8]  FF FF FF FF FF F3 FF FF
 (001.052639)  can0  0CF00203   [8]  C0 00 00 FF F7 5D 16 03
 (001.053224)  can0  0CF00400   [8]  70 7D 83 A1 16 00 0F 84
 (001.055446)  can0  0CF00A00   [8]  42 03 BF 05 FF FF FF FF
 (001.055711)  can0  18FD9400   [8]  30 12 FF FF FF FF FF FF
 (001.056314)  can0  18FEEF00   [8]  FF FF FF 1F 4B 7D FF FA
 (001.056883)  can0  18F00E00   [8]  FE 24 FF FF D5 9F FF FF
 (001.057454)  can0  1CEBFF00   [8]  01 43 FF BF 00 09 08 54
 (001.060066)  can0  18F03300   [8]  FF FF FF FF FF FF FF FF
 (001.060634)  can0  18FEDF00   [8]  84 A0 28 7D 7D FF FF F5
 (001.061602)  can0  0CF00203   [8]  C0 00 00 FF F7 5D 16 03
 (001.062201)  can0  0CF00C03   [8]  EE 03 C5 16 FF FF FF FF
 (001.065389)  can0  18FEE000   [8]  00 00 00 00 15 96 35 00
 (001.066030)  can0  0CF00300   [8]  D1 00 0C FF FF 0F 66 7E
 (001.070093)  can0  18FEF200   [8]  13 00 00 00 00 00 E1 FF
 (001.070669)  can0  18F00F00   [8]  76 0F FF FF D5 9F FF FF
 (001.071875)  can0  0CF00203   [8]  C0 00 00 FF F7 5E 16 03
 (001.072090)  can0  0CF00400   [8]  20 7D 84 86 16 00 0F 84
 (001.075337)  can0  18FEDB00   [8]  FF FF C0 30 FF FF FF FF
 (001.080132)  can0  18FEDF00   [8]  84 A0 28 7D 7D FF FF F5
 (001.080727)  can0  10FCFD00   [8]  FF FF FF FF 00 32 FF FF
 (001.082291)  can0  0CF00203   [8]  C0 00 00 FF F7 5E 16 03
 (001.082300)  can0  0CF00C03   [8]  E9 03 98 16 FF FF FF FF
 (001.085899)  can0  0CF00300   [8]  D1 00 0D FF FF 0F 66 7E
 (001.090150)  can0  18F00100   [8]  FF FF FF FF FF FF FF FF
 (001.091522)  can0  0CF00203   [8]  C0 00 00 FF F7 5B 16 03
 (001.092091)  can0  0CF00400   [8]  20 7D 84 96 16 00 0F 84
 (001.095070)  can0  18FEF600   [8]  FF 00 65 FF FF FF FF FF
 (001.098497)  can0  0CF00331   [8]  FF FF FF FF FF FF FF FF
 (001.100095)  can0  18FEDF00   [8]  84 A0 28 7D 7D FF FF F5
 (001.101545)  can0  0CF00203   [8]  C0 00 00 FF F7 5B 16 03
 (001.102110)  can0  0C010305   [8]  FF FF FF FF FF F3 FF FF
 (001.102697)  can0  0CF00C03   [8]  EA 03 54 16 FF FF FF FF
 (001.105883)  can0  0CF00300   [8]  D1 00 0D FF FF 0F 67 7E
 (001.105981)  can0  0CF00A00   [8]  42 03 AD 05 FF FF FF FF
 (001.106669)  can0  18FEF000   [8]  FF FF FF 8E 16 FF FF FF
 (001.107187)  can0  18F00E00   [8]  FE 24 FF FF D5 9F FF FF
 (001.110034)  can0  18F03300   [8]  FF FF FF FF FF FF FF FF
 (001.111576)  can0  0CF00203   [8]  C0 00 00 FF F7 56 16 03
 (001.112097)  can0  0CF00400   [8]  00 7D 84 9E 16 00 0F 84
 (001.112776)  can0  1CEBFF00   [8]  02 00 09 08 ED 14 1F 01
 (001.115254)  can0  18FCF200   [8]  E1 FF FF FF FF FF FF FF
 (001.120105)  can0  18FEDF00   [8]  84 A0 28 7D 7D FF FF F5
 (001.120694)  can0  18FDC600   [8]  FC 04 FF FF FF FF FF FF
 (001.121269)  can0  18F00F00   [8]  76 0F FF FF D5 9F FF FF
 (001.121841)  can0  0CF00203   [8]  C0 00 00 FF F7 56 16 03
 (001.122440)  can0  0CF00C03   [8]  EC 03 C5 16 FF FF FF FF
 (001.125442)  can0  0CF00300   [8]  D1 00 0C FF FF 0F 67 7E
 (001.126032)  can0  18FEF100   [8]  FF 00 00 FC FF 68 00 CF
 (001.126648)  can0  18F0010B   [8]  CF FF F0 FF FF CD FF FF
 (001.131520)  can0  0CF00203   [8]  C0 00 00 FF F7 4E 16 03
 (001.132049)  can0  0CF00400   [8]  70 7D 83 B2 16 00 0F 84
 (001.135259)  can0  10FDA300   [8]  FF FF 14 FF FF FF FF FF
 (001.135612)  can0  18F00029   [8]  F0 7D 7D F3 29 FF FF 3C
 (001.137280)  can0  18FEBF0B   [8]  00 00 7D 7D 7D 7D FF FF
 (001.140156)  can0  18FEDF00   [8]  84 A0 28 7D 7D FF FF F5
 (001.141546)  can0  0CF00203   [8]  C0 00 00 FF F7 4E 16 03
 (001.142162)  can0  0CF00C03   [8]  EE 03 F8 16 FF FF FF FF
 (001.142938)  can0  18F00503   [8]  7D 00 00 7D 4E 20 4E 43
 (001.143353)  can0  18FE4A03   [8]  03 1F 4F FF FF F3 FF FF
 (001.145815)  can0  18FCDC00   [8]  9F FF FF FF 50 68 00 00
 (001.146101)  can0  0CF00300   [8]  D1 00 0C FF FF 0F 66 7E
 (001.146794)  can0  1CFE9200   [8]  FF 2C 8F FF FF FF 00 00
 (001.149062)  can0  18F00131   [8]  FF FF FF 3F 00 FF FF FF
 (001.149079)  can0  18FEF131   [8]  F3 FF FF C3 CC FF FF F0
 (001.149874)  can0  18FEF031   [8]  FF FF FF FF FF FC CC FF
 (001.150320)  can0  18FF4831   [8]  00 00 FF FF 00 00 00 00
 (001.151691)  can0  18FEF231   [8]  FF FF FF FF FF FF FF FF
 (001.151699)  can0  0CF00331   [8]  FF FF FF FF FF FF FF FF
 (001.152095)  can0  0C010305   [8]  FF FF FF FF FF F3 FF FF
 (001.152718)  can0  0CF00203   [8]  C0 00 00 FF F7 4D 16 03
 (001.153221)  can0  0CF00400   [8]  60 7D 83 BB 16 00 0F 84
 (001.155206)  can0  0CF00A00   [8]  42 03 D2 05 FF FF FF FF
 (001.155786)  can0  18FD9400   [8]  30 12 FF FF FF FF FF FF
 (001.156340)  can0  18F00E00   [8]  FE 24 FF FF D5 9F FF FF
 (001.160111)  can0  18F03300   [8]  FF FF FF FF FF FF FF FF
 (001.160703)  can0  18FEDF00   [8]  84 A0 28 7D 7D FF FF F5
 (001.161614)  can0  0CF00203   [8]  C0 00 00 FF F7 4D 16 03
 (001.162182)  can0  0CF00C03   [8]  EA 03 9D 16 FF FF FF FF
 (001.165430)  can0  18FEE000   [8]  00 00 00 00 15 96 35 00
 (001.166043)  can0  0CF00300   [8]  D1 00 0C FF FF 0F 65 7E
 (001.170121)  can0  18FEF200   [8]  0E 00 00 00 00 00 E1 FF
 (001.170694)  can0  18F00F00   [8]  76 0F FF FF D5 9F FF FF
 (001.171850)  can0  0CF00203   [8]  C0 00 00 FF F7 50 16 03
 (001.172091)  can0  0CF00400   [8]  50 7D 83 C1 16 00 0F 84
 (001.180100)  can0  18FEDF00   [8]  84 A0 28 7D 7D FF FF F5
 (001.180696)  can0  10FCFD00   [8]  FF FF FF FF 00 32 FF FF
 (001.182233)  can0  0CF00203   [8]  C0 00 00 FF F7 50 16 03
 (001.182244)  can0  0CF00C03   [8]  EB 03 73 16 FF FF FF FF
 (001.185875)  can0  0CF00300   [8]  D1 00 0C FF FF 0F 66 7E
 (001.190082)  can0  18F00100   [8]  FF FF FF FF FF FF FF FF
 (001.191498)  can0  0CF00203   [8]  C0 00 00 FF F7 57 16 03
 (001.192097)  can0  0CF00400   [8]  60 7D 83 B0 16 00 0F 84
 (001.198504)  can0  0CF00331   [8]  FF FF FF FF FF FF FF FF
 (001.200146)  can0  18FEDF00   [8]  84 A0 28 7D 7D FF FF F5
 (001.202280)  can0  0CF00203   [8]  C0 00 00 FF F7 57 16 03
 (001.202291)  can0  0C010305   [8]  FF FF FF FF FF F3 FF FF
 (001.202678)  can0  0CF00C03   [8]  EF 03 DB 16 FF FF FF FF
 (001.205477)  can0  0CF00300   [8]  D1 00 0C FF FF 0F 66 7E
 (001.206046)  can0  0CF00A00   [8]  42 03 B6 05 FF FF FF FF
 (001.206713)  can0  18FEF000   [8]  FF FF FF BA 16 FF FF FF
 (001.207196)  can0  18F00E00   [8]  FE 24 FF FF D5 9F FF FF
 (001.210092)  can0  18F03300   [8]  FF FF FF FF FF FF FF FF
 (001.211601)  can0  0CF00203   [8]  C0 00 00 FF F7 58 16 03
 (001.212096)  can0  0CF00400   [8]  70 7D 83 A4 16 00 0F 84
 (001.215370)  can0  18FCF200   [8]  E1 FF FF FF FF FF FF FF
 (001.220108)  can0  18FEDF00   [8]  84 A0 28 7D 7D FF FF F5
 (001.220669)  can0  18F00F00   [8]  76 0F FF FF D5 9F FF FF
 (001.221540)  can0  0CF00203   [8]  C0 00 00 FF F7 58 16 03
 (001.222136)  can0  0CF00C03   [8]  EC 03 C9 16 FF FF FF FF
 (001.225526)  can0  0CF00300   [8]  D1 00 0C FF FF 0F 66 7E
 (001.226078)  can0  18FEF100   [8]  FF 00 00 FC FF 68 00 CF
 (001.226979)  can0  18F0010B   [8]  CF FF F0 FF FF CD FF FF
 (001.231492)  can0  0CF00203   [8]  C0 00 00 FF F7 59 16 03
 (001.232046)  can0  0CF00400   [8]  10 7D 84 92 16 00 0F 84
 (001.235304)  can0  10FDA300   [8]  FF FF 14 FF FF FF FF FF
 (001.235653)  can0  18F00029   [8]  F0 7D 7D F3 29 FF FF 3C
 (001.237097)  can0  18FEBF0B   [8]  00 00 7D 7D 7D 7D FF FF
 (001.240198)  can0  18FEDF00   [8]  84 A0 28 7D 7D FF FF F5
 (001.241546)  can0  0CF00203   [8]  C0 00 00 FF F7 59 16 03
 (001.242173)  can0  0CF00C03   [8]  EA 03 4E 16 FF FF FF FF
 (001.242796)  can0  18F00503   [8]  7D 00 00 7D 4E 20 4E 43
 (001.243340)  can0  18FE4A03   [8]  03 1F 4F FF FF F3 FF FF
 (001.243992)  can0  18FD9503   [8]  CC FF FF AF FF FF FF FF
 (001.244624)  can0  18FEF803   [8]  FF FF FF FF BC 2B FF FF
 (001.246257)  can0  18FCDC00   [8]  9F FF FF FF 50 68 00 00
 (001.246268)  can0  0CF00300   [8]  D1 00 0D FF FF 0F 66 7E
 (001.246772)  can0  1CFE9200   [8]  FF 68 8F FF FF FF 00 00
 (001.248916)  can0  18F00131   [8]  FF FF FF 3F 00 FF FF FF
 (001.249144)  can0  18FEF131   [8]  F3 FF FF C3 CC FF FF F0
 (001.249818)  can0  18FEF031   [8]  FF FF FF FF FF FC CC FF
 (001.250333)  can0  18FF4831   [8]  00 00 FF FF 00 00 00 00
 (001.250921)  can0  18FEF231   [8]  FF FF FF FF FF FF FF FF
 (001.251517)  can0  0CF00331   [8]  FF FF FF FF FF FF FF FF
 (001.252121)  can0  0C010305   [8]  FF FF FF FF FF F3 FF FF
 (001.252669)  can0  0CF00203   [8]  C0 00 00 FF F7 57 16 03
 (001.253241)  can0  0CF00400   [8]  20 7D 84 97 16 00 0F 84
 (001.255228)  can0  0CF00A00   [8]  42 03 BF 05 FF FF FF FF
 (001.255785)  can0  18FD9400   [8]  30 12 FF FF FF FF FF FF
 (001.256338)  can0  18F00E00   [8]  FE 24 FF FF D5 9F FF FF
 (001.260657)  can0  18F03300   [8]  FF FF FF FF FF FF FF FF
 (001.260715)  can0  18FEDF00   [8]  84 A0 28 7D 7D FF FF F5
 (001.261639)  can0  0CF00203   [8]  C0 00 00 FF F7 57 16 03
 (001.262173)  can0  0CF00C03   [8]  EB 03 73 16 FF FF FF FF
 (001.265441)  can0  18FEE000   [8]  00 00 00 00 15 96 35 00
 (001.265987)  can0  0CF00300   [8]  D1 00 0D FF FF 0F 67 7E
 (001.270761)  can0  18FEF200   [8]  13 00 00 00 00 00 E1 FF
 (001.270773)  can0  18F00F00   [8]  76 0F FF FF D5 9F FF FF
 (001.271614)  can0  0CF00203   [8]  C0 00 00 FF F7 57 16 03
 (001.272088)  can0  0CF00400   [8]  10 7D 84 9D 16 00 0F 84
 (001.272694)  can0  18FECA03   [8]  00 FF 00 00 00 00 FF FF
 (001.280164)  can0  18FEDF00   [8]  84 A0 28 7D 7D FF FF F5
 (001.280767)  can0  10FCFD00   [8]  FF FF FF FF 00 32 FF FF
 (001.281316)  can0  0CFD9200   [8]  F4 FF FA FF FF FF FF FF
 (001.281909)  can0  0CF00203   [8]  C0 00 00 FF F7 57 16 03
 (001.282495)  can0  0CF00C03   [8]  EE 03 E7 16 FF FF FF FF
 (001.285492)  can0  0CF00300   [8]  D1 00 0C FF FF 0F 68 7E
 (001.291018)  can0  18F00100   [8]  FF FF FF FF FF FF FF FF
 (001.291524)  can0  0CF00203   [8]  C0 00 00 FF F7 50 16 03
 (001.292120)  can0  0CF00400   [8]  70 7D 83 B1 16 00 0F 84
 (001.298502)  can0  0CF00331   [8]  FF FF FF FF FF FF FF FF
 (001.300123)  can0  18FEDF00   [8]  84 A0 28 7D 7D FF FF F5
 (001.301549)  can0  0CF00203   [8]  C0 00 00 FF F7 50 16 03
 (001.302127)  can0  0C010305   [8]  FF FF FF FF FF F3 FF FF
 (001.302665)  can0  0CF00C03   [8]  E9 03 D9 16 FF FF FF FF
 (001.305537)  can0  0CF00300   [8]  D1 00 0C FF FF 0F 66 7E
 (001.306060)  can0  0CF00A00   [8]  42 03 BF 05 FF FF FF FF
 (001.306698)  can0  18FEF000   [8]  FF FF FF A7 16 FF FF FF
 (001.307238)  can0  18F00E00   [8]  FE 24 FF FF D5 9F FF FF
 (001.310097)  can0  18F03300   [8]  FF FF FF FF FF FF FF FF
 (001.311883)  can0  0CF00203   [8]  C0 00 00 FF F7 4C 16 03
 (001.312090)  can0  0CF00400   [8]  60 7D 83 BC 16 00 0F 84
 (001.315113)  can0  18FCF200   [8]  E1 FF FF FF FF FF FF FF
 (001.320145)  can0  18FEDF00   [8]  84 A0 28 7D 7D FF FF F5
 (001.320719)  can0  18F00F00   [8]  76 0F FF FF D5 9F FF FF
 (001.321666)  can0  0CF00203   [8]  C0 00 00 FF F7 4C 16 03
 (001.322138)  can0  0CF00C03   [8]  E9 03 88 16 FF FF FF FF
 (001.325978)  can0  0CF00300   [8]  D1 00 0C FF FF 0F 65 7E
 (001.326041)  can0  18FEF100   [8]  FF 00 00 FC FF 68 00 CF
 (001.327306)  can0  18F0010B   [8]  CF FF F0 FF FF CD FF FF
 (001.331473)  can0  0CF00203   [8]  C0 00 00 FF F7 4F 16 03
 (001.332035)  can0  0CF00400   [8]  50 7D 83 C5 16 00 0F 84
 (001.335784)  can0  10FDA300   [8]  FF FF 14 FF FF FF FF FF
 (001.335794)  can0  18F00029   [8]  F0 7D 7D F3 29 FF FF 3C
 (001.337441)  can0  18FEBF0B   [8]  00 00 7D 7D 7D 7D FF FF
 (001.340165)  can0  18FEDF00   [8]  84 A0 28 7D 7D FF FF F5
 (001.341556)  can0  0CF00203   [8]  C0 00 00 FF F7 4F 16 03
 (001.342147)  can0  0CF00C03   [8]  F1 03 B7 16 FF FF FF FF
 (001.342803)  can0  18F00503   [8]  7D 00 00 7D 4E 20 4E 43
 (001.343324)  can0  18FE4A03   [8]  03 1F 4F FF FF F3 FF FF
 (001.345588)  can0  18FCDC00   [8]  9F FF FF FF 50 68 00 00
 (001.346116)  can0  0CF00300   [8]  D1 00 0C FF FF 0F 66 7E
 (001.346686)  can0  1CFE9200   [8]  FF A8 8F FF FF FF 00 00
 (001.348562)  can0  18F00131   [8]  FF FF FF 3F 00 FF FF FF
 (001.349137)  can0  18FEF131   [8]  F3 FF FF C3 CC FF FF F0
 (001.349710)  can0  18FEF031   [8]  FF FF FF FF FF FC CC FF
 (001.350310)  can0  18FF4831   [8]  00 00 FF FF 00 00 00 00
 (001.350910)  can0  18FEF231   [8]  FF FF FF FF FF FF FF FF
 (001.351470)  can0  0CF00331   [8]  FF FF FF FF FF FF FF FF
 (001.352039)  can0  0C010305   [8]  FF FF FF FF FF F3 FF FF
 (001.352610)  can0  0CF00203   [8]  C0 00 00 FF F7 58 16 03
 (001.353185)  can0  0CF00400   [8]  60 7D 83 AE 16 00 0F 84
 (001.355170)  can0  14FC9800   [8]  FF 00 00 00 00 00 00 FF
 (001.355786)  can0  0CF00A00   [8]  42 03 BF 05 FF FF FF FF
 (001.356344)  can0  18FD9400   [8]  30 12 FF FF FF FF FF FF
 (001.356890)  can0  18F00E00   [8]  FE 24 FF FF D5 9F FF FF
 (001.360195)  can0  18F03300   [8]  FF FF FF FF FF FF FF FF
 (001.360759)  can0  18FEDF00   [8]  84 A0 28 7D 7D FF FF F5
 (001.361595)  can0  0CF00203   [8]  C0 00 00 FF F7 58 16 03
 (001.362168)  can0  0CF00C03   [8]  EE 03 D4 16 FF FF FF FF
 (001.366027)  can0  18FEE000   [8]  00 00 00 00 15 96 35 00
 (001.366037)  can0  0CF00300   [8]  D1 00 0C FF FF 0F 67 7E
 (001.370763)  can0  18FDB400   [8]  C0 38 86 3A FF FF FF FF
 (001.370772)  can0  18FEF200   [8]  13 00 00 00 00 00 E1 FF
 (001.371262)  can0  18F00F00   [8]  76 0F FF FF D5 9F FF FF
 (001.371849)  can0  0CF00203   [8]  C0 00 00 FF F7 5B 16 03
 (001.372550)  can0  0CF00400   [8]  00 7D 84 A4 16 00 0F 84
 (001.380071)  can0  18FEDF00   [8]  84 A0 28 7D 7D FF FF F5
 (001.380658)  can0  10FCFD00   [8]  FF FF FF FF 00 32 FF FF
 (001.381457)  can0  0CF00203   [8]  C0 00 00 FF F7 5B 16 03
 (001.382057)  can0  0CF00C03   [8]  E9 03 87 16 FF FF FF FF
 (001.385439)  can0  0CF00300   [8]  D1 00 0C FF FF 0F 66 7E
 (001.388935)  can0  18FECA31   [8]  00 FF 00 00 00 00 FF FF
 (001.389555)  can0  18F11031   [8]  00 00 FF FF FF FF FF FF
 (001.390183)  can0  18F00100   [8]  FF FF FF FF FF FF FF FF
 (001.391483)  can0  0CF00203   [8]  C0 00 00 FF F7 58 16 03
 (001.392031)  can0  0CF00400   [8]  10 7D 84 8E 16 00 0F 84
 (001.395034)  can0  18FDB300   [8]  FF FF 26 3E FF FF FF FF
 (001.398485)  can0  0CF00331   [8]  FF FF FF FF FF FF FF FF
 (001.400108)  can0  18FEDF00   [8]  84 A0 28 7D 7D FF FF F5
 (001.401482)  can0  0CF00203   [8]  C0 00 00 FF F7 58 16 03
 (001.402057)  can0  0C010305   [8]  FF FF FF FF FF F3 FF FF
 (001.402631)  can0  0CF00C03   [8]  E9 03 62 16 FF FF FF FF
 (001.405380)  can0  0CF00300   [8]  D1 00 0D FF FF 0F 66 7E
 (001.405954)  can0  0CF00A00   [8]  42 03 C9 05 FF FF FF FF
 (001.406552)  can0  18FEF000   [8]  FF FF FF 9B 16 FF FF FF
 (001.407105)  can0  18F00E00   [8]  F2 24 FF FF D5 9F FF FF
 (001.410083)  can0  18F03300   [8]  FF FF FF FF FF FF FF FF
 (001.411479)  can0  0CF00203   [8]  C0 00 00 FF F7 58 16 03
 (001.412031)  can0  0CF00400   [8]  30 7D 84 89 16 00 0F 84
 (001.415169)  can0  18FDB200   [8]  FF FF FF FF 02 00 FF FF
 (001.415739)  can0  18FCF200   [8]  E1 FF FF FF FF FF FF FF
 (001.420147)  can0  18FEDF00   [8]  84 A0 28 7D 7D FF FF F5
 (001.420742)  can0  18F00F00   [8]  76 0F FF FF D5 9F FF FF
 (001.421542)  can0  0CF00203   [8]  C0 00 00 FF F7 58 16 03
 (001.422293)  can0  0CF00C03   [8]  ED 03 BF 16 FF FF FF FF
 (001.425575)  can0  0CF00300   [8]  D1 00 0D FF FF 0F 67 7E
 (001.426132)  can0  18FEF100   [8]  FF 00 00 FC FF 68 00 CF
 (001.427989)  can0  18F0010B   [8]  CF FF F0 FF FF CD FF FF
 (001.431552)  can0  0CF00203   [8]  C0 00 00 FF F7 56 16 03
 (001.432119)  can0  0CF00400   [8]  10 7D 84 9D 16 00 0F 84
 (001.435339)  can0  10FDA300   [8]  FF FF 14 FF FF FF FF FF
 (001.435687)  can0  18F00029   [8]  F0 7D 7D F3 29 FF FF 3C
 (001.437348)  can0  18FEBF0B   [8]  00 00 7D 7D 7D 7D FF FF
 (001.440338)  can0  18FD8C00   [8]  FF FF 01 00 FF FF FF FF
 (001.440852)  can0  18FEDF00   [8]  84 A0 28 7D 7D FF FF F5
 (001.442047)  can0  0CF00203   [8]  C0 00 00 FF F7 56 16 03
 (001.442181)  can0  0CF00C03   [8]  EA 03 B6 16 FF FF FF FF
 (001.442765)  can0  18F00503   [8]  7D 00 00 7D 4E 20 4E 43
 (001.443391)  can0  18FE4A03   [8]  03 1F 4F FF FF F3 FF FF
 (001.445599)  can0  18FCDC00   [8]  9F FF FF FF 50 68 00 00
 (001.446054)  can0  0CF00300   [8]  D1 00 0D FF FF 0F 68 7E
 (001.446671)  can0  1CFE9200   [8]  FF 2C 8F FF FF FF 00 00
 (001.448571)  can0  18F00131   [8]  FF FF FF 3F 00 FF FF FF
 (001.449163)  can0  18FEF131   [8]  F3 FF FF C3 CC FF FF F0
 (001.449742)  can0  18FEF031   [8]  FF FF FF FF FF FC CC FF
 (001.450347)  can0  18FF4831   [8]  00 00 FF FF 00 00 00 00
 (001.450946)  can0  18FEF231   [8]  FF FF FF FF FF FF FF FF
 (001.451473)  can0  0CF00331   [8]  FF FF FF FF FF FF FF FF
 (001.452122)  can0  0C010305   [8]  FF FF FF FF FF F3 FF FF
 (001.452693)  can0  0CF00203   [8]  C0 00 00 FF F7 4D 16 03
 (001.453267)  can0  0CF00400   [8]  00 7D 84 A5 16 00 0F 84
 (001.455773)  can0  0CF00A00   [8]  42 03 A3 05 FF FF FF FF
 (001.455776)  can0  18FD9400   [8]  30 12 FF FF FF FF FF FF
 (001.456386)  can0  18F00E00   [8]  F2 24 FF FF D5 9F FF FF
 (001.460122)  can0  18FD2000   [8]  C0 38 FF FF FF FF FF FF
 (001.460809)  can0  18F03300   [8]  FF FF FF FF FF FF FF FF
 (001.461291)  can0  18FEDF00   [8]  84 A0 28 7D 7D FF FF F5
 (001.462587)  can0  0CF00203   [8]  C0 00 00 FF F7 4D 16 03
 (001.462592)  can0  0CF00C03   [8]  EA 03 64 16 FF FF FF FF
 (001.465826)  can0  18FEE000   [8]  00 00 00 00 15 96 35 00
 (001.466076)  can0  0CF00300   [8]  D1 00 0C FF FF 0F 67 7E
 (001.470648)  can0  18FEF200   [8]  0E 00 00 00 00 00 E1 FF
 (001.470714)  can0  18F00F00   [8]  6C 0F FF FF D5 9F FF FF
 (001.471850)  can0  0CF00203   [8]  C0 00 00 FF F7 48 16 03
 (001.472088)  can0  0CF00400   [8]  70 7D 83 B1 16 00 0F 84
 (001.480135)  can0  18FEDF00   [8]  84 A0 28 7D 7D FF FF F5
 (001.480709)  can0  10FCFD00   [8]  FF FF FF FF 00 32 FF FF
 (001.481462)  can0  0CF00203   [8]  C0 00 00 FF F7 48 16 03
 (001.482158)  can0  0CF00C03   [8]  EC 03 C2 16 FF FF FF FF
 (001.485989)  can0  18FD3E00   [8]  E3 3F FF 16 40 FF FF FF
 (001.486000)  can0  0CF00300   [8]  D1 00 0C FF FF 0F 65 7E
 (001.490201)  can0  18F00100   [8]  FF FF FF FF FF FF FF FF
 (001.491841)  can0  0CF00203   [8]  C0 00 00 FF F7 4A 16 03
 (001.492115)  can0  0CF00400   [8]  60 7D 83 C8 16 00 0F 84
 (001.498747)  can0  0CF00331   [8]  FF FF FF FF FF FF FF FF
 (001.500180)  can0  18FEDF00   [8]  84 A0 28 7D 7D FF FF F5
 (001.502255)  can0  0CF00203   [8]  C0 00 00 FF F7 4A 16 03
 (001.502265)  can0  0C010305   [8]  FF FF FF FF FF F3 FF FF
 (001.502699)  can0  0CF00C03   [8]  EF 03 ED 16 FF FF FF FF
 (001.505745)  can0  18FD4000   [8]  FF 3F 00 FF FF FF FF FF
 (001.506089)  can0  0CF00300   [8]  D1 00 0C FF FF 0F 66 7E
 (001.506665)  can0  0CF00A00   [8]  42 03 C9 05 FF FF FF FF
 (001.507238)  can0  18FEF000   [8]  FF FF FF BD 16 FF FF FF
 (001.507827)  can0  18F00E00   [8]  F2 24 FF FF D5 9F FF FF
 (001.510135)  can0  18F03300   [8]  FF FF FF FF FF FF FF FF
 (001.511463)  can0  0CF00203   [8]  C0 00 00 FF F7 51 16 03
 (001.512094)  can0  0CF00400   [8]  50 7D 83 B5 16 00 0F 84
 (001.515193)  can0  18FCF200   [8]  E1 FF FF FF FF FF FF FF
 (001.520170)  can0  18FEDF00   [8]  84 A0 28 7D 7D FF FF F5
 (001.520770)  can0  18F00F00   [8]  6C 0F FF FF D5 9F FF FF
 (001.521517)  can0  0CF00203   [8]  C0 00 00 FF F7 51 16 03
 (001.522146)  can0  0CF00C03   [8]  EB 03 9E 16 FF FF FF FF
 (001.525911)  can0  0CF00300   [8]  D1 00 0C FF FF 0F 66 7E
 (001.526104)  can0  18FEF100   [8]  FF 00 00 FC FF 68 00 CF
 (001.527856)  can0  18F0010B   [8]  CF FF F0 FF FF CD FF FF
 (001.530339)  can0  18FCC500   [8]  E3 3F FF FF FF FF FF FF
 (001.530726)  can0  0CFD9200   [8]  F4 FF FA FF FF FF FF FF
 (001.531855)  can0  0CF00203   [8]  C0 00 00 FF F7 56 16 03
 (001.532089)  can0  0CF00400   [8]  70 7D 83 A6 16 00 0F 84
 (001.536012)  can0  10FDA300   [8]  FF FF 14 FF FF FF FF FF
 (001.536021)  can0  18F00029   [8]  F0 7D 7D F3 29 FF FF 3C
 (001.537647)  can0  18FEBF0B   [8]  00 00 7D 7D 7D 7D FF FF
 (001.540193)  can0  18FEDF00   [8]  84 A0 28 7D 7D FF FF F5
 (001.541537)  can0  0CF00203   [8]  C0 00 00 FF F7 56 16 03
 (001.542134)  can0  0CF00C03   [8]  E9 03 48 16 FF FF FF FF
 (001.542778)  can0  18F00503   [8]  7D 00 00 7D 4E 20 4E 43
 (001.543321)  can0  18FE4A03   [8]  03 1F 4F FF FF F3 FF FF
 (001.545649)  can0  18FCDC00   [8]  9F FF FF FF 50 68 00 00
 (001.546176)  can0  0CF00300   [8]  D1 00 0C FF FF 0F 66 7E
 (001.546722)  can0  1CFE9200   [8]  FF 7C 8F FF FF FF 00 00
 (001.548522)  can0  18F00131   [8]  FF FF FF 3F 00 FF FF FF
 (001.549125)  can0  18E0FF31   [8]  00 FF FF FF FF F0 FF FF
 (001.549768)  can0  18FEF131   [8]  F3 FF FF C3 CC FF FF F0
 (001.550320)  can0  18FEF031   [8]  FF FF FF FF FF FC CC FF
 (001.550893)  can0  18FEFC31   [8]  FF 75 FF FF FF FF 00 FF
 (001.551506)  can0  18FEAE31   [8]  FF FF 6C 6D FF FF FF FF
 (001.552074)  can0  0C010305   [8]  FF FF FF FF FF F3 FF FF
 (001.552616)  can0  0CF00203   [8]  C0 00 00 FF F7 57 16 03
 (001.553192)  can0  0CF00400   [8]  00 7D 84 98 16 00 0F 84
 (001.553772)  can0  18FEF731   [8]  FF FF FF FF 1A 01 FF FF
 (001.554389)  can0  18FF4831   [8]  00 00 FF FF 00 00 00 00
 (001.555018)  can0  18FD8331   [8]  F8 FF FF FF FF FF FF FF
 (001.555581)  can0  0CF00A00   [8]  42 03 B6 05 FF FF FF FF
 (001.556117)  can0  18FEF831   [8]  FF FF FF FF FF FF FF FF
 (001.556714)  can0  18FD9400   [8]  30 12 FF FF FF FF FF FF
 (001.557313)  can0  18FEF231   [8]  FF FF FF FF FF FF FF FF
 (001.557836)  can0  18FEEF00   [8]  FF FF FF 1F 4D 7D FF FA
 (001.558473)  can0  18F00E00   [8]  F2 24 FF FF D5 9F FF FF
 (001.559579)  can0  18FEFA31   [8]  FF D8 D9 FF FF FF FF FF
 (001.559587)  can0  18FEC131   [8]  2F 42 67 06 FF FF FF FF
 (001.560122)  can0  0CF00331   [8]  FF FF FF FF FF FF FF FF
 (001.561507)  can0  18F03300   [8]  FF FF FF FF FF FF FF FF
 (001.561517)  can0  18FEDF00   [8]  84 A0 28 7D 7D FF FF F5
 (001.561915)  can0  0CF00203   [8]  C0 00 00 FF F7 57 16 03
 (001.562627)  can0  0CF00C03   [8]  ED 03 B0 16 FF FF FF FF
 (001.565910)  can0  18FEE000   [8]  00 00 00 00 15 96 35 00
 (001.566084)  can0  0CF00300   [8]  D1 00 0C FF FF 0F 66 7E
 (001.570603)  can0  18FEF200   [8]  13 00 00 00 00 00 E1 FF
 (001.570729)  can0  18F00F00   [8]  6C 0F FF FF D5 9F FF FF
 (001.571530)  can0  0CF00203   [8]  C0 00 00 FF F7 57 16 03
 (001.572088)  can0  0CF00400   [8]  20 7D 84 88 16 00 0F 84
 (001.575136)  can0  18FEDB00   [8]  FF FF 2D 31 FF FF FF FF
 (001.580106)  can0  18FEDF00   [8]  84 A0 28 7D 7D FF FF F5
 (001.580671)  can0  10FCFD00   [8]  FF FF FF FF 00 32 FF FF
 (001.581474)  can0  0CF00203   [8]  C0 00 00 FF F7 57 16 03
 (001.582092)  can0  0CF00C03   [8]  EA 03 E1 16 FF FF FF FF
 (001.586008)  can0  0CF00300   [8]  D1 00 0D FF FF 0F 66 7E
 (001.590182)  can0  18F00100   [8]  FF FF FF FF FF FF FF FF
 (001.591585)  can0  0CF00203   [8]  C0 00 00 FF F7 55 16 03
 (001.592094)  can0  0CF00400   [8]  20 7D 84 98 16 00 0F 84
 (001.595669)  can0  18FEF600   [8]  FF 00 65 FF FF FF FF FF
 (001.598864)  can0  0CF00331   [8]  FF FF FF FF FF FF FF FF
 (001.600921)  can0  18FEDF00   [8]  84 A0 28 7D 7D FF FF F5
 (001.601539)  can0  0CF00203   [8]  C0 00 00 FF F7 55 16 03
 (001.602117)  can0  0C010305   [8]  FF FF FF FF FF F3 FF FF
 (001.602675)  can0  0CF00C03   [8]  EA 03 74 16 FF FF FF FF
 (001.605493)  can0  0CF00300   [8]  D1 00 0D FF FF 0F 67 7E
 (001.606072)  can0  0CF00A00   [8]  39 03 A3 05 FF FF FF FF
 (001.606649)  can0  18FEF000   [8]  FF FF FF 90 16 FF FF FF
 (001.607196)  can0  18F00E00   [8]  E6 24 FF FF D5 9F FF FF
 (001.610196)  can0  18F03300   [8]  FF FF FF FF FF FF FF FF
 (001.611566)  can0  0CF00203   [8]  C0 00 00 FF F7 50 16 03
 (001.612094)  can0  0CF00400   [8]  00 7D 84 A2 16 00 0F 84
 (001.615149)  can0  18FCF200   [8]  E1 FF FF FF FF FF FF FF
 (001.620156)  can0  18FEDF00   [8]  84 A0 28 7D 7D FF FF F5
 (001.620777)  can0  18FDC600   [8]  FC 04 FF FF FF FF FF FF
 (001.621308)  can0  18F00F00   [8]  6C 0F FF FF D5 9F FF FF
 (001.621894)  can0  0CF00203   [8]  C0 00 00 FF F7 50 16 03
 (001.622491)  can0  0CF00C03   [8]  EB 03 81 16 FF FF FF FF
 (001.625580)  can0  0CF00300   [8]  D1 00 0C FF FF 0F 66 7E
 (001.626145)  can0  18FEF100   [8]  FF 00 00 FC FF 68 00 CF
 (001.627856)  can0  18F0010B   [8]  CF FF F0 FF FF CD FF FF
 (001.631902)  can0  0CF00203   [8]  C0 00 00 FF F7 4B 16 03
 (001.632032)  can0  0CF00400   [8]  70 7D 83 B4 16 00 0F 84
 (001.635719)  can0  10FDA300   [8]  FF FF 14 FF FF FF FF FF
 (001.635731)  can0  18F00029   [8]  F0 7D 7D F3 29 FF FF 3C
 (001.637719)  can0  18FEBF0B   [8]  00 00 7D 7D 7D 7D FF FF
 (001.640201)  can0  18FEDF00   [8]  84 A0 28 7D 7D FF FF F5
 (001.641498)  can0  0CF00203   [8]  C0 00 00 FF F7 4B 16 03
 (001.642097)  can0  0CF00C03   [8]  EF 03 F6 16 FF FF FF FF
 (001.642771)  can0  18F00503   [8]  7D 00 00 7D 4E 20 4E 43
 (001.643368)  can0  18FE4A03   [8]  03 1F 4F FF FF F3 FF FF
 (001.645735)  can0  18FCDC00   [8]  9F FF FF FF 50 68 00 00
 (001.646143)  can0  0CF00300   [8]  D1 00 0C FF FF 0F 65 7E
 (001.646677)  can0  1CFE9200   [8]  FF 28 8F FF FF FF 00 00
 (001.648502)  can0  18F00131   [8]  FF FF FF 3F 00 FF FF FF
 (001.649132)  can0  18FEF131   [8]  F3 FF FF C3 CC FF FF F0
 (001.649718)  can0  18FEF031   [8]  FF FF FF FF FF FC CC FF
 (001.650364)  can0  18FF4831   [8]  00 00 FF FF 00 00 00 00
 (001.650931)  can0  18FEF231   [8]  FF FF FF FF FF FF FF FF
 (001.651561)  can0  0CF00331   [8]  FF FF FF FF FF FF FF FF
 (001.652099)  can0  0C010305   [8]  FF FF FF FF FF F3 FF FF
 (001.652640)  can0  0CF00203   [8]  C0 00 00 FF F7 4D 16 03
 (001.653291)  can0  0CF00400   [8]  60 7D 83 C4 16 00 0F 84
 (001.655544)  can0  0CF00A00   [8]  39 03 DC 05 FF FF FF FF
 (001.655807)  can0  18FD9400   [8]  30 12 FF FF FF FF FF FF
 (001.656443)  can0  18F00E00   [8]  E6 24 FF FF D5 9F FF FF
 (001.660107)  can0  18F03300   [8]  FF FF FF FF FF FF FF FF
 (001.660720)  can0  18FEDF00   [8]  84 A0 28 7D 7D FF FF F5
 (001.662287)  can0  0CF00203   [8]  C0 00 00 FF F7 4D 16 03
 (001.662297)  can0  0CF00C03   [8]  EB 03 E4 16 FF FF FF FF
 (001.665977)  can0  18FEF700   [8]  FF FF FF FF 19 01 FF FF
 (001.666060)  can0  18FEE000   [8]  00 00 00 00 15 96 35 00
 (001.666718)  can0  0CF00300   [8]  D1 00 0C FF FF 0F 65 7E
 (001.670246)  can0  18FEF200   [8]  0E 00 00 00 00 00 E1 FF
 (001.670811)  can0  18F00F00   [8]  76 0F FF FF D5 9F FF FF
 (001.671510)  can0  0CF00203   [8]  C0 00 00 FF F7 50 16 03
 (001.672086)  can0  0CF00400   [8]  50 7D 83 C5 16 00 0F 84
 (001.680156)  can0  18FEDF00   [8]  84 A0 28 7D 7D FF FF F5
 (001.680740)  can0  10FCFD00   [8]  FF FF FF FF 00 32 FF FF
 (001.681472)  can0  0CF00203   [8]  C0 00 00 FF F7 50 16 03
 (001.682112)  can0  0CF00C03   [8]  E9 03 78 16 FF FF FF FF
 (001.685771)  can0  18FEC100   [8]  17 A8 3B 05 00 00 00 00
 (001.686080)  can0  0CF00300   [8]  D1 00 0C FF FF 0F 66 7E
 (001.690221)  can0  18F00100   [8]  FF FF FF FF FF FF FF FF
 (001.691820)  can0  0CF00203   [8]  C0 00 00 FF F7 58 16 03
 (001.692087)  can0  0CF00400   [8]  60 7D 83 B5 16 00 0F 84
 (001.698787)  can0  0CF00331   [8]  FF FF FF FF FF FF FF FF
 (001.700981)  can0  18FEDF00   [8]  84 A0 28 7D 7D FF FF F5
 (001.701515)  can0  0CF00203   [8]  C0 00 00 FF F7 58 16 03
 (001.702123)  can0  0C010305   [8]  FF FF FF FF FF F3 FF FF
 (001.702695)  can0  0CF00C03   [8]  EE 03 AA 16 FF FF FF FF
 (001.705498)  can0  0CF00300   [8]  D1 00 0C FF FF 0F 66 7E
 (001.706114)  can0  0CF00A00   [8]  39 03 BF 05 FF FF FF FF
 (001.706642)  can0  18FEF000   [8]  FF FF FF BB 16 FF FF FF
 (001.707228)  can0  18F00E00   [8]  E6 24 FF FF D5 9F FF FF
 (001.710538)  can0  18FE5600   [8]  97 42 FF FF 1F 1F 00 FF
 (001.710780)  can0  18F03300   [8]  FF FF FF FF FF FF FF FF
 (001.711554)  can0  0CF00203   [8]  C0 00 00 FF F7 5C 16 03
 (001.712129)  can0  0CF00400   [8]  70 7D 83 A1 16 00 0F 84
 (001.715129)  can0  18FCF200   [8]  E1 FF FF FF FF FF FF FF
 (001.721041)  can0  18FEDF00   [8]  84 A0 28 7D 7D FF FF F5
 (001.721051)  can0  18F00F00   [8]  76 0F FF FF D5 9F FF FF
 (001.721527)  can0  0CF00203   [8]  C0 00 00 FF F7 5C 16 03
 (001.722153)  can0  0CF00C03   [8]  EE 03 D3 16 FF FF FF FF
 (001.725544)  can0  0CF00300   [8]  D1 00 0C FF FF 0F 65 7E
 (001.726117)  can0  18FEF100   [8]  FF 00 00 FC FF 68 00 CF
 (001.727891)  can0  18F0010B   [8]  CF FF F0 FF FF CD FF FF
 (001.731053)  can0  18FD7B00   [8]  00 FF 69 B9 00 00 D7 55
 (001.731524)  can0  0CF00203   [8]  C0 00 00 FF F7 5D 16 03
 (001.732239)  can0  0CF00400   [8]  10 7D 84 90 16 00 0F 84
 (001.735141)  can0  10FDA300   [8]  FF FF 14 FF FF FF FF FF
 (001.735707)  can0  18F00029   [8]  F0 7D 7D F3 29 FF FF 3C
 (001.737909)  can0  18FEBF0B   [8]  00 00 7D 7D 7D 7D FF FF
 (001.740220)  can0  18FEDF00   [8]  84 A0 28 7D 7D FF FF F5
 (001.742045)  can0  0CF00203   [8]  C0 00 00 FF F7 5D 16 03
 (001.742108)  can0  0CF00C03   [8]  E9 03 95 16 FF FF FF FF
 (001.742896)  can0  18F00503   [8]  7D 00 00 7D 4E 20 4E 43
 (001.743355)  can0  18FE4A03   [8]  03 1F 4F FF FF F3 FF FF
 (001.745768)  can0  18FCDC00   [8]  9F FF FF FF 50 68 00 00
 (001.746160)  can0  0CF00300   [8]  D1 00 0D FF FF 0F 65 7E
 (001.746725)  can0  1CFE9200   [8]  FF 3C 8F FF FF FF 00 00
 (001.748502)  can0  18F00131   [8]  FF FF FF 3F 00 FF FF FF
 (001.749113)  can0  18FEF131   [8]  F3 FF FF C3 CC FF FF F0
 (001.749761)  can0  18FEF031   [8]  FF FF FF FF FF FC CC FF
 (001.750442)  can0  18FF4831   [8]  00 00 FF FF 00 00 00 00
 (001.750952)  can0  18FEF231   [8]  FF FF FF FF FF FF FF FF
 (001.751558)  can0  0CF00203   [8]  C0 00 00 FF F7 59 16 03
 (001.752127)  can0  0C010305   [8]  FF FF FF FF FF F3 FF FF
 (001.752830)  can0  0CF00331   [8]  FF FF FF FF FF FF FF FF
 (001.753267)  can0  0CF00400   [8]  10 7D 84 9C 16 00 0F 84
 (001.755447)  can0  0CF00A00   [8]  39 03 BF 05 FF FF FF FF
 (001.755832)  can0  18FD9400   [8]  30 12 FF FF FF FF FF FF
 (001.756469)  can0  18FEDD00   [8]  FF 4A 0E FF FF FF FF FF
 (001.757019)  can0  18F00E00   [8]  E6 24 FF FF D5 9F FF FF
 (001.760184)  can0  18F03300   [8]  FF FF FF FF FF FF FF FF
 (001.760920)  can0  18FEDF00   [8]  84 A0 28 7D 7D FF FF F5
 (001.761588)  can0  0CF00203   [8]  C0 00 00 FF F7 59 16 03
 (001.762163)  can0  0CF00C03   [8]  E9 03 5B 16 FF FF FF FF
 (001.766050)  can0  18FEE000   [8]  00 00 00 00 15 96 35 00
 (001.766060)  can0  0CF00300   [8]  D1 00 0D FF FF 0F 67 7E
 (001.770226)  can0  18FEF200   [8]  13 00 00 00 00 00 E1 FF
 (001.770810)  can0  18F00F00   [8]  76 0F FF FF D5 9F FF FF
 (001.771534)  can0  0CF00203   [8]  C0 00 00 FF F7 58 16 03
 (001.772046)  can0  0CF00400   [8]  00 7D 84 A2 16 00 0F 84
 (001.775927)  can0  18FEE400   [8]  FF 3F FC FC 00 7F FF FF
 (001.780166)  can0  18FEDF00   [8]  84 A0 28 7D 7D FF FF F5
 (001.780719)  can0  10FCFD00   [8]  FF FF FF FF 00 32 FF FF
 (001.781289)  can0  0CFD9200   [8]  F4 FF FA FF FF FF FF FF
 (001.781874)  can0  0CF00203   [8]  C0 00 00 FF F7 58 16 03
 (001.782521)  can0  0CF00C03   [8]  EE 03 DF 16 FF FF FF FF
 (001.785921)  can0  0CF00300   [8]  D1 00 0C FF FF 0F 67 7E
 (001.790204)  can0  18F00100   [8]  FF FF FF FF FF FF FF FF
 (001.791898)  can0  0CF00203   [8]  C0 00 00 FF F7 55 16 03
 (001.792031)  can0  0CF00400   [8]  70 7D 83 B7 16 00 0F 84
 (001.798734)  can0  0CF00331   [8]  FF FF FF FF FF FF FF FF
 (001.800243)  can0  18FEDF00   [8]  84 A0 28 7D 7D FF FF F5
 (001.801517)  can0  0CF00203   [8]  C0 00 00 FF F7 55 16 03
 (001.802129)  can0  0C010305   [8]  FF FF FF FF FF F3 FF FF
 (001.802664)  can0  0CF00C03   [8]  EC 03 F3 16 FF FF FF FF
 (001.805535)  can0  0CF00300   [8]  D1 00 0C FF FF 0F 66 7E
 (001.806151)  can0  0CF00A00   [8]  39 03 C9 05 FF FF FF FF
 (001.806745)  can0  18FEF000   [8]  FF FF FF AE 16 FF FF FF
 (001.807294)  can0  18FEBD00   [8]  00 F0 FF FF FF FF FF FF
 (001.807841)  can0  18F00E00   [8]  E6 24 FF FF D5 9F FF FF
 (001.810526)  can0  18F03300   [8]  FF FF FF FF FF FF FF FF
 (001.811534)  can0  0CF00203   [8]  C0 00 00 FF F7 52 16 03
 (001.812064)  can0  0CF00400   [8]  50 7D 83 BF 16 00 0F 84
 (001.815175)  can0  18FCF200   [8]  E1 FF FF FF FF FF FF FF
 (001.820177)  can0  18FEDF00   [8]  84 A0 28 7D 7D FF FF F5
 (001.820781)  can0  18E0FF00   [8]  00 FF FF FF FF FF FF FF
 (001.821343)  can0  18F00F00   [8]  76 0F FF FF D5 9F FF FF
 (001.821892)  can0  0CF00203   [8]  C0 00 00 FF F7 52 16 03
 (001.822596)  can0  0CF00C03   [8]  E9 03 77 16 FF FF FF FF
 (001.825567)  can0  18FD0700   [8]  43 0C FC FF FF FF FF FF
 (001.826118)  can0  0CF00300   [8]  D1 00 0C FF FF 0F 65 7E
 (001.826645)  can0  18FEF100   [8]  FF 00 00 FC FF 68 00 CF
 (001.828124)  can0  18F0010B   [8]  CF FF F0 FF FF CD FF FF
 (001.830479)  can0  18FEEE00   [8]  82 FF FF FF FF FF FF FF
 (001.831855)  can0  0CF00203   [8]  C0 00 00 FF F7 54 16 03
 (001.832091)  can0  0CF00400   [8]  50 7D 83 C5 16 00 0F 84
 (001.835165)  can0  10FDA300   [8]  FF FF 14 FF FF FF FF FF
 (001.835670)  can0  18F00029   [8]  F0 7D 7D F3 29 FF FF 3C
 (001.838146)  can0  18FEBF0B   [8]  00 00 7D 7D 7D 7D FF FF
 (001.840285)  can0  18FEDF00   [8]  84 A0 28 7D 7D FF FF F5
 (001.841859)  can0  0CF00203   [8]  C0 00 00 FF F7 54 16 03
 (001.842142)  can0  0CF00C03   [8]  ED 03 93 16 FF FF FF FF
 (001.842966)  can0  18F00503   [8]  7D 00 00 7D 4E 20 4E 43
 (001.843358)  can0  18FE4A03   [8]  03 1F 4F FF FF F3 FF FF
 (001.845618)  can0  18FCDC00   [8]  9F FF FF FF 50 68 00 00
 (001.846173)  can0  0CF00300   [8]  D1 00 0C FF FF 0F 66 7E
 (001.846718)  can0  1CFE9200   [8]  FF A0 8F FF FF FF 00 00
 (001.847302)  can0  18FEF500   [8]  A8 FF FF 63 26 FF FF FF
 (001.848500)  can0  18F00131   [8]  FF FF FF 3F 00 FF FF FF
 (001.849142)  can0  18FEF131   [8]  F3 FF FF C3 CC FF FF F0
 (001.849717)  can0  18FEF031   [8]  FF FF FF FF FF FC CC FF
 (001.850317)  can0  18FF4831   [8]  00 00 FF FF 00 00 00 00
 (001.850917)  can0  18FEF231   [8]  FF FF FF FF FF FF FF FF
 (001.851871)  can0  0CF00331   [8]  FF FF FF FF FF FF FF FF
 (001.852104)  can0  0C010305   [8]  FF FF FF FF FF F3 FF FF
 (001.852669)  can0  0CF00203   [8]  C0 00 00 FF F7 5E 16 03
 (001.853258)  can0  0CF00400   [8]  60 7D 83 B2 16 00 0F 84
 (001.855777)  can0  14FC9800   [8]  FF 00 00 00 00 00 00 FF
 (001.855850)  can0  0CF00A00   [8]  39 03 BF 05 FF FF FF FF
 (001.856440)  can0  18FD9400   [8]  30 12 FF FF FF FF FF FF
 (001.857019)  can0  18F00E00   [8]  E6 24 FF FF D5 9F FF FF
 (001.860123)  can0  18F03300   [8]  FF FF FF FF FF FF FF FF
 (001.860899)  can0  18FEDF00   [8]  84 A0 28 7D 7D FF FF F5
 (001.861686)  can0  0CF00203   [8]  C0 00 00 FF F7 5E 16 03
 (001.862198)  can0  0CF00C03   [8]  EF 03 D5 16 FF FF FF FF
 (001.865537)  can0  18FEE000   [8]  00 00 00 00 15 96 35 00
 (001.866110)  can0  0CF00300   [8]  D1 00 0C FF FF 0F 67 7E
 (001.866664)  can0  18FEA400   [8]  FF FF 53 2A FF FF 06 2D
 (001.870173)  can0  18FDB400   [8]  C0 38 86 3A FF FF FF FF
 (001.870820)  can0  18FEF200   [8]  13 00 00 00 00 00 E1 FF
 (001.871392)  can0  18F00F00   [8]  76 0F FF FF D5 9F FF FF
 (001.871970)  can0  0CF00203   [8]  C0 00 00 FF F7 60 16 03
 (001.872516)  can0  0CF00400   [8]  70 7D 83 A8 16 00 0F 84
 (001.880184)  can0  18FEDF00   [8]  84 A0 28 7D 7D FF FF F5
 (001.880770)  can0  10FCFD00   [8]  FF FF FF FF 00 32 FF FF
 (001.881473)  can0  0CF00203   [8]  C0 00 00 FF F7 60 16 03
 (001.882109)  can0  0CF00C03   [8]  EA 03 A6 16 FF FF FF FF
 (001.885978)  can0  0CF00300   [8]  D1 00 0C FF FF 0F 66 7E
 (001.890199)  can0  18FD7C00   [8]  F8 83 00 00 C3 0F 03 FF
 (001.890766)  can0  18F00100   [8]  FF FF FF FF FF FF FF FF
 (001.891868)  can0  0CF00203   [8]  C0 00 00 FF F7 5D 16 03
 (001.892117)  can0  0CF00400   [8]  10 7D 84 90 16 00 0F 84
 (001.895737)  can0  18FDB300   [8]  FF FF 20 3E FF FF FF FF
 (001.898540)  can0  0CF00331   [8]  FF FF FF FF FF FF FF FF
 (001.900183)  can0  18FEDF00   [8]  84 A0 28 7D 7D FF FF F5
 (001.901511)  can0  0CF00203   [8]  C0 00 00 FF F7 5D 16 03
 (001.902094)  can0  0C010305   [8]  FF FF FF FF FF F3 FF FF
 (001.902646)  can0  0CF00C03   [8]  EA 03 3E 16 FF FF FF FF
 (001.906217)  can0  0CF00300   [8]  D1 00 0C FF FF 0F 66 7E
 (001.906227)  can0  0CF00A00   [8]  39 03 D2 05 FF FF FF FF
 (001.906759)  can0  18FEF000   [8]  FF FF FF 9D 16 FF FF FF
 (001.907368)  can0  18F00E00   [8]  E6 24 FF FF D5 9F FF FF
 (001.910608)  can0  18F03300   [8]  FF FF FF FF FF FF FF FF
 (001.910704)  can0  18FE9A00   [8]  AB 27 FF FF FF FF FF FF
 (001.911561)  can0  0CF00203   [8]  C0 00 00 FF F7 5A 16 03
 (001.912113)  can0  0CF00400   [8]  30 7D 84 90 16 00 0F 84
 (001.915122)  can0  18FDB200   [8]  FF FF FF FF 02 00 FF FF
 (001.915783)  can0  18FCF200   [8]  E1 FF FF FF FF FF FF FF
 (001.920407)  can0  18FEDF00   [8]  84 A0 28 7D 7D FF FF F5
 (001.920824)  can0  18F00F00   [8]  76 0F FF FF D5 9F FF FF
 (001.921654)  can0  0CF00203   [8]  C0 00 00 FF F7 5A 16 03
 (001.922125)  can0  0CF00C03   [8]  EB 03 A3 16 FF FF FF FF
 (001.925598)  can0  0CF00300   [8]  D1 00 0D FF FF 0F 67 7E
 (001.926145)  can0  18FEF100   [8]  FF 00 00 FC FF 68 00 CF
 (001.928918)  can0  18F0010B   [8]  CF FF F0 FF FF CD FF FF
 (001.931517)  can0  0CF00203   [8]  C0 00 00 FF F7 58 16 03
 (001.932068)  can0  0CF00400   [8]  00 7D 84 A3 16 00 0F 84
 (001.935173)  can0  10FDA300   [8]  FF FF 14 FF FF FF FF FF
 (001.935741)  can0  18FE9900   [8]  FF FF FF FF FF FF FF FF
 (001.936327)  can0  18F00029   [8]  F0 7D 7D F3 29 FF FF 3C
 (001.938373)  can0  18FEBF0B   [8]  00 00 7D 7D 7D 7D FF FF
 (001.940408)  can0  18FD8C00   [8]  FF FF 01 00 FF FF FF FF
 (001.940816)  can0  18FEDF00   [8]  84 A0 28 7D 7D FF FF F5
 (001.942260)  can0  0CF00203   [8]  C0 00 00 FF F7 58 16 03
 (001.942270)  can0  0CF00C03   [8]  EC 03 E4 16 FF FF FF FF
 (001.942790)  can0  18F00503   [8]  7D 00 00 7D 4E 20 4E 43
 (001.943393)  can0  18FE4A03   [8]  03 1F 4F FF FF F3 FF FF
 (001.945622)  can0  18FCDC00   [8]  9F FF FF FF 50 68 00 00
 (001.946196)  can0  0CF00300   [8]  D1 00 0C FF FF 0F 68 7E
 (001.946768)  can0  1CFE9200   [8]  FF 30 8F FF FF FF 00 00
 (001.949064)  can0  18F00131   [8]  FF FF FF 3F 00 FF FF FF
 (001.949079)  can0  18FEF131   [8]  F3 FF FF C3 CC FF FF F0
 (001.949890)  can0  18FEF031   [8]  FF FF FF FF FF FC CC FF
 (001.950271)  can0  18FF4831   [8]  00 00 FF FF 00 00 00 00
 (001.951767)  can0  18FEF231   [8]  FF FF FF FF FF FF FF FF
 (001.951778)  can0  0CF00331   [8]  FF FF FF FF FF FF FF FF
 (001.952082)  can0  0C010305   [8]  FF FF FF FF FF F3 FF FF
 (001.952788)  can0  0CF00203   [8]  C0 00 00 FF F7 53 16 03
 (001.953219)  can0  0CF00400   [8]  70 7D 83 AC 16 00 0F 84
 (001.955602)  can0  0CF00A00   [8]  42 03 B6 05 FF FF FF FF
 (001.955784)  can0  18FD9400   [8]  30 12 FF FF FF FF FF FF
 (001.957303)  can0  18FEFC00   [8]  FF FF FF FF FF FF FF FF
 (001.957314)  can0  18F00E00   [8]  E6 24 FF FF D5 9F FF FF
 (001.960606)  can0  18FD2000   [8]  C0 38 FF FF FF FF FF FF
 (001.960756)  can0  18F03300   [8]  FF FF FF FF FF FF FF FF
 (001.961433)  can0  18FEDF00   [8]  84 A0 28 7D 7D FF FF F5
 (001.961927)  can0  0CF00203   [8]  C0 00 00 FF F7 53 16 03
 (001.962519)  can0  0CF00C03   [8]  E9 03 B0 16 FF FF FF FF
 (001.965551)  can0  18FEE000   [8]  00 00 00 00 15 96 35 00
 (001.966126)  can0  0CF00300   [8]  D1 00 0C FF FF 0F 66 7E
 (001.970219)  can0  18FEF200   [8]  0E 00 00 00 00 00 E1 FF
 (001.970829)  can0  18F00F00   [8]  76 0F FF FF D5 9F FF FF
 (001.971525)  can0  0CF00203   [8]  C0 00 00 FF F7 4B 16 03
 (001.972108)  can0  0CF00400   [8]  70 7D 83 B6 16 00 0F 84
 (001.980195)  can0  18FEDF00   [8]  84 A0 28 7D 7D FF FF F5
 (001.980800)  can0  10FCFD00   [8]  FF FF FF FF 00 32 FF FF
 (001.981519)  can0  0CF00203   [8]  C0 00 00 FF F7 4B 16 03
 (001.982127)  can0  0CF00C03   [8]  EB 03 7C 16 FF FF FF FF
 (001.985951)  can0  18FD3E00   [8]  E3 3F FF 16 40 FF FF FF
 (001.986087)  can0  0CF00300   [8]  D1 00 0C FF FF 0F 65 7E
 (001.990824)  can0  18F00100   [8]  FF FF FF FF FF FF FF FF
 (001.991564)  can0  0CF00203   [8]  C0 00 00 FF F7 4F 16 03
 (001.992051)  can0  0CF00400   [8]  50 7D 83 C4 16 00 0F 84
 (001.998520)  can0  0CF00331   [8]  FF FF FF FF FF FF FF FF
 (002.000231)  can0  18FEDF00   [8]  84 A0 28 7D 7D FF FF F5
 (002.001485)  can0  0CF00203   [8]  C0 00 00 FF F7 4F 16 03
 (002.002117)  can0  0C010305   [8]  FF FF FF FF FF F3 FF FF
 (002.002669)  can0  0CF00C03   [8]  F0 03 D7 16 FF FF FF FF
 (002.005572)  can0  18FD4000   [8]  FF 3F 00 FF FF FF FF FF
 (002.006151)  can0  0CF00300   [8]  D1 00 0C FF FF 0F 65 7E
 (002.006717)  can0  0CF00A00   [8]  42 03 BF 05 FF FF FF FF
 (002.007290)  can0  18FEF000   [8]  FF FF FF C5 16 FF FF FF
 (002.007846)  can0  18F00E00   [8]  E6 24 FF FF D5 9F FF FF
 (002.008466)  can0  1CECFF00   [8]  20 0E 00 02 FF CA FE 00
 (002.010210)  can0  18F03300   [8]  FF FF FF FF FF FF FF FF
 (002.011487)  can0  0CF00203   [8]  C0 00 00 FF F7 57 16 03
 (002.012119)  can0  0CF00400   [8]  60 7D 83 AF 16 00 0F 84
 (002.015859)  can0  18FCF200   [8]  E1 FF FF FF FF FF FF FF
 (002.020246)  can0  18FEDF00   [8]  84 A0 28 7D 7D FF FF F5
 (002.020788)  can0  18F00F00   [8]  76 0F FF FF D5 9F FF FF
 (002.022302)  can0  0CF00203   [8]  C0 00 00 FF F7 57 16 03
 (002.022312)  can0  0CF00C03   [8]  EC 03 D4 16 FF FF FF FF
 (002.026003)  can0  0CF00300   [8]  D1 00 0C FF FF 0F 66 7E
 (002.026075)  can0  18FEF100   [8]  FF 00 00 FC FF 68 00 CF
 (002.027172)  can0  1CECFF29   [8]  20 13 00 03 FF E1 FE 00
 (002.028516)  can0  18F0010B   [8]  CF FF F0 FF FF CD FF FF
 (002.030263)  can0  18FCC500   [8]  E3 3F FF FF FF FF FF FF
 (002.030872)  can0  0CFD9200   [8]  F4 FF FA FF FF FF FF FF
 (002.031510)  can0  0CF00203   [8]  C0 00 00 FF F7 5A 16 03
 (002.032141)  can0  0CF00400   [8]  00 7D 84 A3 16 00 0F 84
 (002.035177)  can0  10FDA300   [8]  FF FF 14 FF FF FF FF FF
 (002.035765)  can0  18F00029   [8]  F0 7D 7D F3 29 FF FF 3C
 (002.039353)  can0  18FEBF0B   [8]  00 00 7D 7D 7D 7D FF FF
 (002.040303)  can0  18FEDF00   [8]  84 A0 28 7D 7D FF FF F5
 (002.041529)  can0  0CF00203   [8]  C0 00 00 FF F7 5A 16 03
 (002.042141)  can0  0CF00C03   [8]  E9 03 6C 16 FF FF FF FF
 (002.042955)  can0  18F00503   [8]  7D 00 00 7D 4E 20 4E 43
 (002.043301)  can0  18FE4A03   [8]  03 1F 4F FF FF F3 FF FF
 (002.045695)  can0  18FCDC00   [8]  9F FF FF FF 50 68 00 00
 (002.046228)  can0  0CF00300   [8]  D1 00 0C FF FF 0F 66 7E
 (002.046828)  can0  1CFE9200   [8]  FF 80 8F FF FF FF 00 00
 (002.049071)  can0  18F00131   [8]  FF FF FF 3F 00 FF FF FF
 (002.049081)  can0  18FEF131   [8]  F3 FF FF C3 CC FF FF F0
 (002.049883)  can0  18FEF031   [8]  FF FF FF FF FF FC CC FF
 (002.050264)  can0  18FF4831   [8]  00 00 FF FF 00 00 00 00
 (002.050970)  can0  18FEF231   [8]  FF FF FF FF FF FF FF FF
 (002.051560)  can0  0CF00331   [8]  FF FF FF FF FF FF FF FF
 (002.052109)  can0  0C010305   [8]  FF FF FF FF FF F3 FF FF
 (002.052669)  can0  0CF00203   [8]  C0 00 00 FF F7 55 16 03
 (002.053249)  can0  0CF00400   [8]  00 7D 84 95 16 00 0F 84
 (002.055865)  can0  0CF00A00   [8]  42 03 BF 05 FF FF FF FF
 (002.055874)  can0  18FD9400   [8]  30 12 FF FF FF FF FF FF
 (002.056502)  can0  18FEEF00   [8]  FF FF FF 1F 4D 7D FF FA
 (002.057086)  can0  18F00E00   [8]  E6 24 FF FF D5 9F FF FF
 (002.057667)  can0  1CEBFF00   [8]  01 43 FF BF 00 09 08 54
 (002.060147)  can0  18F03300   [8]  FF FF FF FF FF FF FF FF
 (002.060733)  can0  18FEDF00   [8]  84 A0 28 7D 7D FF FF F5
 (002.061506)  can0  0CF00203   [8]  C0 00 00 FF F7 55 16 03
 (002.062111)  can0  0CF00C03   [8]  EC 03 6E 16 FF FF FF FF
 (002.065595)  can0  18FEE000   [8]  00 00 00 00 15 96 35 00
 (002.066160)  can0  0CF00300   [8]  D1 00 0C FF FF 0F 66 7E
 (002.070219)  can0  18FEF200   [8]  13 00 00 00 00 00 E1 FF
 (002.071580)  can0  18F00F00   [8]  76 0F FF FF D5 9F FF FF
 (002.071587)  can0  0CF00203   [8]  C0 00 00 FF F7 56 16 03
 (002.072144)  can0  0CF00400   [8]  30 7D 84 83 16 00 0F 84
 (002.075324)  can0  18FEDB00   [8]  FF FF 00 32 FF FF FF FF
 (002.075911)  can0  1CEBFF29   [8]  01 14 01 A8 16 3C 40 51
 (002.080381)  can0  18FEDF00   [8]  84 A0 28 7D 7D FF FF F5
 (002.080789)  can0  10FCFD00   [8]  FF FF FF FF 00 32 FF FF
 (002.082301)  can0  0CF00203   [8]  C0 00 00 FF F7 56 16 03
 (002.082310)  can0  0CF00C03   [8]  ED 03 C2 16 FF FF FF FF
 (002.085882)  can0  0CF00300   [8]  D1 00 0D FF FF 0F 66 7E
 (002.090761)  can0  18F00100   [8]  FF FF FF FF FF FF FF FF
 (002.091873)  can0  0CF00203   [8]  C0 00 00 FF F7 53 16 03
 (002.092067)  can0  0CF00400   [8]  20 7D 84 91 16 00 0F 84
 (002.095166)  can0  18FEF600   [8]  FF 00 65 FF FF FF FF FF
 (002.098530)  can0  0CF00331   [8]  FF FF FF FF FF FF FF FF
 (002.100233)  can0  18FEDF00   [8]  84 A0 28 7D 7D FF FF F5
 (002.101518)  can0  0CF00203   [8]  C0 00 00 FF F7 53 16 03
 (002.102100)  can0  0C010305   [8]  FF FF FF FF FF F3 FF FF
 (002.102657)  can0  0CF00C03   [8]  E9 03 86 16 FF FF FF FF
 (002.105592)  can0  0CF00300   [8]  D1 00 0D FF FF 0F 67 7E
 (002.106192)  can0  0CF00A00   [8]  42 03 A3 05 FF FF FF FF
 (002.106848)  can0  18FEF000   [8]  FF FF FF 8A 16 FF FF FF
 (002.107365)  can0  18F00E00   [8]  E6 24 FF FF D5 9F FF FF
 (002.110197)  can0  18F03300   [8]  FF FF FF FF FF FF FF FF
 (002.111571)  can0  0CF00203   [8]  C0 00 00 FF F7 4D 16 03
 (002.112107)  can0  0CF00400   [8]  20 7D 84 9E 16 00 0F 84
 (002.112591)  can0  1CEBFF00   [8]  02 00 09 08 ED 14 1F 01
 (002.115604)  can0  18FCF200   [8]  E1 FF FF FF FF FF FF FF
 (002.120374)  can0  18FEDF00   [8]  84 A0 28 7D 7D FF FF F5
 (002.120765)  can0  18FDC600   [8]  FC 04 FF FF FF FF FF FF
 (002.121470)  can0  18F00F00   [8]  76 0F FF FF D5 9F FF FF
 (002.121964)  can0  0CF00203   [8]  C0 00 00 FF F7 4D 16 03
 (002.123326)  can0  0CF00C03   [8]  EA 03 6F 16 FF FF FF FF
 (002.125518)  can0  0CF00300   [8]  D1 00 0D FF FF 0F 67 7E
 (002.126059)  can0  18FEF100   [8]  FF 00 00 FC FF 68 00 CF
 (002.128761)  can0  18F0010B   [8]  CF FF F0 FF FF CD FF FF
 (002.131505)  can0  0CF00203   [8]  C0 00 00 FF F7 46 16 03
 (002.132057)  can0  0CF00400   [8]  00 7D 84 AE 16 00 0F 84
 (002.132571)  can0  1CEBFF29   [8]  02 2A D0 3A 33 80 4C 2C
 (002.135768)  can0  10FDA300   [8]  FF FF 14 FF FF FF FF FF
 (002.135777)  can0  18F00029   [8]  F0 7D 7D F3 29 FF FF 3C
 (002.139309)  can0  18FEBF0B   [8]  00 00 7D 7D 7D 7D FF FF
 (002.140375)  can0  18FEDF00   [8]  84 A0 28 7D 7D FF FF F5
 (002.141980)  can0  0CF00203   [8]  C0 00 00 FF F7 46 16 03
 (002.142140)  can0  0CF00C03   [8]  EE 03 D3 16 FF FF FF FF
 (002.142871)  can0  18F00503   [8]  7D 00 00 7D 4E 20 4E 43
 (002.143291)  can0  18FE4A03   [8]  03 1F 4F FF FF F3 FF FF
 (002.146559)  can0  18FCDC00   [8]  9F FF FF FF 50 68 00 00
 (002.146568)  can0  0CF00300   [8]  D1 00 0C FF FF 0F 65 7E
 (002.146792)  can0  1CFE9200   [8]  FF 28 8F FF FF FF 00 00
 (002.149041)  can0  18F00131   [8]  FF FF FF 3F 00 FF FF FF
 (002.149093)  can0  18FEF131   [8]  F3 FF FF C3 CC FF FF F0
 (002.149907)  can0  18FEF031   [8]  FF FF FF FF FF FC CC FF
 (002.150273)  can0  18FF4831   [8]  00 00 FF FF 00 00 00 00
 (002.151644)  can0  18FEF231   [8]  FF FF FF FF FF FF FF FF
 (002.151652)  can0  0CF00331   [8]  FF FF FF FF FF FF FF FF
 (002.152046)  can0  0C010305   [8]  FF FF FF FF FF F3 FF FF
 (002.152679)  can0  0CF00203   [8]  C0 00 00 FF F7 47 16 03
 (002.153213)  can0  0CF00400   [8]  70 7D 83 BA 16 00 0F 84
 (002.155451)  can0  0CF00A00   [8]  42 03 D2 05 FF FF FF FF
 (002.155841)  can0  18FD9400   [8]  30 12 FF FF FF FF FF FF
 (002.156431)  can0  18F00E00   [8]  E6 24 FF FF D5 9F FF FF
 (002.160259)  can0  18F03300   [8]  FF FF FF FF FF FF FF FF
 (002.160857)  can0  18FEDF00   [8]  84 A0 28 7D 7D FF FF F5
 (002.161550)  can0  0CF00203   [8]  C0 00 00 FF F7 47 16 03
 (002.162160)  can0  0CF00C03   [8]  EF 03 F5 16 FF FF FF FF
 (002.165617)  can0  18FEE000   [8]  00 00 00 00 15 96 35 00
 (002.166138)  can0  0CF00300   [8]  D1 00 0C FF FF 0F 65 7E
 (002.170245)  can0  18FEF200   [8]  13 00 00 00 00 00 E1 FF
 (002.170828)  can0  18F00F00   [8]  76 0F FF FF D5 9F FF FF
 (002.171527)  can0  0CF00203   [8]  C0 00 00 FF F7 4B 16 03
 (002.172093)  can0  0CF00400   [8]  60 7D 83 B7 16 00 0F 84
 (002.180344)  can0  18FEDF00   [8]  84 A0 28 7D 7D FF FF F5
 (002.180764)  can0  10FCFD00   [8]  FF FF FF FF 00 32 FF FF
 (002.182132)  can0  0CF00203   [8]  C0 00 00 FF F7 4B 16 03
 (002.182140)  can0  0CF00C03   [8]  E9 03 80 16 FF FF FF FF
 (002.185831)  can0  0CF00300   [8]  D1 00 0C FF FF 0F 66 7E
 (002.188859)  can0  1CEBFF29   [8]  03 40 51 C2 01 2A FF FF
 (002.190245)  can0  18F00100   [8]  FF FF FF FF FF FF FF FF
 (002.191459)  can0  0CF00203   [8]  C0 00 00 FF F7 50 16 03
 (002.192059)  can0  0CF00400   [8]  70 7D 83 A8 16 00 0F 84
 (002.198507)  can0  0CF00331   [8]  FF FF FF FF FF FF FF FF
 (002.200403)  can0  18FEDF00   [8]  84 A0 28 7D 7D FF FF F5
 (002.202021)  can0  0CF00203   [8]  C0 00 00 FF F7 50 16 03
 (002.202036)  can0  0C010305   [8]  FF FF FF FF FF F3 FF FF
 (002.202679)  can0  0CF00C03   [8]  EB 03 61 16 FF FF FF FF
 (002.205861)  can0  0CF00300   [8]  D1 00 0C FF FF 0F 65 7E
 (002.206096)  can0  0CF00A00   [8]  42 03 BF 05 FF FF FF FF
 (002.207516)  can0  18FEF000   [8]  FF FF FF AF 16 FF FF FF
 (002.207526)  can0  18F00E00   [8]  E6 24 FF FF D5 9F FF FF
 (002.210214)  can0  18F03300   [8]  FF FF FF FF FF FF FF FF
 (002.211667)  can0  0CF00203   [8]  C0 00 00 FF F7 55 16 03
 (002.212034)  can0  0CF00400   [8]  00 7D 84 99 16 00 0F 84
 (002.216043)  can0  18FCF200   [8]  E1 FF FF FF FF FF FF FF
 (002.220237)  can0  18FEDF00   [8]  84 A0 28 7D 7D FF FF F5
 (002.220743)  can0  18F00F00   [8]  76 0F FF FF D5 9F FF FF
 (002.221466)  can0  0CF00203   [8]  C0 00 00 FF F7 55 16 03
 (002.222035)  can0  0CF00C03   [8]  EE 03 D1 16 FF FF FF FF
 (002.225636)  can0  0CF00300   [8]  D1 00 0C FF FF 0F 65 7E
 (002.226238)  can0  18FEF100   [8]  FF 00 00 FC FF 68 00 CF
 (002.228977)  can0  18F0010B   [8]  CF FF F0 FF FF CD FF FF
 (002.231483)  can0  0CF00203   [8]  C0 00 00 FF F7 55 16 03
 (002.232102)  can0  0CF00400   [8]  20 7D 84 8B 16 00 0F 84
 (002.235498)  can0  10FDA300   [8]  FF FF 13 FF FF FF FF FF
 (002.235781)  can0  18F00029   [8]  F0 7D 7D F3 29 FF FF 3C
 (002.239332)  can0  18FEBF0B   [8]  00 00 7D 7D 7D 7D FF FF
 (002.241181)  can0  18FEDF00   [8]  84 A0 28 7D 7D FF FF F5
 (002.241529)  can0  0CF00203   [8]  C0 00 00 FF F7 55 16 03
 (002.242976)  can0  0CF00C03   [8]  EA 03 BF 16 FF FF FF FF
 (002.242986)  can0  18F00503   [8]  7D 00 00 7D 4E 20 4E 43
 (002.243356)  can0  18FE4A03   [8]  03 1F 4F FF FF F3 FF FF
 (002.244105)  can0  18FD9503   [8]  CC FF FF AF FF FF FF FF
 (002.245721)  can0  18FEF803   [8]  FF FF FF FF CF 2B FF FF
 (002.245730)  can0  18FCDC00   [8]  9F FF FF FF 50 68 00 00
 (002.246221)  can0  0CF00300   [8]  D1 00 0D FF FF 0F 66 7E
 (002.246959)  can0  1CFE9200   [8]  FF 34 8F FF FF FF 00 00
 (002.249016)  can0  18F00131   [8]  FF FF FF 3F 00 FF FF FF
 (002.249068)  can0  18FEF131   [8]  F3 FF FF C3 CC FF FF F0
 (002.249768)  can0  18FEF031   [8]  FF FF FF FF FF FC CC FF
 (002.250311)  can0  18FF4831   [8]  00 00 FF FF 00 00 00 00
 (002.250953)  can0  18FEF231   [8]  FF FF FF FF FF FF FF FF
 (002.251459)  can0  0CF00203   [8]  C0 00 00 FF F7 51 16 03
 (002.252872)  can0  0C010305   [8]  FF FF FF FF FF F3 FF FF
 (002.252880)  can0  0CF00331   [8]  FF FF FF FF FF FF FF FF
 (002.253193)  can0  0CF00400   [8]  10 7D 84 9A 16 00 0F 84
 (002.255287)  can0  0CF00A00   [8]  39 03 B6 05 FF FF FF FF
 (002.255860)  can0  18FD9400   [8]  30 12 FF FF FF FF FF FF
 (002.256456)  can0  18F00E00   [8]  E6 24 FF FF D5 9F FF FF
 (002.260247)  can0  18F03300   [8]  FF FF FF FF FF FF FF FF
 (002.260818)  can0  18FEDF00   [8]  84 A0 28 7D 7D FF FF F5
 (002.261587)  can0  0CF00203   [8]  C0 00 00 FF F7 51 16 03
 (002.262089)  can0  0CF00C03   [8]  E9 03 53 16 FF FF FF FF
 (002.263241)  can0  18EAFF31   [3]  E9 FE 00
 (002.265389)  can0  18FEE900   [8]  00 00 00 00 C2 3F 03 00
 (002.266007)  can0  18FEE000   [8]  00 00 00 00 15 96 35 00
 (002.266543)  can0  0CF00300   [8]  D1 00 0D FF FF 0F 67 7E
 (002.270290)  can0  18FEF200   [8]  0E 00 00 00 00 00 E1 FF
 (002.270837)  can0  18F00F00   [8]  76 0F FF FF D5 9F FF FF
 (002.271858)  can0  0CF00203   [8]  C0 00 00 FF F7 51 16 03
 (002.272074)  can0  18FECA03   [8]  00 FF 00 00 00 00 FF FF
 (002.273481)  can0  0CF00400   [8]  10 7D 84 A2 16 00 0F 84
 (002.280362)  can0  18FEDF00   [8]  84 A0 28 7D 7D FF FF F5
 (002.280814)  can0  10FCFD00   [8]  FF FF FF FF 00 32 FF FF
 (002.281484)  can0  0CFD9200   [8]  F4 FF FA FF FF FF FF FF
 (002.281965)  can0  0CF00203   [8]  C0 00 00 FF F7 51 16 03
 (002.283339)  can0  0CF00C03   [8]  EC 03 9F 16 FF FF FF FF
 (002.285680)  can0  0CF00300   [8]  D1 00 0D FF FF 0F 66 7E
 (002.290286)  can0  18F00100   [8]  FF FF FF FF FF FF FF FF
 (002.291517)  can0  0CF00203   [8]  C0 00 00 FF F7 4E 16 03
 (002.292118)  can0  0CF00400   [8]  70 7D 83 B8 16 00 0F 84
 (002.298536)  can0  0CF00331   [8]  FF FF FF FF FF FF FF FF
 (002.300241)  can0  18FEDF00   [8]  84 A0 28 7D 7D FF FF F5
 (002.301493)  can0  0CF00203   [8]  C0 00 00 FF F7 4E 16 03
 (002.302092)  can0  0C010305   [8]  FF FF FF FF FF F3 FF FF
 (002.302666)  can0  0CF00C03   [8]  EE 03 08 17 FF FF FF FF
 (002.306024)  can0  0CF00300   [8]  D1 00 0C FF FF 0F 65 7E
 (002.306189)  can0  0CF00A00   [8]  39 03 C9 05 FF FF FF FF
 (002.306848)  can0  18FEF000   [8]  FF FF FF AF 16 FF FF FF
 (002.307293)  can0  18F00E00   [8]  E6 24 FF FF D5 9F FF FF
 (002.310248)  can0  18F03300   [8]  FF FF FF FF FF FF FF FF
 (002.311647)  can0  0CF00203   [8]  C0 00 00 FF F7 4D 16 03
 (002.312057)  can0  0CF00400   [8]  50 7D 83 CE 16 00 0F 84
 (002.316051)  can0  18FCF200   [8]  E1 FF FF FF FF FF FF FF
 (002.320217)  can0  18FEDF00   [8]  84 A0 28 7D 7D FF FF F5
 (002.320809)  can0  18F00F00   [8]  76 0F FF FF D5 9F FF FF
 (002.321482)  can0  0CF00203   [8]  C0 00 00 FF F7 4D 16 03
 (002.322108)  can0  0CF00C03   [8]  EA 03 D4 16 FF FF FF FF
 (002.325991)  can0  0CF00300   [8]  D1 00 0C FF FF 0F 64 7E
 (002.326226)  can0  18FEF100   [8]  FF 00 00 FC FF 68 00 CF
 (002.329283)  can0  18F0010B   [8]  CF FF F0 FF FF CD FF FF
 (002.331491)  can0  0CF00203   [8]  C0 00 00 FF F7 50 16 03
 (002.332085)  can0  0CF00400   [8]  40 7D 83 CA 16 00 0F 84
 (002.336052)  can0  10FDA300   [8]  FF FF 14 FF FF FF FF FF
 (002.336063)  can0  18F00029   [8]  F0 7D 7D F3 29 FF FF 3C
 (002.339390)  can0  18FEBF0B   [8]  00 00 7D 7D 7D 7D FF FF
 (002.340316)  can0  18FEDF00   [8]  84 A0 28 7D 7D FF FF F5
 (002.341544)  can0  0CF00203   [8]  C0 00 00 FF F7 50 16 03
 (002.342145)  can0  0CF00C03   [8]  EB 03 77 16 FF FF FF FF
 (002.342772)  can0  18F00503   [8]  7D 00 00 7D 4E 20 4E 43
 (002.343330)  can0  18FE4A03   [8]  03 1F 4F FF FF F3 FF FF
 (002.345889)  can0  18FCDC00   [8]  9F FF FF FF 50 68 00 00
 (002.346200)  can0  0CF00300   [8]  D1 00 0C FF FF 0F 65 7E
 (002.347579)  can0  1CFE9200   [8]  FF C4 8F FF FF FF 00 00
 (002.348972)  can0  18F00131   [8]  FF FF FF 3F 00 FF FF FF
 (002.349135)  can0  18FEF131   [8]  F3 FF FF C3 CC FF FF F0
 (002.349651)  can0  18FEF031   [8]  FF FF FF FF FF FC CC FF
 (002.350259)  can0  18FF4831   [8]  00 00 FF FF 00 00 00 00
 (002.350861)  can0  18FEF231   [8]  FF FF FF FF FF FF FF FF
 (002.351459)  can0  0CF00331   [8]  FF FF FF FF FF FF FF FF
 (002.352033)  can0  0C010305   [8]  FF FF FF FF FF F3 FF FF
 (002.352609)  can0  0CF00203   [8]  C0 00 00 FF F7 5C 16 03
 (002.353184)  can0  0CF00400   [8]  60 7D 83 B1 16 00 0F 84
 (002.355328)  can0  14FC9800   [8]  FF 00 00 00 00 00 00 FF
 (002.355891)  can0  0CF00A00   [8]  39 03 BF 05 FF FF FF FF
 (002.356469)  can0  18FD9400   [8]  30 12 FF FF FF FF FF FF
 (002.357037)  can0  18F00E00   [8]  E6 24 FF FF D5 9F FF FF
 (002.360569)  can0  18F03300   [8]  FF FF FF FF FF FF FF FF
