 (000.000000)  can0  0CF00300   [8]  D1 00 0A FF FF 0F 66 7E
 (000.000549)  can0  1CFE9200   [8]  FF 8C 8E FF FF FF 00 00
 (000.001120)  can0  18FEF500   [8]  A8 FF FF 70 26 FF FF FF
 (000.005823)  can0  0CF00400   [8]  70 7D 82 BA 16 00 0F 83
 (000.007247)  can0  0CF00203   [8]  C0 00 00 FF F7 59 16 03
 (000.009048)  can0  14FC9800   [8]  FF 00 00 00 00 00 00 FF
 (000.009622)  can0  0CF00A00   [8]  1C 03 E5 05 FF FF FF FF
 (000.010220)  can0  18FD9400   [8]  96 0F FF FF FF FF FF FF
 (000.010797)  can0  18F00E00   [8]  52 27 FF FF D5 9F FF FF
 (000.014127)  can0  18F03300   [8]  FF FF FF FF FF FF FF FF
 (000.014673)  can0  18FEDF00   [8]  84 A0 28 7D 7D FF FF F5
 (000.017250)  can0  0CF00203   [8]  C0 00 00 FF F7 59 16 03
 (000.017823)  can0  0CF00C03   [8]  E9 03 85 16 FF FF FF FF
 (000.019422)  can0  18FEE000   [8]  00 00 00 00 15 96 35 00
 (000.019970)  can0  0CF00300   [8]  D1 00 0A FF FF 0F 65 7E
 (000.020547)  can0  18FEA400   [8]  FF FF 09 2A FF FF 0D 2D
 (000.023848)  can0  18F0010B   [8]  CF FF F0 FF FF CD FF FF
 (000.024430)  can0  18FDB400   [8]  2C 37 83 38 FF FF FF FF
 (000.024995)  can0  18FEF200   [8]  0D 00 00 00 00 00 E1 FF
 (000.025572)  can0  18F00F00   [8]  6C 0F FF FF D5 9F FF FF
 (000.026145)  can0  0CF00400   [8]  10 7D 83 A9 16 00 0F 83
 (000.027271)  can0  0CF00203   [8]  C0 00 00 FF F7 59 16 03
 (000.033910)  can0  18FEBF0B   [8]  00 00 7D 7D 7D 7D FF FF
 (000.034446)  can0  18FEDF00   [8]  84 A0 28 7D 7D FF FF F5
 (000.035044)  can0  10FCFD00   [8]  FF FF FF FF 00 32 FF FF
 (000.036746)  can0  0CF00331   [8]  FF FF FF FF FF FF FF FF
 (000.037317)  can0  0CF00203   [8]  C0 00 00 FF F7 59 16 03
 (000.037894)  can0  0CF00C03   [8]  EA 03 78 16 FF FF FF FF
 (000.039519)  can0  0CF00300   [8]  D1 00 0B FF FF 0F 64 7E
 (000.044070)  can0  18FD7C00   [8]  F8 83 00 00 C3 0F 03 FF
 (000.044645)  can0  18F00100   [8]  FF FF FF FF FF FF FF FF
 (000.045944)  can0  0CF00400   [8]  30 7D 83 9C 16 00 0F 83
 (000.047262)  can0  0CF00203   [8]  C0 00 00 FF F7 5E 16 03
 (000.047820)  can0  0C010305   [8]  FF FF FF FF FF F3 FF FF
 (000.049045)  can0  18FDB300   [8]  FF FF 46 3B FF FF FF FF
 (000.054044)  can0  18FEDF00   [8]  84 A0 28 7D 7D FF FF F5
 (000.057248)  can0  0CF00203   [8]  C0 00 00 FF F7 5E 16 03
 (000.057847)  can0  0CF00C03   [8]  EE 03 DE 16 FF FF FF FF
 (000.059421)  can0  0CF00300   [8]  D1 00 0B FF FF 0F 65 7E
 (000.060020)  can0  0CF00A00   [8]  1C 03 EE 05 FF FF FF FF
 (000.060597)  can0  18FEF000   [8]  FF FF FF 9E 16 FF FF FF
 (000.061175)  can0  18F00E00   [8]  52 27 FF FF D5 9F FF FF
 (000.064098)  can0  18F03300   [8]  FF FF FF FF FF FF FF FF
 (000.064671)  can0  18FE9A00   [8]  BA 27 FF FF FF FF FF FF
 (000.065996)  can0  0CF00400   [8]  30 7D 83 A3 16 00 0F 83
 (000.067234)  can0  0CF00203   [8]  C0 00 00 FF F7 60 16 03
 (000.069081)  can0  18FDB200   [8]  FF FF FF FF 02 00 FF FF
 (000.069637)  can0  18FCF200   [8]  E1 FF FF FF FF FF FF FF
 (000.074140)  can0  18FEDF00   [8]  84 A0 28 7D 7D FF FF F5
 (000.074672)  can0  18F00F00   [8]  6C 0F FF FF D5 9F FF FF
 (000.077247)  can0  0CF00203   [8]  C0 00 00 FF F7 60 16 03
 (000.077849)  can0  0CF00C03   [8]  EA 03 C2 16 FF FF FF FF
 (000.078445)  can0  18F00503   [8]  7D 00 00 7D 4E 20 4E 43
 (000.079087)  can0  18FE4A03   [8]  03 1F 4F FF FF F3 FF FF
 (000.079645)  can0  0CF00300   [8]  D1 00 0B FF FF 0F 67 7E
 (000.080286)  can0  18FEF100   [8]  FF 00 00 FC FF 68 00 CF
 (000.085878)  can0  0CF00400   [8]  30 7D 83 A8 16 00 0F 83
 (000.086808)  can0  18F00131   [8]  FF FF FF 3F 00 FF FF FF
 (000.087411)  can0  0CF00203   [8]  C0 00 00 FF F7 5D 16 03
 (000.087895)  can0  18FEF131   [8]  F3 FF FF C3 CC FF FF F0
 (000.088530)  can0  18FEF031   [8]  FF FF FF FF FF FC CC FF
 (000.089119)  can0  18FF4831   [8]  00 00 FF FF 00 00 00 00
 (000.089743)  can0  10FDA300   [8]  FF FF 14 FF FF FF FF FF
 (000.090269)  can0  18FEF231   [8]  FF FF FF FF FF FF FF FF
 (000.090845)  can0  18FE9900   [8]  FF FF FF FF FF FF FF FF
 (000.091420)  can0  0CF00331   [8]  FF FF FF FF FF FF FF FF
 (000.091967)  can0  18F00029   [8]  F0 7D 7D F3 29 FF FF 3C
 (000.094176)  can0  18FD8C00   [8]  FF FF 01 00 FF FF FF FF
 (000.094747)  can0  18FEDF00   [8]  84 A0 28 7D 7D FF FF F5
 (000.097310)  can0  0CF00203   [8]  C0 00 00 FF F7 5D 16 03
 (000.097972)  can0  0C010305   [8]  FF FF FF FF FF F3 FF FF
 (000.098520)  can0  0CF00C03   [8]  EA 03 6B 16 FF FF FF FF
 (000.099528)  can0  18FCDC00   [8]  9F FF FF FF 50 68 00 00
 (000.100144)  can0  0CF00300   [8]  D1 00 0B FF FF 0F 66 7E
 (000.100720)  can0  1CFE9200   [8]  FF 0C 8F FF FF FF 00 00
 (000.106129)  can0  0CF00400   [8]  20 7D 83 B1 16 00 0F 83
 (000.107280)  can0  0CF00203   [8]  C0 00 00 FF F7 55 16 03
 (000.109111)  can0  0CF00A00   [8]  EE 02 1D 06 FF FF FF FF
 (000.109688)  can0  18FD9400   [8]  96 0F FF FF FF FF FF FF
 (000.110288)  can0  18FEFC00   [8]  FF FF FF FF FF FF FF FF
 (000.110858)  can0  18F00E00   [8]  52 27 FF FF D5 9F FF FF
 (000.114294)  can0  18FD2000   [8]  2C 37 FF FF FF FF FF FF
 (000.114869)  can0  18F03300   [8]  FF FF FF FF FF FF FF FF
 (000.115518)  can0  18FEDF00   [8]  84 A0 28 7D 7D FF FF F5
 (000.117256)  can0  0CF00203   [8]  C0 00 00 FF F7 55 16 03
 (000.117856)  can0  0CF00C03   [8]  EC 03 B2 16 FF FF FF FF
 (000.119483)  can0  18FEE000   [8]  00 00 00 00 15 96 35 00
 (000.120045)  can0  0CF00300   [8]  D1 00 0B FF FF 0F 65 7E
 (000.124300)  can0  18FEF200   [8]  11 00 00 00 00 00 E1 FF
 (000.124649)  can0  18F0010B   [8]  CF FF F0 FF FF CD FF FF
 (000.125296)  can0  18F00F00   [8]  6C 0F FF FF D5 9F FF FF
 (000.125992)  can0  0CF00400   [8]  20 7D 83 B9 16 00 0F 83
 (000.127293)  can0  0CF00203   [8]  C0 00 00 FF F7 58 16 03
 (000.134308)  can0  18FEDF00   [8]  84 A0 28 7D 7D FF FF F5
 (000.134636)  can0  18FEBF0B   [8]  00 00 7D 7D 7D 7D FF FF
 (000.135289)  can0  10FCFD00   [8]  FF FF FF FF 00 32 FF FF
 (000.136783)  can0  0CF00331   [8]  FF FF FF FF FF FF FF FF
 (000.137349)  can0  0CF00203   [8]  C0 00 00 FF F7 58 16 03
 (000.138035)  can0  0CF00C03   [8]  EE 03 F9 16 FF FF FF FF
 (000.139728)  can0  18FD3E00   [8]  89 3D FF 93 3F FF FF FF
 (000.140098)  can0  0CF00300   [8]  D1 00 0B FF FF 0F 64 7E
 (000.144351)  can0  18F00100   [8]  FF FF FF FF FF FF FF FF
 (000.146043)  can0  0CF00400   [8]  00 7D 83 BD 16 00 0F 83
 (000.147342)  can0  0CF00203   [8]  C0 00 00 FF F7 5B 16 03
 (000.147881)  can0  0C010305   [8]  FF FF FF FF FF F3 FF FF
 (000.154154)  can0  18FEDF00   [8]  84 A0 28 7D 7D FF FF F5
 (000.157494)  can0  0CF00203   [8]  C0 00 00 FF F7 5B 16 03
 (000.157891)  can0  0CF00C03   [8]  E9 03 BA 16 FF FF FF FF
 (000.159655)  can0  18FD4000   [8]  FF 3F 00 FF FF FF FF FF
 (000.160100)  can0  0CF00300   [8]  D1 00 0A FF FF 0F 65 7E
 (000.160687)  can0  0CF00A00   [8]  EE 02 14 06 FF FF FF FF
 (000.161223)  can0  18FEF000   [8]  FF FF FF BC 16 FF FF FF
 (000.161794)  can0  18F00E00   [8]  52 27 FF FF D5 9F FF FF
 (000.162387)  can0  1CECFF00   [8]  20 0E 00 02 FF CA FE 00
 (000.164140)  can0  18F03300   [8]  FF FF FF FF FF FF FF FF
 (000.166092)  can0  0CF00400   [8]  00 7D 83 BA 16 00 0F 83
 (000.167439)  can0  0CF00203   [8]  C0 00 00 FF F7 5D 16 03
 (000.169323)  can0  18FCF200   [8]  E1 FF FF FF FF FF FF FF
 (000.174325)  can0  18FEDF00   [8]  84 A0 28 7D 7D FF FF F5
 (000.174664)  can0  18F00F00   [8]  6C 0F FF FF D5 9F FF FF
 (000.177492)  can0  0CF00203   [8]  C0 00 00 FF F7 5D 16 03
 (000.177904)  can0  0CF00C03   [8]  E9 03 5E 16 FF FF FF FF
 (000.178576)  can0  18F00503   [8]  7D 00 00 7D 4E 20 4E 43
 (000.179149)  can0  18FE4A03   [8]  03 1F 4F FF FF F3 FF FF
 (000.179721)  can0  0CF00300   [8]  D1 00 0A FF FF 0F 65 7E
 (000.180288)  can0  18FEF100   [8]  FF 00 00 FC FF 68 00 CF
 (000.184185)  can0  18FCC500   [8]  89 3D FF FF FF FF FF FF
 (000.184786)  can0  0CFD9200   [8]  F4 FF FA FF FF FF FF FF
 (000.186088)  can0  0CF00400   [8]  10 7D 83 AF 16 00 0F 83
 (000.186838)  can0  18F00131   [8]  FF FF FF 3F 00 FF FF FF
 (000.187444)  can0  0CF00203   [8]  C0 00 00 FF F7 5F 16 03
 (000.188038)  can0  18FEF131   [8]  F3 FF FF C3 CC FF FF F0
 (000.188592)  can0  18FEF031   [8]  FF FF FF FF FF FC CC FF
 (000.189213)  can0  18FF4831   [8]  00 00 FF FF 00 00 00 00
 (000.189787)  can0  10FDA300   [8]  FF FF 14 FF FF FF FF FF
 (000.190717)  can0  18FEF231   [8]  FF FF FF FF FF FF FF FF
 (000.190836)  can0  18F00029   [8]  F0 7D 7D F3 29 FF FF 3C
 (000.191460)  can0  0CF00331   [8]  FF FF FF FF FF FF FF FF
 (000.194263)  can0  18FEDF00   [8]  84 A0 28 7D 7D FF FF F5
 (000.197260)  can0  0CF00203   [8]  C0 00 00 FF F7 5F 16 03
 (000.197885)  can0  0C010305   [8]  FF FF FF FF FF F3 FF FF
 (000.198461)  can0  0CF00C03   [8]  EE 03 B9 16 FF FF FF FF
 (000.199742)  can0  18FCDC00   [8]  9F FF FF FF 50 68 00 00
 (000.200002)  can0  0CF00300   [8]  D1 00 0B FF FF 0F 64 7E
 (000.201093)  can0  1CFE9200   [8]  FF 9C 8F FF FF FF 00 00
 (000.206553)  can0  0CF00400   [8]  30 7D 83 8E 16 00 0F 83
 (000.207917)  can0  0CF00203   [8]  C0 00 00 FF F7 61 16 03
 (000.209767)  can0  0CF00A00   [8]  EE 02 27 06 FF FF FF FF
 (000.209776)  can0  18FD9400   [8]  96 0F FF FF FF FF FF FF
 (000.210305)  can0  18FEEF00   [8]  FF FF FF 1E 48 7D FF FA
 (000.210925)  can0  18F00E00   [8]  52 27 FF FF D5 9F FF FF
 (000.211520)  can0  1CEBFF00   [8]  01 43 FF BF 00 09 08 54
 (000.214204)  can0  18F03300   [8]  FF FF FF FF FF FF FF FF
 (000.214742)  can0  18FEDF00   [8]  84 A0 28 7D 7D FF FF F5
 (000.217262)  can0  0CF00203   [8]  C0 00 00 FF F7 61 16 03
 (000.217912)  can0  0CF00C03   [8]  EB 03 BC 16 FF FF FF FF
 (000.220092)  can0  18FEE000   [8]  00 00 00 00 15 96 35 00
 (000.220102)  can0  0CF00300   [8]  D1 00 0B FF FF 0F 65 7E
 (000.224170)  can0  18FEF200   [8]  0D 00 00 00 00 00 E1 FF
 (000.224737)  can0  18F0010B   [8]  CF FF F0 FF FF CD FF FF
 (000.225425)  can0  18F00F00   [8]  6C 0F FF FF D5 9F FF FF
 (000.226069)  can0  0CF00400   [8]  40 7D 83 9D 16 00 0F 83
 (000.227317)  can0  0CF00203   [8]  C0 00 00 FF F7 5F 16 03
 (000.229099)  can0  18FEDB00   [8]  FF FF 40 31 FF FF FF FF
 (000.234313)  can0  18FEDF00   [8]  84 A0 28 7D 7D FF FF F5
 (000.234692)  can0  18FEBF0B   [8]  00 00 7D 7D 7D 7D FF FF
 (000.236113)  can0  10FCFD00   [8]  FF FF FF FF 00 32 FF FF
 (000.236955)  can0  0CF00331   [8]  FF FF FF FF FF FF FF FF
 (000.237357)  can0  0CF00203   [8]  C0 00 00 FF F7 5F 16 03
 (000.238868)  can0  0CF00C03   [8]  EA 03 74 16 FF FF FF FF
 (000.239592)  can0  0CF00300   [8]  D1 00 0C FF FF 0F 66 7E
 (000.244147)  can0  18F00100   [8]  FF FF FF FF FF FF FF FF
 (000.245977)  can0  0CF00400   [8]  30 7D 83 A2 16 00 0F 83
 (000.247280)  can0  0CF00203   [8]  C0 00 00 FF F7 5B 16 03
 (000.247839)  can0  0C010305   [8]  FF FF FF FF FF F3 FF FF
 (000.249093)  can0  18FEF600   [8]  FF 00 65 FF FF FF FF FF
 (000.254666)  can0  18FEDF00   [8]  84 A0 28 7D 7D FF FF F5
 (000.257309)  can0  0CF00203   [8]  C0 00 00 FF F7 5B 16 03
 (000.257892)  can0  0CF00C03   [8]  EA 03 95 16 FF FF FF FF
 (000.259824)  can0  0CF00300   [8]  D1 00 0B FF FF 0F 66 7E
 (000.260089)  can0  0CF00A00   [8]  DB 02 1D 06 FF FF FF FF
 (000.260679)  can0  18FEF000   [8]  FF FF FF A1 16 FF FF FF
 (000.261253)  can0  18F00E00   [8]  52 27 FF FF D5 9F FF FF
 (000.264891)  can0  18F03300   [8]  FF FF FF FF FF FF FF FF
 (000.266446)  can0  0CF00400   [8]  20 7D 83 A6 16 00 0F 83
 (000.266521)  can0  1CEBFF00   [8]  02 00 09 08 ED 14 1F 01
 (000.268032)  can0  0CF00203   [8]  C0 00 00 FF F7 58 16 03
 (000.269663)  can0  18FCF200   [8]  E1 FF FF FF FF FF FF FF
 (000.274385)  can0  18FEDF00   [8]  84 A0 28 7D 7D FF FF F5
 (000.274772)  can0  18FDC600   [8]  FC 04 FF FF FF FF FF FF
 (000.275392)  can0  18F00F00   [8]  6C 0F FF FF D5 9F FF FF
 (000.277312)  can0  0CF00203   [8]  C0 00 00 FF F7 58 16 03
 (000.277917)  can0  0CF00C03   [8]  EE 03 E9 16 FF FF FF FF
 (000.278542)  can0  18F00503   [8]  7D 00 00 7D 4E 20 4E 43
 (000.279150)  can0  18FE4A03   [8]  03 1F 4F FF FF F3 FF FF
 (000.279702)  can0  0CF00300   [8]  D1 00 0B FF FF 0F 64 7E
 (000.280281)  can0  18FEF100   [8]  FF 00 00 FC FF 68 00 CF
 (000.285981)  can0  0CF00400   [8]  20 7D 83 AD 16 00 0F 83
 (000.286875)  can0  18F00131   [8]  FF FF FF 3F 00 FF FF FF
 (000.287389)  can0  0CF00203   [8]  C0 00 00 FF F7 55 16 03
 (000.287978)  can0  18FEF131   [8]  F3 FF FF C3 CC FF FF F0
 (000.288555)  can0  18FEF031   [8]  FF FF FF FF FF FC CC FF
 (000.289927)  can0  18FF4831   [8]  00 00 FF FF 00 00 00 00
 (000.289935)  can0  10FDA300   [8]  FF FF 14 FF FF FF FF FF
 (000.290314)  can0  18FEF231   [8]  FF FF FF FF FF FF FF FF
 (000.290857)  can0  18F00029   [8]  F0 7D 7D F3 29 FF FF 3C
 (000.291414)  can0  0CF00331   [8]  FF FF FF FF FF FF FF FF
 (000.294321)  can0  18FEDF00   [8]  84 A0 28 7D 7D FF FF F5
 (000.294812)  can0  1CECFF00   [8]  20 22 00 05 FF E3 FE 00
 (000.297954)  can0  0CF00203   [8]  C0 00 00 FF F7 55 16 03
 (000.297964)  can0  0C010305   [8]  FF FF FF FF FF F3 FF FF
 (000.298426)  can0  0CF00C03   [8]  EA 03 B3 16 FF FF FF FF
 (000.299769)  can0  18FCDC00   [8]  9F FF FF FF 50 68 00 00
 (000.300064)  can0  0CF00300   [8]  D1 00 0B FF FF 0F 64 7E
 (000.301376)  can0  1CFE9200   [8]  FF 78 8F FF FF FF 00 00
 (000.306498)  can0  0CF00400   [8]  10 7D 83 B7 16 00 0F 83
 (000.307915)  can0  0CF00203   [8]  C0 00 00 FF F7 52 16 03
 (000.309174)  can0  0CF00A00   [8]  DB 02 30 06 FF FF FF FF
 (000.309708)  can0  18FD9400   [8]  96 0F FF FF FF FF FF FF
 (000.310286)  can0  18F00E00   [8]  44 27 FF FF D5 9F FF FF
 (000.314258)  can0  18F03300   [8]  FF FF FF FF FF FF FF FF
 (000.314849)  can0  18FEDF00   [8]  84 A0 28 7D 7D FF FF F5
 (000.317278)  can0  0CF00203   [8]  C0 00 00 FF F7 52 16 03
 (000.317840)  can0  0CF00C03   [8]  E9 03 73 16 FF FF FF FF
 (000.320067)  can0  18FEE000   [8]  00 00 00 00 15 96 35 00
 (000.320076)  can0  0CF00300   [8]  D1 00 0B FF FF 0F 65 7E
 (000.324142)  can0  18FEF200   [8]  11 00 00 00 00 00 E1 FF
 (000.324678)  can0  18F0010B   [8]  CF FF F0 FF FF CD FF FF
 (000.325284)  can0  18F00F00   [8]  6C 0F FF FF D5 9F FF FF
 (000.326701)  can0  0CF00400   [8]  10 7D 83 B2 16 00 0F 83
 (000.327306)  can0  0CF00203   [8]  C0 00 00 FF F7 58 16 03
 (000.334116)  can0  18FEDF00   [8]  84 A0 28 7D 7D FF FF F5
 (000.334698)  can0  18FEBF0B   [8]  00 00 7D 7D 7D 7D FF FF
 (000.335332)  can0  10FCFD00   [8]  FF FF FF FF 00 32 FF FF
 (000.336997)  can0  0CF00331   [8]  FF FF FF FF FF FF FF FF
 (000.337366)  can0  0CF00203   [8]  C0 00 00 FF F7 58 16 03
 (000.337965)  can0  0CF00C03   [8]  EE 03 C5 16 FF FF FF FF
 (000.339586)  can0  0CF00300   [8]  D1 00 0B FF FF 0F 65 7E
 (000.344177)  can0  18F00100   [8]  FF FF FF FF FF FF FF FF
 (000.345965)  can0  0CF00400   [8]  20 7D 83 AB 16 00 0F 83
 (000.346578)  can0  1CEBFF00   [8]  01 A8 16 B1 40 51 C2 E8
 (000.347283)  can0  0CF00203   [8]  C0 00 00 FF F7 59 16 03
 (000.347897)  can0  0C010305   [8]  FF FF FF FF FF F3 FF FF
 (000.354861)  can0  18FEDF00   [8]  84 A0 28 7D 7D FF FF F5
 (000.357284)  can0  0CF00203   [8]  C0 00 00 FF F7 59 16 03
 (000.357879)  can0  0CF00C03   [8]  EE 03 D6 16 FF FF FF FF
 (000.359891)  can0  0CF00300   [8]  D1 00 0B FF FF 0F 65 7E
 (000.360144)  can0  0CF00A00   [8]  DB 02 30 06 FF FF FF FF
 (000.360825)  can0  18FEF000   [8]  FF FF FF AD 16 FF FF FF
 (000.361287)  can0  18F00E00   [8]  44 27 FF FF D5 9F FF FF
 (000.364886)  can0  18F03300   [8]  FF FF FF FF FF FF FF FF
 (000.366529)  can0  0CF00400   [8]  30 7D 83 95 16 00 0F 83
 (000.367400)  can0  0CF00203   [8]  C0 00 00 FF F7 58 16 03
 (000.369848)  can0  18FCF200   [8]  E1 FF FF FF FF FF FF FF
 (000.374387)  can0  18FEDF00   [8]  84 A0 28 7D 7D FF FF F5
 (000.374688)  can0  18F00F00   [8]  6C 0F FF FF D5 9F FF FF
 (000.377310)  can0  0CF00203   [8]  C0 00 00 FF F7 58 16 03
 (000.377915)  can0  0CF00C03   [8]  E9 03 72 16 FF FF FF FF
 (000.378502)  can0  18F00503   [8]  7D 00 00 7D 4E 20 4E 43
 (000.379132)  can0  18FE4A03   [8]  03 1F 4F FF FF F3 FF FF
 (000.379706)  can0  0CF00300   [8]  D1 00 0B FF FF 0F 65 7E
 (000.380237)  can0  18FD9503   [8]  CC FF FF AF FF FF FF FF
 (000.380790)  can0  18FEF100   [8]  FF 00 00 FC FF 68 00 CF
 (000.381391)  can0  18FEF803   [8]  FF FF FF FF B6 2B FF FF
 (000.386566)  can0  0CF00400   [8]  50 7D 83 90 16 00 0F 84
 (000.386848)  can0  18F00131   [8]  FF FF FF 3F 00 FF FF FF
 (000.387450)  can0  0CF00203   [8]  C0 00 00 FF F7 57 16 03
 (000.387965)  can0  18FEF131   [8]  F3 FF FF C3 CC FF FF F0
 (000.388562)  can0  18FEF031   [8]  FF FF FF FF FF FC CC FF
 (000.389161)  can0  18FF4831   [8]  00 00 FF FF 00 00 00 00
 (000.389746)  can0  10FDA300   [8]  FF FF 14 FF FF FF FF FF
 (000.390311)  can0  18F00029   [8]  F0 7D 7D F3 29 FF FF 3C
 (000.390874)  can0  18FEF231   [8]  FF FF FF FF FF FF FF FF
 (000.391445)  can0  0CF00331   [8]  FF FF FF FF FF FF FF FF
 (000.394543)  can0  18FEDF00   [8]  84 A0 28 7D 7D FF FF F5
 (000.397915)  can0  0CF00203   [8]  C0 00 00 FF F7 57 16 03
 (000.397925)  can0  0C010305   [8]  FF FF FF FF FF F3 FF FF
 (000.398426)  can0  0CF00C03   [8]  E9 03 4A 16 FF FF FF FF
 (000.399746)  can0  18FCDC00   [8]  9F FF FF FF 50 68 00 00
 (000.400090)  can0  0CF00300   [8]  D1 00 0C FF FF 0F 65 7E
 (000.400678)  can0  1CFE9200   [8]  FF 5C 8F FF FF FF 00 00
 (000.402135)  can0  1CEBFF00   [8]  02 1C B9 60 22 C6 C0 44
 (000.406378)  can0  0CF00400   [8]  40 7D 83 92 16 00 0F 84
 (000.407286)  can0  0CF00203   [8]  C0 00 00 FF F7 57 16 03
 (000.407911)  can0  18FECA03   [8]  00 FF 00 00 00 00 FF FF
 (000.409184)  can0  0CF00A00   [8]  DB 02 14 06 FF FF FF FF
 (000.409784)  can0  18FD9400   [8]  30 12 FF FF FF FF FF FF
 (000.410381)  can0  18F00E00   [8]  44 27 FF FF D5 9F FF FF
 (000.414192)  can0  18F03300   [8]  FF FF FF FF FF FF FF FF
 (000.414742)  can0  18FEDF00   [8]  84 A0 28 7D 7D FF FF F5
 (000.417288)  can0  0CF00203   [8]  C0 00 00 FF F7 57 16 03
 (000.417975)  can0  0CF00C03   [8]  EC 03 CC 16 FF FF FF FF
 (000.419509)  can0  18FEE000   [8]  00 00 00 00 15 96 35 00
 (000.420107)  can0  0CF00300   [8]  D1 00 0C FF FF 0F 66 7E
 (000.424580)  can0  18FEF200   [8]  12 00 00 00 00 00 E1 FF
 (000.424689)  can0  18F00F00   [8]  6C 0F FF FF D5 9F FF FF
 (000.425323)  can0  18F0010B   [8]  CF FF F0 FF FF CD FF FF
 (000.426723)  can0  0CF00400   [8]  40 7D 83 96 16 00 0F 84
 (000.427406)  can0  0CF00203   [8]  C0 00 00 FF F7 53 16 03
 (000.434503)  can0  18FEDF00   [8]  84 A0 28 7D 7D FF FF F5
 (000.434789)  can0  10FCFD00   [8]  FF FF FF FF 00 32 FF FF
 (000.435453)  can0  18FEBF0B   [8]  00 00 7D 7D 7D 7D FF FF
 (000.435951)  can0  0CFD9200   [8]  F4 FF FA FF FF FF FF FF
 (000.437274)  can0  0CF00331   [8]  FF FF FF FF FF FF FF FF
 (000.437387)  can0  0CF00203   [8]  C0 00 00 FF F7 53 16 03
 (000.438643)  can0  0CF00C03   [8]  EB 03 D1 16 FF FF FF FF
 (000.439606)  can0  0CF00300   [8]  D1 00 0C FF FF 0F 65 7E
 (000.444115)  can0  18F00100   [8]  FF FF FF FF FF FF FF FF
 (000.445943)  can0  0CF00400   [8]  30 7D 83 98 16 00 0F 83
 (000.447238)  can0  0CF00203   [8]  C0 00 00 FF F7 4B 16 03
 (000.447863)  can0  0C010305   [8]  FF FF FF FF FF F3 FF FF
 (000.454439)  can0  18FEDF00   [8]  84 A0 28 7D 7D FF FF F5
 (000.456881)  can0  1CEBFF00   [8]  03 CB 40 51 FF FF 55 04
 (000.457332)  can0  0CF00203   [8]  C0 00 00 FF F7 4B 16 03
 (000.457927)  can0  0CF00C03   [8]  E9 03 53 16 FF FF FF FF
 (000.459627)  can0  0CF00300   [8]  D1 00 0B FF FF 0F 64 7E
 (000.460154)  can0  0CF00A00   [8]  DB 02 30 06 FF FF FF FF
 (000.460731)  can0  18FEF000   [8]  FF FF FF 9C 16 FF FF FF
 (000.461308)  can0  18F00E00   [8]  44 27 FF FF D5 9F FF FF
 (000.464906)  can0  18F03300   [8]  FF FF FF FF FF FF FF FF
 (000.466524)  can0  0CF00400   [8]  30 7D 83 A6 16 00 0F 83
 (000.467437)  can0  0CF00203   [8]  C0 00 00 FF F7 49 16 03
 (000.469922)  can0  18FCF200   [8]  E1 FF FF FF FF FF FF FF
 (000.474204)  can0  18FEDF00   [8]  84 A0 28 7D 7D FF FF F5
 (000.474779)  can0  18F00F00   [8]  6C 0F FF FF D5 9F FF FF
 (000.477265)  can0  0CF00203   [8]  C0 00 00 FF F7 49 16 03
 (000.477866)  can0  0CF00C03   [8]  ED 03 8C 16 FF FF FF FF
 (000.478466)  can0  18F00503   [8]  7D 00 00 7D 4E 20 4E 43
 (000.479082)  can0  18FE4A03   [8]  03 1F 4F FF FF F3 FF FF
 (000.479645)  can0  0CF00300   [8]  D1 00 0B FF FF 0F 65 7E
 (000.480260)  can0  18FEF100   [8]  FF 00 00 FC FF 68 00 CF
 (000.486198)  can0  0CF00400   [8]  20 7D 83 B0 16 00 0F 83
 (000.486824)  can0  18F00131   [8]  FF FF FF 3F 00 FF FF FF
 (000.487433)  can0  0CF00203   [8]  C0 00 00 FF F7 4C 16 03
 (000.487983)  can0  18FEF131   [8]  F3 FF FF C3 CC FF FF F0
 (000.488560)  can0  18FEF031   [8]  FF FF FF FF FF FC CC FF
 (000.489191)  can0  18FF4831   [8]  00 00 FF FF 00 00 00 00
 (000.489753)  can0  10FDA300   [8]  FF FF 14 FF FF FF FF FF
 (000.490373)  can0  18FEF231   [8]  FF FF FF FF FF FF FF FF
 (000.490920)  can0  18F00029   [8]  F0 7D 7D F3 29 FF FF 3C
 (000.491447)  can0  0CF00331   [8]  FF FF FF FF FF FF FF FF
 (000.494379)  can0  18FEDF00   [8]  84 A0 28 7D 7D FF FF F5
 (000.497566)  can0  0CF00203   [8]  C0 00 00 FF F7 4C 16 03
 (000.497833)  can0  0C010305   [8]  FF FF FF FF FF F3 FF FF
 (000.498487)  can0  0CF00C03   [8]  F0 03 DC 16 FF FF FF FF
 (000.499967)  can0  18FCDC00   [8]  9F FF FF FF 50 68 00 00
 (000.500107)  can0  0CF00300   [8]  D1 00 0B FF FF 0F 65 7E
 (000.500683)  can0  1CFE9200   [8]  FF 90 8F FF FF FF 00 00
 (000.506012)  can0  0CF00400   [8]  30 7D 83 A2 16 00 0F 83
 (000.507276)  can0  0CF00203   [8]  C0 00 00 FF F7 4F 16 03
 (000.509121)  can0  14FC9800   [8]  FF 00 00 00 00 00 00 FF
 (000.509710)  can0  0CF00A00   [8]  DB 02 1D 06 FF FF FF FF
 (000.510297)  can0  18FD9400   [8]  30 12 FF FF FF FF FF FF
 (000.510884)  can0  18F00E00   [8]  44 27 FF FF D5 9F FF FF
 (000.511427)  can0  1CEBFF00   [8]  04 38 5E 14 46 FA 7D C6
 (000.514310)  can0  18F03300   [8]  FF FF FF FF FF FF FF FF
 (000.514881)  can0  18FEDF00   [8]  84 A0 28 7D 7D FF FF F5
 (000.517503)  can0  0CF00203   [8]  C0 00 00 FF F7 4F 16 03
 (000.517840)  can0  0CF00C03   [8]  EA 03 A1 16 FF FF FF FF
 (000.519537)  can0  18FEE000   [8]  00 00 00 00 15 96 35 00
 (000.520082)  can0  0CF00300   [8]  D1 00 0B FF FF 0F 64 7E
 (000.524600)  can0  18FDB400   [8]  30 37 86 38 FF FF FF FF
 (000.524761)  can0  18FEF200   [8]  0D 00 00 00 00 00 E1 FF
 (000.525335)  can0  18F0010B   [8]  CF FF F0 FF FF CD FF FF
 (000.525901)  can0  18F00F00   [8]  6C 0F FF FF D5 9F FF FF
 (000.526520)  can0  0CF00400   [8]  40 7D 83 92 16 00 0F 84
 (000.528071)  can0  18FECA31   [8]  00 FF 00 00 00 00 FF FF
 (000.528081)  can0  0CF00203   [8]  C0 00 00 FF F7 4A 16 03
 (000.528394)  can0  18F11031   [8]  00 00 FF FF FF FF FF FF
 (000.534378)  can0  18FEDF00   [8]  84 A0 28 7D 7D FF FF F5
 (000.534729)  can0  10FCFD00   [8]  FF FF FF FF 00 32 FF FF
 (000.536084)  can0  18FEBF0B   [8]  00 00 7D 7D 7D 7D FF FF
 (000.536805)  can0  0CF00331   [8]  FF FF FF FF FF FF FF FF
 (000.537362)  can0  0CF00203   [8]  C0 00 00 FF F7 4A 16 03
 (000.537956)  can0  0CF00C03   [8]  E9 03 55 16 FF FF FF FF
 (000.539627)  can0  0CF00300   [8]  D1 00 0C FF FF 0F 65 7E
 (000.544228)  can0  18F00100   [8]  FF FF FF FF FF FF FF FF
 (000.546027)  can0  0CF00400   [8]  60 7D 83 88 16 00 0F 84
 (000.547294)  can0  0CF00203   [8]  C0 00 00 FF F7 4C 16 03
 (000.547887)  can0  0C010305   [8]  FF FF FF FF FF F3 FF FF
 (000.549211)  can0  18FDB300   [8]  FF FF 49 3B FF FF FF FF
 (000.554261)  can0  18FEDF00   [8]  84 A0 28 7D 7D FF FF F5
 (000.557576)  can0  0CF00203   [8]  C0 00 00 FF F7 4C 16 03
 (000.557917)  can0  0CF00C03   [8]  EE 03 AC 16 FF FF FF FF
 (000.559844)  can0  0CF00300   [8]  D1 00 0C FF FF 0F 66 7E
 (000.560101)  can0  0CF00A00   [8]  EE 02 0A 06 FF FF FF FF
 (000.560812)  can0  18FEF000   [8]  FF FF FF 86 16 FF FF FF
 (000.561251)  can0  18F00E00   [8]  44 27 FF FF D5 9F FF FF
 (000.564771)  can0  18F03300   [8]  FF FF FF FF FF FF FF FF
 (000.566382)  can0  0CF00400   [8]  50 7D 83 88 16 00 0F 84
 (000.566553)  can0  1CEBFF00   [8]  05 40 51 86 00 F7 02 FF
 (000.567951)  can0  0CF00203   [8]  C0 00 00 FF F7 4C 16 03
 (000.569130)  can0  18FDB200   [8]  FF FF FF FF 02 00 FF FF
 (000.569725)  can0  18FCF200   [8]  E1 FF FF FF FF FF FF FF
 (000.574210)  can0  18FEDF00   [8]  84 A0 28 7D 7D FF FF F5
 (000.574810)  can0  18F00F00   [8]  6C 0F FF FF D5 9F FF FF
 (000.577433)  can0  0CF00203   [8]  C0 00 00 FF F7 4C 16 03
 (000.577902)  can0  0CF00C03   [8]  EC 03 BA 16 FF FF FF FF
 (000.578504)  can0  18F00503   [8]  7D 00 00 7D 4E 20 4E 43
 (000.579127)  can0  18FE4A03   [8]  03 1F 4F FF FF F3 FF FF
 (000.579703)  can0  0CF00300   [8]  D1 00 0C FF FF 0F 67 7E
 (000.580264)  can0  18FEF100   [8]  FF 00 00 FC FF 68 00 CF
 (000.586229)  can0  0CF00400   [8]  60 7D 83 91 16 00 0F 84
 (000.586834)  can0  18F00131   [8]  FF FF FF 3F 00 FF FF FF
 (000.587461)  can0  0CF00203   [8]  C0 00 00 FF F7 48 16 03
 (000.587956)  can0  18FEF131   [8]  F3 FF FF C3 CC FF FF F0
 (000.588656)  can0  18FEF031   [8]  FF FF FF FF FF FC CC FF
 (000.589152)  can0  18FF4831   [8]  00 00 FF FF 00 00 00 00
 (000.589843)  can0  10FDA300   [8]  FF FF 14 FF FF FF FF FF
 (000.590305)  can0  18FEF231   [8]  FF FF FF FF FF FF FF FF
 (000.590923)  can0  18F00029   [8]  F0 7D 7D F3 29 FF FF 3C
 (000.591456)  can0  0CF00331   [8]  FF FF FF FF FF FF FF FF
 (000.594669)  can0  18FD8C00   [8]  FF FF 01 00 FF FF FF FF
 (000.594795)  can0  18FEDF00   [8]  84 A0 28 7D 7D FF FF F5
 (000.597280)  can0  0CF00203   [8]  C0 00 00 FF F7 48 16 03
 (000.597891)  can0  0C010305   [8]  FF FF FF FF FF F3 FF FF
 (000.598501)  can0  0CF00C03   [8]  EA 03 7D 16 FF FF FF FF
 (000.599922)  can0  18FCDC00   [8]  9F FF FF FF 50 68 00 00
 (000.600024)  can0  0CF00300   [8]  D1 00 0C FF FF 0F 66 7E
 (000.600653)  can0  1CFE9200   [8]  FF 54 8F FF FF FF 00 00
 (000.606037)  can0  0CF00400   [8]  40 7D 83 9C 16 00 0F 83
 (000.607286)  can0  0CF00203   [8]  C0 00 00 FF F7 40 16 03
 (000.609300)  can0  0CF00A00   [8]  EE 02 14 06 FF FF FF FF
 (000.609738)  can0  18FD9400   [8]  30 12 FF FF FF FF FF FF
 (000.610339)  can0  18F00E00   [8]  44 27 FF FF D5 9F FF FF
 (000.614287)  can0  18FD2000   [8]  30 37 FF FF FF FF FF FF
 (000.614841)  can0  18F03300   [8]  FF FF FF FF FF FF FF FF
 (000.615459)  can0  18FEDF00   [8]  84 A0 28 7D 7D FF FF F5
 (000.618031)  can0  0CF00203   [8]  C0 00 00 FF F7 40 16 03
 (000.618039)  can0  0CF00C03   [8]  EA 03 74 16 FF FF FF FF
 (000.619933)  can0  18FEE000   [8]  00 00 00 00 15 96 35 00
 (000.620040)  can0  0CF00300   [8]  D1 00 0C FF FF 0F 65 7E
 (000.624572)  can0  18FEF200   [8]  12 00 00 00 00 00 E1 FF
 (000.624730)  can0  18F00F00   [8]  6C 0F FF FF D5 9F FF FF
 (000.625335)  can0  18F0010B   [8]  CF FF F0 FF FF CD FF FF
 (000.626717)  can0  0CF00400   [8]  40 7D 83 A3 16 00 0F 83
 (000.627290)  can0  0CF00203   [8]  C0 00 00 FF F7 3F 16 03
 (000.634191)  can0  18FEDF00   [8]  84 A0 28 7D 7D FF FF F5
 (000.634758)  can0  10FCFD00   [8]  FF FF FF FF 00 32 FF FF
 (000.635348)  can0  18FEBF0B   [8]  00 00 7D 7D 7D 7D FF FF
 (000.636802)  can0  0CF00331   [8]  FF FF FF FF FF FF FF FF
 (000.637357)  can0  0CF00203   [8]  C0 00 00 FF F7 3F 16 03
 (000.637970)  can0  0CF00C03   [8]  F0 03 E0 16 FF FF FF FF
 (000.639610)  can0  18FD3E00   [8]  86 3D FF 93 3F FF FF FF
 (000.640186)  can0  0CF00300   [8]  D1 00 0B FF FF 0F 65 7E
 (000.644253)  can0  18F00100   [8]  FF FF FF FF FF FF FF FF
 (000.646059)  can0  0CF00400   [8]  30 7D 83 A4 16 00 0F 83
 (000.647286)  can0  0CF00203   [8]  C0 00 00 FF F7 42 16 03
 (000.647888)  can0  0C010305   [8]  FF FF FF FF FF F3 FF FF
 (000.654433)  can0  18FEDF00   [8]  84 A0 28 7D 7D FF FF F5
 (000.657298)  can0  0CF00203   [8]  C0 00 00 FF F7 42 16 03
 (000.657880)  can0  0CF00C03   [8]  EC 03 BA 16 FF FF FF FF
 (000.659950)  can0  18FD4000   [8]  FF 3F 00 FF FF FF FF FF
 (000.660221)  can0  0CF00300   [8]  D1 00 0B FF FF 0F 66 7E
 (000.660777)  can0  0CF00A00   [8]  EE 02 01 06 FF FF FF FF
 (000.661342)  can0  18FEF000   [8]  FF FF FF A6 16 FF FF FF
 (000.661944)  can0  18F00E00   [8]  44 27 FF FF D5 9F FF FF
 (000.664572)  can0  18F03300   [8]  FF FF FF FF FF FF FF FF
 (000.666036)  can0  0CF00400   [8]  40 7D 83 9C 16 00 0F 83
 (000.667282)  can0  0CF00203   [8]  C0 00 00 FF F7 45 16 03
 (000.669203)  can0  18FCF200   [8]  E1 FF FF FF FF FF FF FF
 (000.674364)  can0  18FEDF00   [8]  84 A0 28 7D 7D FF FF F5
 (000.674737)  can0  18F00F00   [8]  6C 0F FF FF D5 9F FF FF
 (000.677449)  can0  0CF00203   [8]  C0 00 00 FF F7 45 16 03
 (000.677904)  can0  0CF00C03   [8]  E9 03 50 16 FF FF FF FF
 (000.678513)  can0  18F00503   [8]  7D 00 00 7D 4E 20 4E 43
 (000.679122)  can0  18FE4A03   [8]  03 1F 4F FF FF F3 FF FF
 (000.679673)  can0  0CF00300   [8]  D1 00 0B FF FF 0F 65 7E
 (000.680265)  can0  18FEF100   [8]  FF 00 00 FC FF 68 00 CF
 (000.684972)  can0  18FCC500   [8]  86 3D FF FF FF FF FF FF
 (000.684984)  can0  0CFD9200   [8]  F4 FF FA FF FF FF FF FF
 (000.686779)  can0  0CF00400   [8]  40 7D 83 8E 16 00 0F 84
 (000.686791)  can0  18F00131   [8]  FF FF FF 3F 00 FF FF FF
 (000.687440)  can0  0CF00203   [8]  C0 00 00 FF F7 46 16 03
 (000.687987)  can0  18E0FF31   [8]  00 FF FF FF FF F0 FF FF
 (000.688561)  can0  18FEF131   [8]  F3 FF FF C3 CC FF FF F0
 (000.689198)  can0  18FEF031   [8]  FF FF FF FF FF FC CC FF
 (000.689738)  can0  10FDA300   [8]  FF FF 14 FF FF FF FF FF
 (000.690351)  can0  18FEFC31   [8]  FF 75 FF FF FF FF 00 FF
 (000.690865)  can0  18F00029   [8]  F0 7D 7D F3 29 FF FF 3C
 (000.691435)  can0  18FEAE31   [8]  FF FF 6B 6B FF FF FF FF
 (000.692003)  can0  18FEF731   [8]  FF FF FF FF 1A 01 FF FF
 (000.692644)  can0  18FF4831   [8]  00 00 FF FF 00 00 00 00
 (000.693217)  can0  18FD8331   [8]  F8 FF FF FF FF FF FF FF
 (000.693854)  can0  18FEF831   [8]  FF FF FF FF FF FF FF FF
 (000.694474)  can0  18FEF231   [8]  FF FF FF FF FF FF FF FF
 (000.694971)  can0  18FEDF00   [8]  84 A0 28 7D 7D FF FF F5
 (000.696317)  can0  18FEFA31   [8]  FF D6 D6 FF FF FF FF FF
 (000.696325)  can0  18FEC131   [8]  2F 42 67 06 FF FF FF FF
 (000.696709)  can0  0CF00331   [8]  FF FF FF FF FF FF FF FF
 (000.697290)  can0  0CF00203   [8]  C0 00 00 FF F7 46 16 03
 (000.697871)  can0  0C010305   [8]  FF FF FF FF FF F3 FF FF
 (000.698423)  can0  0CF00C03   [8]  EE 03 7C 16 FF FF FF FF
 (000.699654)  can0  18FCDC00   [8]  9F FF FF FF 50 68 00 00
 (000.700197)  can0  0CF00300   [8]  D1 00 0C FF FF 0F 65 7E
 (000.700801)  can0  1CFE9200   [8]  FF BC 8F FF FF FF 00 00
 (000.706131)  can0  0CF00400   [8]  70 7D 83 78 16 00 0F 84
 (000.707786)  can0  0CF00203   [8]  C0 00 00 FF F7 46 16 03
 (000.709309)  can0  0CF00A00   [8]  EE 02 14 06 FF FF FF FF
 (000.709702)  can0  18FD9400   [8]  30 12 FF FF FF FF FF FF
 (000.710342)  can0  18FEEF00   [8]  FF FF FF 1E 46 7D FF FA
 (000.710831)  can0  18F00E00   [8]  44 27 FF FF D5 9F FF FF
 (000.714268)  can0  18F03300   [8]  FF FF FF FF FF FF FF FF
 (000.714867)  can0  18FEDF00   [8]  84 A0 28 7D 7D FF FF F5
 (000.717441)  can0  0CF00203   [8]  C0 00 00 FF F7 46 16 03
 (000.717902)  can0  0CF00C03   [8]  ED 03 CD 16 FF FF FF FF
 (000.719562)  can0  18FEE000   [8]  00 00 00 00 15 96 35 00
 (000.720135)  can0  0CF00300   [8]  D1 00 0C FF FF 0F 65 7E
 (000.724571)  can0  18FEF200   [8]  12 00 00 00 00 00 E1 FF
 (000.724704)  can0  18F00F00   [8]  6C 0F FF FF D5 9F FF FF
 (000.725429)  can0  18F0010B   [8]  CF FF F0 FF FF CD FF FF
 (000.726117)  can0  0CF00400   [8]  60 7D 83 8D 16 00 0F 84
 (000.727889)  can0  0CF00203   [8]  C0 00 00 FF F7 42 16 03
 (000.729520)  can0  18FEDB00   [8]  FF FF 2D 31 FF FF FF FF
 (000.734134)  can0  18FEDF00   [8]  84 A0 28 7D 7D FF FF F5
 (000.734726)  can0  10FCFD00   [8]  FF FF FF FF 00 32 FF FF
 (000.735451)  can0  18FEBF0B   [8]  00 00 7D 7D 7D 7D FF FF
 (000.736795)  can0  0CF00331   [8]  FF FF FF FF FF FF FF FF
 (000.737352)  can0  0CF00203   [8]  C0 00 00 FF F7 42 16 03
 (000.737990)  can0  0CF00C03   [8]  EA 03 8C 16 FF FF FF FF
 (000.740089)  can0  0CF00300   [8]  D1 00 0C FF FF 0F 66 7E
 (000.744256)  can0  18F00100   [8]  FF FF FF FF FF FF FF FF
 (000.746039)  can0  0CF00400   [8]  50 7D 83 93 16 00 0F 84
 (000.747235)  can0  0CF00203   [8]  C0 00 00 FF F7 40 16 03
 (000.747863)  can0  0C010305   [8]  FF FF FF FF FF F3 FF FF
 (000.749165)  can0  18FEF600   [8]  FF 00 65 FF FF FF FF FF
 (000.754905)  can0  18FEDF00   [8]  84 A0 28 7D 7D FF FF F5
 (000.757935)  can0  0CF00203   [8]  C0 00 00 FF F7 40 16 03
 (000.757945)  can0  0CF00C03   [8]  E9 03 68 16 FF FF FF FF
 (000.759592)  can0  0CF00300   [8]  D1 00 0C FF FF 0F 66 7E
 (000.760188)  can0  0CF00A00   [8]  0A 03 EE 05 FF FF FF FF
 (000.760762)  can0  18FEF000   [8]  FF FF FF 90 16 FF FF FF
 (000.761362)  can0  18F00E00   [8]  44 27 FF FF D5 9F FF FF
 (000.764204)  can0  18F03300   [8]  FF FF FF FF FF FF FF FF
 (000.766030)  can0  0CF00400   [8]  40 7D 83 9E 16 00 0F 84
 (000.767311)  can0  0CF00203   [8]  C0 00 00 FF F7 3D 16 03
 (000.769854)  can0  18FCF200   [8]  E1 FF FF FF FF FF FF FF
 (000.774596)  can0  18FEDF00   [8]  84 A0 28 7D 7D FF FF F5
 (000.774822)  can0  18FDC600   [8]  FC 04 FF FF FF FF FF FF
 (000.775531)  can0  18F00F00   [8]  6C 0F FF FF D5 9F FF FF
 (000.777464)  can0  0CF00203   [8]  C0 00 00 FF F7 3D 16 03
 (000.777886)  can0  0CF00C03   [8]  EF 03 D1 16 FF FF FF FF
 (000.778501)  can0  18F00503   [8]  7D 00 00 7D 4E 20 4E 43
 (000.779131)  can0  18FE4A03   [8]  03 1F 4F FF FF F3 FF FF
 (000.779682)  can0  0CF00300   [8]  D1 00 0C FF FF 0F 64 7E
 (000.780261)  can0  18FEF100   [8]  FF 00 00 FC FF 68 00 CF
 (000.786387)  can0  0CF00400   [8]  30 7D 83 B1 16 00 0F 83
 (000.786840)  can0  18F00131   [8]  FF FF FF 3F 00 FF FF FF
 (000.787384)  can0  0CF00203   [8]  C0 00 00 FF F7 3C 16 03
 (000.787992)  can0  18FEF131   [8]  F3 FF FF C3 CC FF FF F0
 (000.788562)  can0  18FEF031   [8]  FF FF FF FF FF FC CC FF
 (000.789195)  can0  18FF4831   [8]  00 00 FF FF 00 00 00 00
 (000.789725)  can0  10FDA300   [8]  FF FF 14 FF FF FF FF FF
 (000.790348)  can0  18FEF231   [8]  FF FF FF FF FF FF FF FF
 (000.790908)  can0  18F00029   [8]  F0 7D 7D F3 29 FF FF 3C
 (000.791456)  can0  0CF00331   [8]  FF FF FF FF FF FF FF FF
 (000.794256)  can0  18FEDF00   [8]  84 A0 28 7D 7D FF FF F5
 (000.797276)  can0  0CF00203   [8]  C0 00 00 FF F7 3C 16 03
 (000.797807)  can0  0C010305   [8]  FF FF FF FF FF F3 FF FF
 (000.798376)  can0  0CF00C03   [8]  EE 03 D9 16 FF FF FF FF
 (000.799528)  can0  18FCDC00   [8]  9F FF FF FF 50 68 00 00
 (000.800164)  can0  0CF00300   [8]  D1 00 0B FF FF 0F 64 7E
 (000.800725)  can0  1CFE9200   [8]  FF 34 8F FF FF FF 00 00
 (000.806215)  can0  0CF00400   [8]  10 7D 83 C1 16 00 0F 83
 (000.807876)  can0  0CF00203   [8]  C0 00 00 FF F7 3E 16 03
 (000.809688)  can0  0CF00A00   [8]  0A 03 01 06 FF FF FF FF
 (000.809742)  can0  18FD9400   [8]  30 12 FF FF FF FF FF FF
 (000.810765)  can0  18F00E00   [8]  44 27 FF FF D5 9F FF FF
 (000.814542)  can0  18F03300   [8]  FF FF FF FF FF FF FF FF
 (000.814880)  can0  18FEDF00   [8]  84 A0 28 7D 7D FF FF F5
 (000.817975)  can0  0CF00203   [8]  C0 00 00 FF F7 3E 16 03
 (000.817985)  can0  0CF00C03   [8]  E9 03 91 16 FF FF FF FF
 (000.819965)  can0  18FEF700   [8]  FF FF FF FF 19 01 FF FF
 (000.820141)  can0  18FEE000   [8]  00 00 00 00 15 96 35 00
 (000.820762)  can0  0CF00300   [8]  D1 00 0B FF FF 0F 65 7E
 (000.824570)  can0  18FEF200   [8]  0D 00 00 00 00 00 E1 FF
 (000.824846)  can0  18F00F00   [8]  6C 0F FF FF D5 9F FF FF
 (000.825652)  can0  18F0010B   [8]  CF FF F0 FF FF CD FF FF
 (000.826173)  can0  0CF00400   [8]  10 7D 83 B9 16 00 0F 83
 (000.827311)  can0  0CF00203   [8]  C0 00 00 FF F7 47 16 03
 (000.834226)  can0  18FEDF00   [8]  84 A0 28 7D 7D FF FF F5
 (000.834732)  can0  10FCFD00   [8]  FF FF FF FF 00 32 FF FF
 (000.835638)  can0  18FEBF0B   [8]  00 00 7D 7D 7D 7D FF FF
 (000.836841)  can0  0CF00331   [8]  FF FF FF FF FF FF FF FF
 (000.837472)  can0  0CF00203   [8]  C0 00 00 FF F7 47 16 03
 (000.837984)  can0  0CF00C03   [8]  ED 03 A1 16 FF FF FF FF
 (000.840050)  can0  18FEC100   [8]  17 A8 3B 05 00 00 00 00
 (000.840213)  can0  0CF00300   [8]  D1 00 0B FF FF 0F 65 7E
 (000.844214)  can0  18F00100   [8]  FF FF FF FF FF FF FF FF
 (000.846378)  can0  0CF00400   [8]  10 7D 83 B0 16 00 0F 83
 (000.847991)  can0  0CF00203   [8]  C0 00 00 FF F7 51 16 03
 (000.848002)  can0  0C010305   [8]  FF FF FF FF FF F3 FF FF
 (000.854420)  can0  18FEDF00   [8]  84 A0 28 7D 7D FF FF F5
 (000.857782)  can0  0CF00203   [8]  C0 00 00 FF F7 51 16 03
 (000.857840)  can0  0CF00C03   [8]  EF 03 D8 16 FF FF FF FF
 (000.859563)  can0  0CF00300   [8]  D1 00 0B FF FF 0F 64 7E
 (000.860119)  can0  0CF00A00   [8]  0A 03 0A 06 FF FF FF FF
 (000.860727)  can0  18FEF000   [8]  FF FF FF B5 16 FF FF FF
 (000.861273)  can0  18F00E00   [8]  44 27 FF FF D5 9F FF FF
 (000.864252)  can0  18FE5600   [8]  97 42 FF FF 1F 1F 00 FF
 (000.864836)  can0  18F03300   [8]  FF FF FF FF FF FF FF FF
 (000.866143)  can0  0CF00400   [8]  30 7D 83 99 16 00 0F 83
 (000.867333)  can0  0CF00203   [8]  C0 00 00 FF F7 55 16 03
 (000.869434)  can0  18FCF200   [8]  E1 FF FF FF FF FF FF FF
 (000.874269)  can0  18FEDF00   [8]  84 A0 28 7D 7D FF FF F5
 (000.874775)  can0  18F00F00   [8]  6C 0F FF FF D5 9F FF FF
 (000.877976)  can0  0CF00203   [8]  C0 00 00 FF F7 55 16 03
 (000.877986)  can0  0CF00C03   [8]  EA 03 A6 16 FF FF FF FF
 (000.878463)  can0  18F00503   [8]  7D 00 00 7D 4E 20 4E 43
 (000.879056)  can0  18FE4A03   [8]  03 1F 4F FF FF F3 FF FF
 (000.879632)  can0  0CF00300   [8]  D1 00 0B FF FF 0F 65 7E
 (000.880981)  can0  18FEF100   [8]  FF 00 00 FC FF 68 00 CF
 (000.884778)  can0  18FD7B00   [8]  00 FF DF B9 00 00 0D 56
 (000.886356)  can0  0CF00400   [8]  40 7D 83 A1 16 00 0F 83
 (000.886823)  can0  18F00131   [8]  FF FF FF 3F 00 FF FF FF
 (000.888166)  can0  0CF00203   [8]  C0 00 00 FF F7 57 16 03
 (000.888175)  can0  18FEF131   [8]  F3 FF FF C3 CC FF FF F0
 (000.888505)  can0  18FEF031   [8]  FF FF FF FF FF FC CC FF
 (000.889213)  can0  18FF4831   [8]  00 00 FF FF 00 00 00 00
 (000.889773)  can0  10FDA300   [8]  FF FF 14 FF FF FF FF FF
 (000.890278)  can0  18F00029   [8]  F0 7D 7D F3 29 FF FF 3C
 (000.890832)  can0  18FEF231   [8]  FF FF FF FF FF FF FF FF
 (000.891425)  can0  0CF00331   [8]  FF FF FF FF FF FF FF FF
 (000.894330)  can0  18FEDF00   [8]  84 A0 28 7D 7D FF FF F5
 (000.897286)  can0  0CF00203   [8]  C0 00 00 FF F7 57 16 03
 (000.897806)  can0  0C010305   [8]  FF FF FF FF FF F3 FF FF
 (000.898433)  can0  0CF00C03   [8]  EA 03 42 16 FF FF FF FF
 (000.899558)  can0  18FCDC00   [8]  9F FF FF FF 50 68 00 00
 (000.900132)  can0  0CF00300   [8]  D1 00 0C FF FF 0F 66 7E
 (000.900707)  can0  1CFE9200   [8]  FF C8 8E FF FF FF 00 00
 (000.906240)  can0  0CF00400   [8]  30 7D 83 A3 16 00 0F 83
 (000.907234)  can0  0CF00203   [8]  C0 00 00 FF F7 59 16 03
 (000.909246)  can0  0CF00A00   [8]  42 03 B6 05 FF FF FF FF
 (000.909805)  can0  18FD9400   [8]  30 12 FF FF FF FF FF FF
 (000.910729)  can0  18FEDD00   [8]  FF F0 0E FF FF FF FF FF
 (000.910981)  can0  18F00E00   [8]  44 27 FF FF D5 9F FF FF
 (000.914890)  can0  18F03300   [8]  FF FF FF FF FF FF FF FF
 (000.914900)  can0  18FEDF00   [8]  84 A0 28 7D 7D FF FF F5
 (000.918139)  can0  0CF00203   [8]  C0 00 00 FF F7 59 16 03
 (000.918149)  can0  0CF00C03   [8]  EC 03 BD 16 FF FF FF FF
 (000.919700)  can0  18FEE000   [8]  00 00 00 00 15 96 35 00
 (000.920084)  can0  0CF00300   [8]  D1 00 0B FF FF 0F 66 7E
 (000.924181)  can0  18FEF200   [8]  12 00 00 00 00 00 E1 FF
 (000.924750)  can0  18F00F00   [8]  6C 0F FF FF D5 9F FF FF
 (000.925722)  can0  18F0010B   [8]  CF FF F0 FF FF CD FF FF
 (000.926325)  can0  0CF00400   [8]  20 7D 83 AE 16 00 0F 83
 (000.927276)  can0  0CF00203   [8]  C0 00 00 FF F7 5C 16 03
 (000.929255)  can0  18FEE400   [8]  FF 3F FC FC 00 7F FF FF
 (000.934263)  can0  18FEDF00   [8]  84 A0 28 7D 7D FF FF F5
 (000.934829)  can0  10FCFD00   [8]  FF FF FF FF 00 32 FF FF
 (000.935458)  can0  0CFD9200   [8]  F4 FF FA FF FF FF FF FF
 (000.936060)  can0  18FEBF0B   [8]  00 00 7D 7D 7D 7D FF FF
 (000.937538)  can0  0CF00331   [8]  FF FF FF FF FF FF FF FF
 (000.937545)  can0  0CF00203   [8]  C0 00 00 FF F7 5C 16 03
 (000.937925)  can0  0CF00C03   [8]  EB 03 EC 16 FF FF FF FF
 (000.939949)  can0  0CF00300   [8]  D1 00 0B FF FF 0F 65 7E
 (000.944262)  can0  18F00100   [8]  FF FF FF FF FF FF FF FF
 (000.946387)  can0  0CF00400   [8]  10 7D 83 AC 16 00 0F 83
 (000.947917)  can0  0CF00203   [8]  C0 00 00 FF F7 56 16 03
 (000.947927)  can0  0C010305   [8]  FF FF FF FF FF F3 FF FF
 (000.954452)  can0  18FEDF00   [8]  84 A0 28 7D 7D FF FF F5
 (000.957235)  can0  0CF00203   [8]  C0 00 00 FF F7 56 16 03
 (000.957832)  can0  0CF00C03   [8]  E9 03 93 16 FF FF FF FF
 (000.959607)  can0  0CF00300   [8]  D1 00 0B FF FF 0F 64 7E
 (000.960224)  can0  0CF00A00   [8]  42 03 DC 05 FF FF FF FF
 (000.960825)  can0  18FEF000   [8]  FF FF FF AF 16 FF FF FF
 (000.961419)  can0  18FEBD00   [8]  00 F0 FF FF FF FF FF FF
 (000.961943)  can0  18F00E00   [8]  44 27 FF FF D5 9F FF FF
 (000.964222)  can0  18F03300   [8]  FF FF FF FF FF FF FF FF
 (000.966164)  can0  0CF00400   [8]  10 7D 83 BC 16 00 0F 83
 (000.968020)  can0  0CF00203   [8]  C0 00 00 FF F7 59 16 03
 (000.969625)  can0  18FCF200   [8]  E1 FF FF FF FF FF FF FF
 (000.974532)  can0  18FEDF00   [8]  84 A0 28 7D 7D FF FF F5
 (000.974864)  can0  18E0FF00   [8]  00 FF FF FF FF FF FF FF
 (000.975440)  can0  18F00F00   [8]  6C 0F FF FF D5 9F FF FF
 (000.977816)  can0  0CF00203   [8]  C0 00 00 FF F7 59 16 03
 (000.977831)  can0  0CF00C03   [8]  E9 03 7C 16 FF FF FF FF
 (000.978539)  can0  18F00503   [8]  7D 00 00 7D 4E 20 4E 43
 (000.979124)  can0  18FE4A03   [8]  03 1F 4F FF FF F3 FF FF
 (000.979714)  can0  18FD0700   [8]  43 0C FC FF FF FF FF FF
 (000.980264)  can0  0CF00300   [8]  D1 00 0B FF FF 0F 65 7E
 (000.980869)  can0  18FEF100   [8]  FF 00 00 FC FF 68 00 CF
 (000.984675)  can0  18FEEE00   [8]  82 FF FF FF FF FF FF FF
 (000.986269)  can0  0CF00400   [8]  00 7D 83 BF 16 00 0F 83
 (000.986837)  can0  18F00131   [8]  FF FF FF 3F 00 FF FF FF
 (000.987412)  can0  0CF00203   [8]  C0 00 00 FF F7 5E 16 03
 (000.987932)  can0  18FEF131   [8]  F3 FF FF C3 CC FF FF F0
 (000.988500)  can0  18FEF031   [8]  FF FF FF FF FF FC CC FF
 (000.989095)  can0  18FF4831   [8]  00 00 FF FF 00 00 00 00
 (000.989671)  can0  10FDA300   [8]  FF FF 15 FF FF FF FF FF
 (000.990251)  can0  18FEF231   [8]  FF FF FF FF FF FF FF FF
 (000.990823)  can0  18F00029   [8]  F0 7D 7D F3 29 FF FF 3C
 (000.991399)  can0  0CF00331   [8]  FF FF FF FF FF FF FF FF
 (000.994339)  can0  18FEDF00   [8]  84 A0 28 7D 7D FF FF F5
 (000.997269)  can0  0CF00203   [8]  C0 00 00 FF F7 5E 16 03
 (000.997860)  can0  0C010305   [8]  FF FF FF FF FF F3 FF FF
 (000.998435)  can0  0CF00C03   [8]  EF 03 EA 16 FF FF FF FF
 (001.000204)  can0  18FCDC00   [8]  9F FF FF FF 50 68 00 00
 (001.000214)  can0  0CF00300   [8]  D1 00 0A FF FF 0F 65 7E
 (001.000705)  can0  1CFE9200   [8]  FF 88 8E FF FF FF 00 00
 (001.001363)  can0  18FEF500   [8]  A8 FF FF 70 26 FF FF FF
 (001.006334)  can0  0CF00400   [8]  00 7D 83 B5 16 00 0F 83
 (001.007765)  can0  0CF00203   [8]  C0 00 00 FF F7 63 16 03
 (001.009724)  can0  14FC9800   [8]  FF 00 00 00 00 00 00 FF
 (001.009734)  can0  0CF00A00   [8]  42 03 C9 05 FF FF FF FF
 (001.010356)  can0  18FD9400   [8]  30 12 FF FF FF FF FF FF
 (001.011064)  can0  18F00E00   [8]  44 27 FF FF D5 9F FF FF
 (001.014884)  can0  18F03300   [8]  FF FF FF FF FF FF FF FF
 (001.014893)  can0  18FEDF00   [8]  84 A0 28 7D 7D FF FF F5
 (001.017420)  can0  0CF00203   [8]  C0 00 00 FF F7 63 16 03
 (001.017849)  can0  0CF00C03   [8]  EC 03 D7 16 FF FF FF FF
 (001.019801)  can0  18FEE000   [8]  00 00 00 00 15 96 35 00
 (001.020155)  can0  0CF00300   [8]  D1 00 0B FF FF 0F 64 7E
 (001.020672)  can0  18FEA400   [8]  FF FF 09 2A FF FF 0D 2D
 (001.024204)  can0  18FDB400   [8]  2C 37 83 38 FF FF FF FF
 (001.024799)  can0  18FEF200   [8]  0D 00 00 00 00 00 E1 FF
 (001.025386)  can0  18F00F00   [8]  6C 0F FF FF D5 9F FF FF
 (001.026009)  can0  18F0010B   [8]  CF FF F0 FF FF CD FF FF
 (001.026570)  can0  0CF00400   [8]  20 7D 83 A2 16 00 0F 83
 (001.027383)  can0  0CF00203   [8]  C0 00 00 FF F7 63 16 03
 (001.034433)  can0  18FEDF00   [8]  84 A0 28 7D 7D FF FF F5
 (001.034819)  can0  10FCFD00   [8]  FF FF FF FF 00 32 FF FF
 (001.036037)  can0  18FEBF0B   [8]  00 00 7D 7D 7D 7D FF FF
 (001.036811)  can0  0CF00331   [8]  FF FF FF FF FF FF FF FF
 (001.037386)  can0  0CF00203   [8]  C0 00 00 FF F7 63 16 03
 (001.037989)  can0  0CF00C03   [8]  EA 03 5B 16 FF FF FF FF
 (001.039948)  can0  0CF00300   [8]  D1 00 0B FF FF 0F 64 7E
 (001.044760)  can0  18FD7C00   [8]  F8 83 00 00 C3 0F 03 FF
 (001.044770)  can0  18F00100   [8]  FF FF FF FF FF FF FF FF
 (001.046277)  can0  0CF00400   [8]  30 7D 83 A0 16 00 0F 83
 (001.047854)  can0  0CF00203   [8]  C0 00 00 FF F7 63 16 03
 (001.047863)  can0  0C010305   [8]  FF FF FF FF FF F3 FF FF
 (001.049363)  can0  18FDB300   [8]  FF FF 46 3B FF FF FF FF
 (001.054235)  can0  18FEDF00   [8]  84 A0 28 7D 7D FF FF F5
 (001.057276)  can0  0CF00203   [8]  C0 00 00 FF F7 63 16 03
 (001.057882)  can0  0CF00C03   [8]  EB 03 99 16 FF FF FF FF
 (001.059634)  can0  0CF00300   [8]  D1 00 0B FF FF 0F 65 7E
 (001.060208)  can0  0CF00A00   [8]  39 03 D2 05 FF FF FF FF
 (001.060843)  can0  18FEF000   [8]  FF FF FF 9B 16 FF FF FF
 (001.061367)  can0  18F00E00   [8]  44 27 FF FF D5 9F FF FF
 (001.064289)  can0  18F03300   [8]  FF FF FF FF FF FF FF FF
 (001.064858)  can0  18FE9A00   [8]  B9 27 FF FF FF FF FF FF
 (001.066182)  can0  0CF00400   [8]  20 7D 83 A5 16 00 0F 83
 (001.067693)  can0  0CF00203   [8]  C0 00 00 FF F7 63 16 03
 (001.069909)  can0  18FDB200   [8]  FF FF FF FF 02 00 FF FF
 (001.069917)  can0  18FCF200   [8]  E1 FF FF FF FF FF FF FF
 (001.074528)  can0  18FEDF00   [8]  84 A0 28 7D 7D FF FF F5
 (001.074817)  can0  18F00F00   [8]  6C 0F FF FF D5 9F FF FF
 (001.078122)  can0  0CF00203   [8]  C0 00 00 FF F7 63 16 03
 (001.078132)  can0  0CF00C03   [8]  EE 03 E3 16 FF FF FF FF
 (001.078444)  can0  18F00503   [8]  7D 00 00 7D 4E 20 4E 43
 (001.079917)  can0  18FE4A03   [8]  03 1F 4F FF FF F3 FF FF
 (001.079926)  can0  0CF00300   [8]  D1 00 0B FF FF 0F 66 7E
 (001.080243)  can0  18FEF100   [8]  FF 00 00 FC FF 68 00 CF
 (001.086114)  can0  0CF00400   [8]  20 7D 83 B3 16 00 0F 83
 (001.086841)  can0  18F00131   [8]  FF FF FF 3F 00 FF FF FF
 (001.087426)  can0  0CF00203   [8]  C0 00 00 FF F7 62 16 03
 (001.087952)  can0  18FEF131   [8]  F3 FF FF C3 CC FF FF F0
 (001.088559)  can0  18FEF031   [8]  FF FF FF FF FF FC CC FF
 (001.089105)  can0  18FF4831   [8]  00 00 FF FF 00 00 00 00
 (001.089753)  can0  10FDA300   [8]  FF FF 14 FF FF FF FF FF
 (001.090326)  can0  18FEF231   [8]  FF FF FF FF FF FF FF FF
 (001.090902)  can0  18FE9900   [8]  FF FF FF FF FF FF FF FF
 (001.091476)  can0  0CF00331   [8]  FF FF FF FF FF FF FF FF
 (001.092037)  can0  18F00029   [8]  F0 7D 7D F3 29 FF FF 3C
 (001.094455)  can0  18FD8C00   [8]  FF FF 01 00 FF FF FF FF
 (001.094964)  can0  18FEDF00   [8]  84 A0 28 7D 7D FF FF F5
 (001.097290)  can0  0CF00203   [8]  C0 00 00 FF F7 62 16 03
 (001.097863)  can0  0C010305   [8]  FF FF FF FF FF F3 FF FF
 (001.098432)  can0  0CF00C03   [8]  E9 03 D5 16 FF FF FF FF
 (001.099615)  can0  18FCDC00   [8]  9F FF FF FF 50 68 00 00
 (001.100186)  can0  0CF00300   [8]  D1 00 0B FF FF 0F 65 7E
 (001.100758)  can0  1CFE9200   [8]  FF 50 8E FF FF FF 00 00
 (001.106560)  can0  0CF00400   [8]  00 7D 83 B6 16 00 0F 83
 (001.107230)  can0  0CF00203   [8]  C0 00 00 FF F7 5C 16 03
 (001.109726)  can0  0CF00A00   [8]  2F 03 E5 05 FF FF FF FF
 (001.109776)  can0  18FD9400   [8]  30 12 FF FF FF FF FF FF
 (001.110465)  can0  18FEFC00   [8]  FF FF FF FF FF FF FF FF
 (001.111021)  can0  18F00E00   [8]  44 27 FF FF D5 9F FF FF
 (001.114875)  can0  18FD2000   [8]  2C 37 FF FF FF FF FF FF
 (001.114886)  can0  18F03300   [8]  FF FF FF FF FF FF FF FF
 (001.115484)  can0  18FEDF00   [8]  84 A0 28 7D 7D FF FF F5
 (001.117809)  can0  0CF00203   [8]  C0 00 00 FF F7 5C 16 03
 (001.117815)  can0  0CF00C03   [8]  E9 03 80 16 FF FF FF FF
 (001.119606)  can0  18FEE000   [8]  00 00 00 00 15 96 35 00
 (001.120174)  can0  0CF00300   [8]  D1 00 0A FF FF 0F 64 7E
 (001.124284)  can0  18FEF200   [8]  11 00 00 00 00 00 E1 FF
 (001.124862)  can0  18F00F00   [8]  6C 0F FF FF D5 9F FF FF
 (001.126152)  can0  0CF00400   [8]  00 7D 83 C0 16 00 0F 83
 (001.126695)  can0  18F0010B   [8]  CF FF F0 FF FF CD FF FF
 (001.127410)  can0  0CF00203   [8]  C0 00 00 FF F7 5E 16 03
 (001.134838)  can0  18FEDF00   [8]  84 A0 28 7D 7D FF FF F5
 (001.134848)  can0  10FCFD00   [8]  FF FF FF FF 00 32 FF FF
 (001.136576)  can0  18FEBF0B   [8]  00 00 7D 7D 7D 7D FF FF
 (001.136815)  can0  0CF00331   [8]  FF FF FF FF FF FF FF FF
 (001.137554)  can0  0CF00203   [8]  C0 00 00 FF F7 5E 16 03
 (001.137937)  can0  0CF00C03   [8]  EF 03 C5 16 FF FF FF FF
 (001.139898)  can0  18FD3E00   [8]  83 3D FF 93 3F FF FF FF
 (001.140235)  can0  0CF00300   [8]  D1 00 0A FF FF 0F 64 7E
 (001.144723)  can0  18F00100   [8]  FF FF FF FF FF FF FF FF
 (001.146428)  can0  0CF00400   [8]  70 7D 82 C1 16 00 0F 83
 (001.148095)  can0  0CF00203   [8]  C0 00 00 FF F7 61 16 03
 (001.148105)  can0  0C010305   [8]  FF FF FF FF FF F3 FF FF
 (001.154247)  can0  18FEDF00   [8]  84 A0 28 7D 7D FF FF F5
 (001.157287)  can0  0CF00203   [8]  C0 00 00 FF F7 61 16 03
 (001.157894)  can0  0CF00C03   [8]  EE 03 E6 16 FF FF FF FF
 (001.159768)  can0  18FD4000   [8]  FF 3F 00 FF FF FF FF FF
 (001.160158)  can0  0CF00300   [8]  D1 00 0A FF FF 0F 65 7E
 (001.160759)  can0  0CF00A00   [8]  2F 03 D2 05 FF FF FF FF
 (001.161351)  can0  18FEF000   [8]  FF FF FF C4 16 FF FF FF
 (001.161929)  can0  18F00E00   [8]  44 27 FF FF D5 9F FF FF
 (001.162486)  can0  1CECFF00   [8]  20 0E 00 02 FF CA FE 00
 (001.164302)  can0  18F03300   [8]  FF FF FF FF FF FF FF FF
 (001.166636)  can0  0CF00400   [8]  00 7D 83 B8 16 00 0F 83
 (001.167317)  can0  0CF00203   [8]  C0 00 00 FF F7 68 16 03
 (001.169666)  can0  18FCF200   [8]  E1 FF FF FF FF FF FF FF
 (001.174545)  can0  18FEDF00   [8]  84 A0 28 7D 7D FF FF F5
 (001.174819)  can0  18F00F00   [8]  6C 0F FF FF D5 9F FF FF
 (001.178019)  can0  0CF00203   [8]  C0 00 00 FF F7 68 16 03
 (001.178028)  can0  0CF00C03   [8]  E9 03 9A 16 FF FF FF FF
 (001.178462)  can0  18F00503   [8]  7D 00 00 7D 4E 20 4E 43
 (001.179224)  can0  18FE4A03   [8]  03 1F 4F FF FF F3 FF FF
 (001.179679)  can0  0CF00300   [8]  D1 00 0A FF FF 0F 65 7E
 (001.180291)  can0  18FEF100   [8]  FF 00 00 FC FF 68 00 CF
 (001.184279)  can0  18FCC500   [8]  83 3D FF FF FF FF FF FF
 (001.184878)  can0  0CFD9200   [8]  F4 FF FA FF FF FF FF FF
 (001.186177)  can0  0CF00400   [8]  10 7D 83 A3 16 00 0F 83
 (001.186826)  can0  18F00131   [8]  FF FF FF 3F 00 FF FF FF
 (001.187375)  can0  0CF00203   [8]  C0 00 00 FF F7 67 16 03
 (001.187953)  can0  18FEF131   [8]  F3 FF FF C3 CC FF FF F0
 (001.188554)  can0  18FEF031   [8]  FF FF FF FF FF FC CC FF
 (001.189144)  can0  18FF4831   [8]  00 00 FF FF 00 00 00 00
 (001.189711)  can0  10FDA300   [8]  FF FF 14 FF FF FF FF FF
 (001.190307)  can0  18FEF231   [8]  FF FF FF FF FF FF FF FF
 (001.190897)  can0  18F00029   [8]  F0 7D 7D F3 29 FF FF 3C
 (001.191463)  can0  0CF00331   [8]  FF FF FF FF FF FF FF FF
 (001.194519)  can0  18FEDF00   [8]  84 A0 28 7D 7D FF FF F5
 (001.197259)  can0  0CF00203   [8]  C0 00 00 FF F7 67 16 03
 (001.197870)  can0  0C010305   [8]  FF FF FF FF FF F3 FF FF
 (001.198489)  can0  0CF00C03   [8]  E9 03 72 16 FF FF FF FF
 (001.199877)  can0  18FCDC00   [8]  9F FF FF FF 50 68 00 00
 (001.200209)  can0  0CF00300   [8]  D1 00 0B FF FF 0F 64 7E
 (001.200821)  can0  1CFE9200   [8]  FF A4 8E FF FF FF 00 00
 (001.206838)  can0  0CF00400   [8]  40 7D 83 94 16 00 0F 83
 (001.207299)  can0  0CF00203   [8]  C0 00 00 FF F7 67 16 03
 (001.209250)  can0  0CF00A00   [8]  2F 03 DC 05 FF FF FF FF
 (001.209830)  can0  18FD9400   [8]  30 12 FF FF FF FF FF FF
 (001.210487)  can0  18FEEF00   [8]  FF FF FF 1E 42 7D FF FA
 (001.210953)  can0  18F00E00   [8]  44 27 FF FF D5 9F FF FF
 (001.211633)  can0  1CEBFF00   [8]  01 43 FF BF 00 09 08 54
 (001.214895)  can0  18F03300   [8]  FF FF FF FF FF FF FF FF
 (001.214906)  can0  18FEDF00   [8]  84 A0 28 7D 7D FF FF F5
 (001.217254)  can0  0CF00203   [8]  C0 00 00 FF F7 67 16 03
 (001.217878)  can0  0CF00C03   [8]  ED 03 C8 16 FF FF FF FF
 (001.219630)  can0  18FEE000   [8]  00 00 00 00 15 96 35 00
 (001.220185)  can0  0CF00300   [8]  D1 00 0C FF FF 0F 65 7E
 (001.224517)  can0  18FEF200   [8]  11 00 00 00 00 00 E1 FF
 (001.224792)  can0  18F00F00   [8]  6C 0F FF FF D5 9F FF FF
 (001.226114)  can0  0CF00400   [8]  30 7D 83 A3 16 00 0F 83
 (001.226671)  can0  18F0010B   [8]  CF FF F0 FF FF CD FF FF
 (001.227452)  can0  0CF00203   [8]  C0 00 00 FF F7 64 16 03
 (001.229293)  can0  18FEDB00   [8]  FF FF 37 31 FF FF FF FF
 (001.234509)  can0  18FEDF00   [8]  84 A0 28 7D 7D FF FF F5
 (001.234813)  can0  10FCFD00   [8]  FF FF FF FF 00 32 FF FF
 (001.237231)  can0  18FEBF0B   [8]  00 00 7D 7D 7D 7D FF FF
 (001.237241)  can0  0CF00331   [8]  FF FF FF FF FF FF FF FF
 (001.237586)  can0  0CF00203   [8]  C0 00 00 FF F7 64 16 03
 (001.238193)  can0  0CF00C03   [8]  EA 03 B7 16 FF FF FF FF
 (001.239891)  can0  0CF00300   [8]  D1 00 0B FF FF 0F 66 7E
 (001.244333)  can0  18F00100   [8]  FF FF FF FF FF FF FF FF
 (001.246550)  can0  0CF00400   [8]  20 7D 83 A6 16 00 0F 83
 (001.247360)  can0  0CF00203   [8]  C0 00 00 FF F7 5F 16 03
 (001.247911)  can0  0C010305   [8]  FF FF FF FF FF F3 FF FF
 (001.249235)  can0  18FEF600   [8]  FF 00 65 FF FF FF FF FF
 (001.254281)  can0  18FEDF00   [8]  84 A0 28 7D 7D FF FF F5
 (001.257880)  can0  0CF00203   [8]  C0 00 00 FF F7 5F 16 03
 (001.257889)  can0  0CF00C03   [8]  EA 03 62 16 FF FF FF FF
 (001.259799)  can0  0CF00300   [8]  D1 00 0B FF FF 0F 65 7E
 (001.260183)  can0  0CF00A00   [8]  2F 03 C9 05 FF FF FF FF
 (001.260876)  can0  18FEF000   [8]  FF FF FF A1 16 FF FF FF
 (001.261433)  can0  18F00E00   [8]  44 27 FF FF D5 9F FF FF
 (001.264294)  can0  18F03300   [8]  FF FF FF FF FF FF FF FF
 (001.266670)  can0  0CF00400   [8]  20 7D 83 AC 16 00 0F 83
 (001.266680)  can0  1CEBFF00   [8]  02 00 09 08 ED 14 1F 01
 (001.267504)  can0  0CF00203   [8]  C0 00 00 FF F7 5C 16 03
 (001.270078)  can0  18FCF200   [8]  E1 FF FF FF FF FF FF FF
 (001.274543)  can0  18FEDF00   [8]  84 A0 28 7D 7D FF FF F5
 (001.274846)  can0  18FDC600   [8]  FC 04 FF FF FF FF FF FF
 (001.275443)  can0  18F00F00   [8]  6C 0F FF FF D5 9F FF FF
 (001.277987)  can0  0CF00203   [8]  C0 00 00 FF F7 5C 16 03
 (001.277998)  can0  0CF00C03   [8]  EB 03 B5 16 FF FF FF FF
 (001.278508)  can0  18F00503   [8]  7D 00 00 7D 4E 20 4E 43
 (001.279105)  can0  18FE4A03   [8]  03 1F 4F FF FF F3 FF FF
 (001.279687)  can0  0CF00300   [8]  D1 00 0B FF FF 0F 64 7E
 (001.280267)  can0  18FEF100   [8]  FF 00 00 FC FF 68 00 CF
 (001.286135)  can0  0CF00400   [8]  10 7D 83 BC 16 00 0F 83
 (001.286840)  can0  18F00131   [8]  FF FF FF 3F 00 FF FF FF
 (001.287438)  can0  0CF00203   [8]  C0 00 00 FF F7 57 16 03
 (001.287984)  can0  18FEF131   [8]  F3 FF FF C3 CC FF FF F0
 (001.288553)  can0  18FEF031   [8]  FF FF FF FF FF FC CC FF
 (001.289153)  can0  18FF4831   [8]  00 00 FF FF 00 00 00 00
 (001.289773)  can0  10FDA300   [8]  FF FF 14 FF FF FF FF FF
 (001.290340)  can0  18FEF231   [8]  FF FF FF FF FF FF FF FF
 (001.290894)  can0  18F00029   [8]  F0 7D 7D F3 29 FF FF 3C
 (001.291495)  can0  0CF00331   [8]  FF FF FF FF FF FF FF FF
 (001.294417)  can0  18FEDF00   [8]  84 A0 28 7D 7D FF FF F5
 (001.297254)  can0  0CF00203   [8]  C0 00 00 FF F7 57 16 03
 (001.297895)  can0  0C010305   [8]  FF FF FF FF FF F3 FF FF
 (001.298429)  can0  0CF00C03   [8]  EE 03 F4 16 FF FF FF FF
 (001.300238)  can0  18FCDC00   [8]  9F FF FF FF 50 68 00 00
 (001.300248)  can0  0CF00300   [8]  D1 00 0B FF FF 0F 64 7E
 (001.300729)  can0  1CFE9200   [8]  FF 70 8E FF FF FF 00 00
 (001.306870)  can0  0CF00400   [8]  00 7D 83 C1 16 00 0F 83
 (001.307275)  can0  0CF00203   [8]  C0 00 00 FF F7 59 16 03
 (001.309477)  can0  0CF00A00   [8]  2F 03 D2 05 FF FF FF FF
 (001.309829)  can0  18FD9400   [8]  30 12 FF FF FF FF FF FF
 (001.310511)  can0  18F00E00   [8]  52 27 FF FF D5 9F FF FF
 (001.314331)  can0  18F03300   [8]  FF FF FF FF FF FF FF FF
 (001.314897)  can0  18FEDF00   [8]  84 A0 28 7D 7D FF FF F5
 (001.317279)  can0  0CF00203   [8]  C0 00 00 FF F7 59 16 03
 (001.317851)  can0  0CF00C03   [8]  EA 03 AD 16 FF FF FF FF
 (001.319612)  can0  18FEE000   [8]  00 00 00 00 15 96 35 00
 (001.320193)  can0  0CF00300   [8]  D1 00 0A FF FF 0F 65 7E
 (001.324534)  can0  18FEF200   [8]  0C 00 00 00 00 00 E1 FF
 (001.324890)  can0  18F00F00   [8]  6C 0F FF FF D5 9F FF FF
 (001.326218)  can0  0CF00400   [8]  00 7D 83 B7 16 00 0F 83
 (001.326694)  can0  18F0010B   [8]  CF FF F0 FF FF CD FF FF
 (001.327454)  can0  0CF00203   [8]  C0 00 00 FF F7 5B 16 03
 (001.334718)  can0  18FEDF00   [8]  84 A0 28 7D 7D FF FF F5
 (001.334863)  can0  10FCFD00   [8]  FF FF FF FF 00 32 FF FF
 (001.337173)  can0  18FEBF0B   [8]  00 00 7D 7D 7D 7D FF FF
 (001.337183)  can0  0CF00331   [8]  FF FF FF FF FF FF FF FF
 (001.337788)  can0  0CF00203   [8]  C0 00 00 FF F7 5B 16 03
 (001.338472)  can0  0CF00C03   [8]  E9 03 58 16 FF FF FF FF
 (001.339760)  can0  0CF00300   [8]  D1 00 0A FF FF 0F 65 7E
 (001.344282)  can0  18F00100   [8]  FF FF FF FF FF FF FF FF
 (001.346112)  can0  0CF00400   [8]  10 7D 83 AB 16 00 0F 83
 (001.347300)  can0  0CF00203   [8]  C0 00 00 FF F7 61 16 03
 (001.347901)  can0  0C010305   [8]  FF FF FF FF FF F3 FF FF
 (001.354561)  can0  18FEDF00   [8]  84 A0 28 7D 7D FF FF F5
 (001.357772)  can0  0CF00203   [8]  C0 00 00 FF F7 61 16 03
 (001.357833)  can0  0CF00C03   [8]  ED 03 BE 16 FF FF FF FF
 (001.359633)  can0  0CF00300   [8]  D1 00 0B FF FF 0F 65 7E
 (001.360232)  can0  0CF00A00   [8]  2F 03 E5 05 FF FF FF FF
 (001.360811)  can0  18FEF000   [8]  FF FF FF B5 16 FF FF FF
 (001.361380)  can0  18F00E00   [8]  44 27 FF FF D5 9F FF FF
 (001.364335)  can0  18F03300   [8]  FF FF FF FF FF FF FF FF
 (001.366643)  can0  0CF00400   [8]  30 7D 83 93 16 00 0F 83
 (001.367426)  can0  0CF00203   [8]  C0 00 00 FF F7 5F 16 03
 (001.369853)  can0  18FCF200   [8]  E1 FF FF FF FF FF FF FF
 (001.374418)  can0  18FEDF00   [8]  84 A0 28 7D 7D FF FF F5
 (001.374853)  can0  18F00F00   [8]  6C 0F FF FF D5 9F FF FF
 (001.377980)  can0  0CF00203   [8]  C0 00 00 FF F7 5F 16 03
 (001.377990)  can0  0CF00C03   [8]  EB 03 DB 16 FF FF FF FF
 (001.378504)  can0  18F00503   [8]  7D 00 00 7D 4E 20 4E 43
 (001.379105)  can0  18FE4A03   [8]  03 1F 4F FF FF F3 FF FF
 (001.379700)  can0  0CF00300   [8]  D1 00 0B FF FF 0F 65 7E
 (001.380277)  can0  18FD9503   [8]  CC FF FF AF FF FF FF FF
 (001.380851)  can0  18FEF100   [8]  FF 00 00 FC FF 68 00 CF
 (001.381425)  can0  18FEF803   [8]  FF FF FF FF BB 2B FF FF
 (001.386531)  can0  0CF00400   [8]  30 7D 83 99 16 00 0F 83
 (001.386804)  can0  18F00131   [8]  FF FF FF 3F 00 FF FF FF
 (001.387555)  can0  0CF00203   [8]  C0 00 00 FF F7 5C 16 03
 (001.387907)  can0  18FEF131   [8]  F3 FF FF C3 CC FF FF F0
 (001.389369)  can0  18FEF031   [8]  FF FF FF FF FF FC CC FF
 (001.389379)  can0  18FF4831   [8]  00 00 FF FF 00 00 00 00
 (001.389691)  can0  10FDA300   [8]  FF FF 14 FF FF FF FF FF
 (001.390334)  can0  18FEF231   [8]  FF FF FF FF FF FF FF FF
 (001.390852)  can0  18F00029   [8]  F0 7D 7D F3 29 FF FF 3C
 (001.391458)  can0  0CF00331   [8]  FF FF FF FF FF FF FF FF
 (001.394584)  can0  18FEDF00   [8]  84 A0 28 7D 7D FF FF F5
 (001.397260)  can0  0CF00203   [8]  C0 00 00 FF F7 5C 16 03
 (001.397853)  can0  0C010305   [8]  FF FF FF FF FF F3 FF FF
 (001.398421)  can0  0CF00C03   [8]  EA 03 67 16 FF FF FF FF
 (001.400185)  can0  18FCDC00   [8]  9F FF FF FF 50 68 00 00
 (001.400196)  can0  0CF00300   [8]  D1 00 0B FF FF 0F 67 7E
 (001.400712)  can0  1CFE9200   [8]  FF 44 8E FF FF FF 00 00
 (001.406505)  can0  0CF00400   [8]  30 7D 83 99 16 00 0F 83
 (001.407745)  can0  0CF00203   [8]  C0 00 00 FF F7 58 16 03
 (001.407967)  can0  18FECA03   [8]  00 FF 00 00 00 00 FF FF
 (001.409509)  can0  0CF00A00   [8]  26 03 D2 05 FF FF FF FF
 (001.409835)  can0  18FD9400   [8]  30 12 FF FF FF FF FF FF
 (001.410416)  can0  18F00E00   [8]  44 27 FF FF D5 9F FF FF
 (001.414386)  can0  18F03300   [8]  FF FF FF FF FF FF FF FF
 (001.414933)  can0  18FEDF00   [8]  84 A0 28 7D 7D FF FF F5
 (001.417273)  can0  0CF00203   [8]  C0 00 00 FF F7 58 16 03
 (001.417869)  can0  0CF00C03   [8]  E9 03 74 16 FF FF FF FF
 (001.419680)  can0  18FEE000   [8]  00 00 00 00 15 96 35 00
 (001.420233)  can0  0CF00300   [8]  D1 00 0B FF FF 0F 67 7E
 (001.424535)  can0  18FEF200   [8]  12 00 00 00 00 00 E1 FF
 (001.424813)  can0  18F00F00   [8]  6C 0F FF FF D5 9F FF FF
 (001.426282)  can0  0CF00400   [8]  30 7D 83 A3 16 00 0F 83
 (001.426779)  can0  18F0010B   [8]  CF FF F0 FF FF CD FF FF
 (001.427382)  can0  0CF00203   [8]  C0 00 00 FF F7 57 16 03
 (001.434848)  can0  18FEDF00   [8]  84 A0 28 7D 7D FF FF F5
 (001.434863)  can0  10FCFD00   [8]  FF FF FF FF 00 32 FF FF
 (001.435458)  can0  0CFD9200   [8]  F4 FF FA FF FF FF FF FF
 (001.436966)  can0  0CF00331   [8]  FF FF FF FF FF FF FF FF
 (001.437302)  can0  0CF00203   [8]  C0 00 00 FF F7 57 16 03
 (001.438650)  can0  18FEBF0B   [8]  00 00 7D 7D 7D 7D FF FF
 (001.438656)  can0  0CF00C03   [8]  ED 03 DF 16 FF FF FF FF
 (001.439719)  can0  0CF00300   [8]  D1 00 0B FF FF 0F 65 7E
 (001.444571)  can0  18F00100   [8]  FF FF FF FF FF FF FF FF
 (001.446088)  can0  0CF00400   [8]  20 7D 83 AA 16 00 0F 83
 (001.447260)  can0  0CF00203   [8]  C0 00 00 FF F7 52 16 03
 (001.447828)  can0  0C010305   [8]  FF FF FF FF FF F3 FF FF
 (001.454340)  can0  18FEDF00   [8]  84 A0 28 7D 7D FF FF F5
 (001.457701)  can0  0CF00203   [8]  C0 00 00 FF F7 52 16 03
 (001.457882)  can0  0CF00C03   [8]  EA 03 D4 16 FF FF FF FF
 (001.459710)  can0  0CF00300   [8]  D1 00 0B FF FF 0F 65 7E
 (001.460310)  can0  0CF00A00   [8]  1C 03 EE 05 FF FF FF FF
 (001.460889)  can0  18FEF000   [8]  FF FF FF A3 16 FF FF FF
 (001.461463)  can0  18F00E00   [8]  44 27 FF FF D5 9F FF FF
 (001.464688)  can0  18F03300   [8]  FF FF FF FF FF FF FF FF
 (001.466729)  can0  0CF00400   [8]  10 7D 83 BA 16 00 0F 83
 (001.467443)  can0  0CF00203   [8]  C0 00 00 FF F7 4F 16 03
 (001.469869)  can0  18FCF200   [8]  E1 FF FF FF FF FF FF FF
 (001.474560)  can0  18FEDF00   [8]  84 A0 28 7D 7D FF FF F5
 (001.474853)  can0  18F00F00   [8]  6C 0F FF FF D5 9F FF FF
 (001.477448)  can0  0CF00203   [8]  C0 00 00 FF F7 4F 16 03
 (001.477836)  can0  0CF00C03   [8]  E9 03 7E 16 FF FF FF FF
 (001.478436)  can0  18F00503   [8]  7D 00 00 7D 4E 20 4E 43
 (001.479058)  can0  18FE4A03   [8]  03 1F 4F FF FF F3 FF FF
 (001.479635)  can0  0CF00300   [8]  D1 00 0B FF FF 0F 66 7E
 (001.480208)  can0  18FEF100   [8]  FF 00 00 FC FF 68 00 CF
 (001.486160)  can0  0CF00400   [8]  00 7D 83 B9 16 00 0F 83
 (001.486843)  can0  18F00131   [8]  FF FF FF 3F 00 FF FF FF
 (001.487383)  can0  0CF00203   [8]  C0 00 00 FF F7 51 16 03
 (001.487988)  can0  18FEF131   [8]  F3 FF FF C3 CC FF FF F0
 (001.489340)  can0  18FEF031   [8]  FF FF FF FF FF FC CC FF
 (001.489371)  can0  18FF4831   [8]  00 00 FF FF 00 00 00 00
 (001.489684)  can0  10FDA300   [8]  FF FF 15 FF FF FF FF FF
 (001.490355)  can0  18FEF231   [8]  FF FF FF FF FF FF FF FF
 (001.490893)  can0  18F00029   [8]  F0 7D 7D F3 29 FF FF 3C
 (001.491459)  can0  0CF00331   [8]  FF FF FF FF FF FF FF FF
 (001.494735)  can0  18FEDF00   [8]  84 A0 28 7D 7D FF FF F5
 (001.497472)  can0  0CF00203   [8]  C0 00 00 FF F7 51 16 03
 (001.497848)  can0  0C010305   [8]  FF FF FF FF FF F3 FF FF
 (001.498459)  can0  0CF00C03   [8]  EF 03 AF 16 FF FF FF FF
 (001.500034)  can0  18FCDC00   [8]  9F FF FF FF 50 68 00 00
 (001.500235)  can0  0CF00300   [8]  D1 00 0A FF FF 0F 66 7E
 (001.500905)  can0  1CFE9200   [8]  FF F0 8E FF FF FF 00 00
 (001.506882)  can0  0CF00400   [8]  20 7D 83 A9 16 00 0F 83
 (001.507286)  can0  0CF00203   [8]  C0 00 00 FF F7 58 16 03
 (001.509342)  can0  14FC9800   [8]  FF 00 00 00 00 00 00 FF
 (001.509824)  can0  0CF00A00   [8]  1C 03 DC 05 FF FF FF FF
 (001.510424)  can0  18FD9400   [8]  96 0F FF FF FF FF FF FF
 (001.510970)  can0  18F00E00   [8]  44 27 FF FF D5 9F FF FF
 (001.514426)  can0  18F03300   [8]  FF FF FF FF FF FF FF FF
 (001.515033)  can0  18FEDF00   [8]  84 A0 28 7D 7D FF FF F5
 (001.517264)  can0  0CF00203   [8]  C0 00 00 FF F7 58 16 03
 (001.517859)  can0  0CF00C03   [8]  EE 03 D6 16 FF FF FF FF
 (001.520236)  can0  18FEE000   [8]  00 00 00 00 15 96 35 00
 (001.520246)  can0  0CF00300   [8]  D1 00 0B FF FF 0F 65 7E
 (001.524518)  can0  18FDB400   [8]  2C 37 80 38 FF FF FF FF
 (001.524869)  can0  18FEF200   [8]  11 00 00 00 00 00 E1 FF
 (001.525530)  can0  18F00F00   [8]  6C 0F FF FF D5 9F FF FF
 (001.526785)  can0  0CF00400   [8]  30 7D 83 97 16 00 0F 83
 (001.527060)  can0  18F0010B   [8]  CF FF F0 FF FF CD FF FF
 (001.527608)  can0  0CF00203   [8]  C0 00 00 FF F7 59 16 03
 (001.528183)  can0  18FECA31   [8]  00 FF 00 00 00 00 FF FF
 (001.528821)  can0  18F11031   [8]  00 00 FF FF FF FF FF FF
 (001.534906)  can0  18FEDF00   [8]  84 A0 28 7D 7D FF FF F5
 (001.534916)  can0  10FCFD00   [8]  FF FF FF FF 00 32 FF FF
 (001.537322)  can0  0CF00331   [8]  FF FF FF FF FF FF FF FF
 (001.537331)  can0  0CF00203   [8]  C0 00 00 FF F7 59 16 03
 (001.537969)  can0  18FEBF0B   [8]  00 00 7D 7D 7D 7D FF FF
 (001.538481)  can0  0CF00C03   [8]  E9 03 96 16 FF FF FF FF
 (001.539881)  can0  0CF00300   [8]  D1 00 0B FF FF 0F 64 7E
 (001.544259)  can0  18F00100   [8]  FF FF FF FF FF FF FF FF
 (001.546103)  can0  0CF00400   [8]  40 7D 83 9C 16 00 0F 84
 (001.547299)  can0  0CF00203   [8]  C0 00 00 FF F7 55 16 03
 (001.547875)  can0  0C010305   [8]  FF FF FF FF FF F3 FF FF
 (001.549304)  can0  18FDB300   [8]  FF FF 40 3B FF FF FF FF
 (001.554880)  can0  18FEDF00   [8]  84 A0 28 7D 7D FF FF F5
 (001.557876)  can0  0CF00203   [8]  C0 00 00 FF F7 55 16 03
 (001.557886)  can0  0CF00C03   [8]  E9 03 58 16 FF FF FF FF
 (001.559714)  can0  0CF00300   [8]  D1 00 0C FF FF 0F 65 7E
 (001.560282)  can0  0CF00A00   [8]  EE 02 0A 06 FF FF FF FF
 (001.560882)  can0  18FEF000   [8]  FF FF FF 95 16 FF FF FF
 (001.561467)  can0  18F00E00   [8]  44 27 FF FF D5 9F FF FF
 (001.564631)  can0  18F03300   [8]  FF FF FF FF FF FF FF FF
 (001.566706)  can0  0CF00400   [8]  30 7D 83 9C 16 00 0F 83
 (001.568141)  can0  0CF00203   [8]  C0 00 00 FF F7 54 16 03
 (001.569762)  can0  18FDB200   [8]  FF FF FF FF 02 00 FF FF
 (001.569813)  can0  18FCF200   [8]  E1 FF FF FF FF FF FF FF
 (001.574504)  can0  18FEDF00   [8]  84 A0 28 7D 7D FF FF F5
 (001.574828)  can0  18F00F00   [8]  6C 0F FF FF D5 9F FF FF
 (001.577202)  can0  0CF00203   [8]  C0 00 00 FF F7 54 16 03
 (001.577823)  can0  0CF00C03   [8]  EE 03 D5 16 FF FF FF FF
 (001.578485)  can0  18F00503   [8]  7D 00 00 7D 4E 20 4E 43
 (001.579097)  can0  18FE4A03   [8]  03 1F 4F FF FF F3 FF FF
 (001.579700)  can0  0CF00300   [8]  D1 00 0B FF FF 0F 66 7E
 (001.580304)  can0  18FEF100   [8]  FF 00 00 FC FF 68 00 CF
 (001.586453)  can0  0CF00400   [8]  30 7D 83 A6 16 00 0F 83
 (001.586793)  can0  18F00131   [8]  FF FF FF 3F 00 FF FF FF
 (001.587380)  can0  0CF00203   [8]  C0 00 00 FF F7 55 16 03
 (001.587959)  can0  18FEF131   [8]  F3 FF FF C3 CC FF FF F0
 (001.588560)  can0  18FEF031   [8]  FF FF FF FF FF FC CC FF
 (001.589292)  can0  18FF4831   [8]  00 00 FF FF 00 00 00 00
 (001.589672)  can0  10FDA300   [8]  FF FF 14 FF FF FF FF FF
 (001.590716)  can0  18FEF231   [8]  FF FF FF FF FF FF FF FF
 (001.590880)  can0  18F00029   [8]  F0 7D 7D F3 29 FF FF 3C
 (001.591456)  can0  0CF00331   [8]  FF FF FF FF FF FF FF FF
 (001.594640)  can0  18FD8C00   [8]  FF FF 01 00 FF FF FF FF
 (001.594968)  can0  18FEDF00   [8]  84 A0 28 7D 7D FF FF F5
 (001.598094)  can0  0CF00203   [8]  C0 00 00 FF F7 55 16 03
 (001.598104)  can0  0C010305   [8]  FF FF FF FF FF F3 FF FF
 (001.598426)  can0  0CF00C03   [8]  EC 03 E0 16 FF FF FF FF
 (001.599815)  can0  18FCDC00   [8]  9F FF FF FF 50 68 00 00
 (001.600154)  can0  0CF00300   [8]  D1 00 0B FF FF 0F 65 7E
 (001.600807)  can0  1CFE9200   [8]  FF 40 8F FF FF FF 00 00
 (001.606377)  can0  0CF00400   [8]  20 7D 83 A7 16 00 0F 83
 (001.607253)  can0  0CF00203   [8]  C0 00 00 FF F7 51 16 03
 (001.609253)  can0  0CF00A00   [8]  E4 02 27 06 FF FF FF FF
 (001.609820)  can0  18FD9400   [8]  96 0F FF FF FF FF FF FF
 (001.610461)  can0  18F00E00   [8]  44 27 FF FF D5 9F FF FF
 (001.614455)  can0  18FD2000   [8]  2C 37 FF FF FF FF FF FF
 (001.615012)  can0  18F03300   [8]  FF FF FF FF FF FF FF FF
 (001.615582)  can0  18FEDF00   [8]  84 A0 28 7D 7D FF FF F5
 (001.617914)  can0  0CF00203   [8]  C0 00 00 FF F7 51 16 03
 (001.617923)  can0  0CF00C03   [8]  E9 03 60 16 FF FF FF FF
 (001.619928)  can0  18FEE000   [8]  00 00 00 00 15 96 35 00
 (001.620243)  can0  0CF00300   [8]  D1 00 0B FF FF 0F 65 7E
 (001.624313)  can0  18FEF200   [8]  0D 00 00 00 00 00 E1 FF
 (001.624884)  can0  18F00F00   [8]  6C 0F FF FF D5 9F FF FF
 (001.626556)  can0  0CF00400   [8]  20 7D 83 B5 16 00 0F 83
 (001.627249)  can0  18F0010B   [8]  CF FF F0 FF FF CD FF FF
 (001.627806)  can0  0CF00203   [8]  C0 00 00 FF F7 4F 16 03
 (001.634886)  can0  18FEDF00   [8]  84 A0 28 7D 7D FF FF F5
 (001.634899)  can0  10FCFD00   [8]  FF FF FF FF 00 32 FF FF
 (001.637325)  can0  0CF00331   [8]  FF FF FF FF FF FF FF FF
 (001.637333)  can0  0CF00203   [8]  C0 00 00 FF F7 4F 16 03
 (001.637975)  can0  18FEBF0B   [8]  00 00 7D 7D 7D 7D FF FF
 (001.638515)  can0  0CF00C03   [8]  EB 03 93 16 FF FF FF FF
 (001.639728)  can0  18FD3E00   [8]  83 3D FF 93 3F FF FF FF
 (001.640312)  can0  0CF00300   [8]  D1 00 0B FF FF 0F 65 7E
 (001.644423)  can0  18F00100   [8]  FF FF FF FF FF FF FF FF
 (001.646205)  can0  0CF00400   [8]  10 7D 83 B7 16 00 0F 83
 (001.647309)  can0  0CF00203   [8]  C0 00 00 FF F7 55 16 03
 (001.647890)  can0  0C010305   [8]  FF FF FF FF FF F3 FF FF
 (001.654518)  can0  18FEDF00   [8]  84 A0 28 7D 7D FF FF F5
 (001.657263)  can0  0CF00203   [8]  C0 00 00 FF F7 55 16 03
 (001.657832)  can0  0CF00C03   [8]  F0 03 ED 16 FF FF FF FF
 (001.660118)  can0  18FD4000   [8]  FF 3F 00 FF FF FF FF FF
 (001.660301)  can0  0CF00300   [8]  D1 00 0B FF FF 0F 66 7E
 (001.661601)  can0  0CF00A00   [8]  E4 02 14 06 FF FF FF FF
 (001.661609)  can0  18FEF000   [8]  FF FF FF B9 16 FF FF FF
 (001.662020)  can0  18F00E00   [8]  3A 27 FF FF D5 9F FF FF
 (001.664645)  can0  18F03300   [8]  FF FF FF FF FF FF FF FF
 (001.666265)  can0  0CF00400   [8]  20 7D 83 AF 16 00 0F 83
 (001.667877)  can0  0CF00203   [8]  C0 00 00 FF F7 5A 16 03
 (001.669395)  can0  18FCF200   [8]  E1 FF FF FF FF FF FF FF
 (001.674312)  can0  18FEDF00   [8]  84 A0 28 7D 7D FF FF F5
 (001.674883)  can0  18F00F00   [8]  6C 0F FF FF D5 9F FF FF
 (001.677260)  can0  0CF00203   [8]  C0 00 00 FF F7 5A 16 03
 (001.677864)  can0  0CF00C03   [8]  EB 03 B6 16 FF FF FF FF
 (001.678476)  can0  18F00503   [8]  7D 00 00 7D 4E 20 4E 43
 (001.679098)  can0  18FE4A03   [8]  03 1F 4F FF FF F3 FF FF
 (001.679676)  can0  0CF00300   [8]  D1 00 0B FF FF 0F 65 7E
 (001.680279)  can0  18FEF100   [8]  FF 00 00 FC FF 68 00 CF
 (001.684384)  can0  18FCC500   [8]  83 3D FF FF FF FF FF FF
 (001.684958)  can0  0CFD9200   [8]  F4 FF FA FF FF FF FF FF
 (001.686337)  can0  0CF00400   [8]  30 7D 83 97 16 00 0F 83
 (001.686823)  can0  18F00131   [8]  FF FF FF 3F 00 FF FF FF
 (001.687381)  can0  0CF00203   [8]  C0 00 00 FF F7 5B 16 03
 (001.687963)  can0  18E0FF31   [8]  00 FF FF FF FF F0 FF FF
 (001.688589)  can0  18FEF131   [8]  F3 FF FF C3 CC FF FF F0
 (001.689172)  can0  18FEF031   [8]  FF FF FF FF FF FC CC FF
 (001.689794)  can0  10FDA300   [8]  FF FF 14 FF FF FF FF FF
 (001.690332)  can0  18FEFC31   [8]  FF 75 FF FF FF FF 00 FF
 (001.690857)  can0  18F00029   [8]  F0 7D 7D F3 29 FF FF 3C
 (001.691432)  can0  18FEAE31   [8]  FF FF 6B 6B FF FF FF FF
 (001.691957)  can0  18FEF731   [8]  FF FF FF FF 1A 01 FF FF
 (001.692555)  can0  18FF4831   [8]  00 00 FF FF 00 00 00 00
 (001.693154)  can0  18FD8331   [8]  F8 FF FF FF FF FF FF FF
 (001.694669)  can0  18FEF831   [8]  FF FF FF FF FF FF FF FF
 (001.694680)  can0  18FEF231   [8]  FF FF FF FF FF FF FF FF
 (001.694966)  can0  18FEDF00   [8]  84 A0 28 7D 7D FF FF F5
 (001.696371)  can0  18FEFA31   [8]  FF D6 D6 FF FF FF FF FF
 (001.696381)  can0  18FEC131   [8]  2F 42 67 06 FF FF FF FF
 (001.696680)  can0  0CF00331   [8]  FF FF FF FF FF FF FF FF
 (001.697382)  can0  0CF00203   [8]  C0 00 00 FF F7 5B 16 03
 (001.697874)  can0  0C010305   [8]  FF FF FF FF FF F3 FF FF
 (001.698486)  can0  0CF00C03   [8]  E9 03 42 16 FF FF FF FF
 (001.700026)  can0  18FCDC00   [8]  9F FF FF FF 50 68 00 00
 (001.700438)  can0  0CF00300   [8]  D1 00 0B FF FF 0F 65 7E
 (001.701051)  can0  1CFE9200   [8]  FF C4 8F FF FF FF 00 00
 (001.706103)  can0  0CF00400   [8]  60 7D 83 8F 16 00 0F 84
 (001.707301)  can0  0CF00203   [8]  C0 00 00 FF F7 58 16 03
 (001.709328)  can0  0CF00A00   [8]  EE 02 14 06 FF FF FF FF
 (001.709934)  can0  18FD9400   [8]  30 12 FF FF FF FF FF FF
 (001.710495)  can0  18FEEF00   [8]  FF FF FF 1E 3F 7D FF FA
 (001.711119)  can0  18F00E00   [8]  3A 27 FF FF D5 9F FF FF
 (001.714384)  can0  18F03300   [8]  FF FF FF FF FF FF FF FF
 (001.714978)  can0  18FEDF00   [8]  84 A0 28 7D 7D FF FF F5
 (001.717317)  can0  0CF00203   [8]  C0 00 00 FF F7 58 16 03
 (001.717901)  can0  0CF00C03   [8]  EB 03 9F 16 FF FF FF FF
 (001.720141)  can0  18FEE000   [8]  00 00 00 00 15 96 35 00
 (001.720151)  can0  0CF00300   [8]  D1 00 0C FF FF 0F 65 7E
 (001.724506)  can0  18FEF200   [8]  12 00 00 00 00 00 E1 FF
 (001.724883)  can0  18F00F00   [8]  76 0F FF FF D5 9F FF FF
 (001.726362)  can0  0CF00400   [8]  40 7D 83 9F 16 00 0F 83
 (001.727932)  can0  0CF00203   [8]  C0 00 00 FF F7 57 16 03
 (001.727942)  can0  18F0010B   [8]  CF FF F0 FF FF CD FF FF
 (001.729528)  can0  18FEDB00   [8]  FF FF 37 31 FF FF FF FF
 (001.734866)  can0  18FEDF00   [8]  84 A0 28 7D 7D FF FF F5
 (001.734915)  can0  10FCFD00   [8]  FF FF FF FF 00 32 FF FF
 (001.736780)  can0  0CF00331   [8]  FF FF FF FF FF FF FF FF
 (001.737349)  can0  0CF00203   [8]  C0 00 00 FF F7 57 16 03
 (001.737928)  can0  18FEBF0B   [8]  00 00 7D 7D 7D 7D FF FF
 (001.738499)  can0  0CF00C03   [8]  EC 03 CA 16 FF FF FF FF
 (001.739776)  can0  0CF00300   [8]  D1 00 0C FF FF 0F 66 7E
 (001.744332)  can0  18F00100   [8]  FF FF FF FF FF FF FF FF
 (001.746145)  can0  0CF00400   [8]  40 7D 83 A1 16 00 0F 83
 (001.747318)  can0  0CF00203   [8]  C0 00 00 FF F7 53 16 03
 (001.747888)  can0  0C010305   [8]  FF FF FF FF FF F3 FF FF
 (001.749886)  can0  18FEF600   [8]  FF 00 65 FF FF FF FF FF
 (001.754466)  can0  18FEDF00   [8]  84 A0 28 7D 7D FF FF F5
 (001.757734)  can0  0CF00203   [8]  C0 00 00 FF F7 53 16 03
 (001.757821)  can0  0CF00C03   [8]  EA 03 9E 16 FF FF FF FF
 (001.759899)  can0  0CF00300   [8]  D1 00 0C FF FF 0F 65 7E
 (001.760216)  can0  0CF00A00   [8]  EE 02 0A 06 FF FF FF FF
 (001.760935)  can0  18FEF000   [8]  FF FF FF 9E 16 FF FF FF
 (001.761425)  can0  18F00E00   [8]  2E 27 FF FF D5 9F FF FF
 (001.764735)  can0  18F03300   [8]  FF FF FF FF FF FF FF FF
 (001.766380)  can0  0CF00400   [8]  30 7D 83 A5 16 00 0F 83
 (001.768110)  can0  0CF00203   [8]  C0 00 00 FF F7 50 16 03
 (001.769309)  can0  18FCF200   [8]  E1 FF FF FF FF FF FF FF
 (001.774350)  can0  18FEDF00   [8]  84 A0 28 7D 7D FF FF F5
 (001.774927)  can0  18FDC600   [8]  FC 04 FF FF FF FF FF FF
 (001.775527)  can0  18F00F00   [8]  76 0F FF FF D5 9F FF FF
 (001.777415)  can0  0CF00203   [8]  C0 00 00 FF F7 50 16 03
 (001.777823)  can0  0CF00C03   [8]  E9 03 66 16 FF FF FF FF
 (001.778480)  can0  18F00503   [8]  7D 00 00 7D 4E 20 4E 43
 (001.779109)  can0  18FE4A03   [8]  03 1F 4F FF FF F3 FF FF
 (001.779759)  can0  0CF00300   [8]  D1 00 0B FF FF 0F 64 7E
 (001.780323)  can0  18FEF100   [8]  FF 00 00 FC FF 68 00 CF
 (001.786317)  can0  0CF00400   [8]  30 7D 83 B2 16 00 0F 83
 (001.786819)  can0  18F00131   [8]  FF FF FF 3F 00 FF FF FF
 (001.787454)  can0  0CF00203   [8]  C0 00 00 FF F7 4E 16 03
 (001.787970)  can0  18FEF131   [8]  F3 FF FF C3 CC FF FF F0
 (001.788481)  can0  18FEF031   [8]  FF FF FF FF FF FC CC FF
 (001.789280)  can0  18FF4831   [8]  00 00 FF FF 00 00 00 00
 (001.789720)  can0  10FDA300   [8]  FF FF 14 FF FF FF FF FF
 (001.790340)  can0  18FEF231   [8]  FF FF FF FF FF FF FF FF
 (001.790878)  can0  18F00029   [8]  F0 7D 7D F3 29 FF FF 3C
 (001.791410)  can0  0CF00331   [8]  FF FF FF FF FF FF FF FF
 (001.794902)  can0  18FEDF00   [8]  84 A0 28 7D 7D FF FF F5
 (001.798058)  can0  0CF00203   [8]  C0 00 00 FF F7 4E 16 03
 (001.798067)  can0  0C010305   [8]  FF FF FF FF FF F3 FF FF
 (001.798428)  can0  0CF00C03   [8]  EF 03 D8 16 FF FF FF FF
 (001.799732)  can0  18FCDC00   [8]  9F FF FF FF 50 68 00 00
 (001.800243)  can0  0CF00300   [8]  D1 00 0B FF FF 0F 64 7E
 (001.800808)  can0  1CFE9200   [8]  FF E8 8F FF FF FF 00 00
 (001.806176)  can0  0CF00400   [8]  20 7D 83 B3 16 00 0F 83
 (001.807308)  can0  0CF00203   [8]  C0 00 00 FF F7 51 16 03
 (001.809339)  can0  0CF00A00   [8]  EE 02 0A 06 FF FF FF FF
 (001.809935)  can0  18FD9400   [8]  30 12 FF FF FF FF FF FF
 (001.810518)  can0  18F00E00   [8]  2E 27 FF FF D5 9F FF FF
 (001.814427)  can0  18F03300   [8]  FF FF FF FF FF FF FF FF
 (001.815030)  can0  18FEDF00   [8]  84 A0 28 7D 7D FF FF F5
 (001.817378)  can0  0CF00203   [8]  C0 00 00 FF F7 51 16 03
 (001.817861)  can0  0CF00C03   [8]  EC 03 C5 16 FF FF FF FF
 (001.819873)  can0  18FEF700   [8]  FF FF FF FF 19 01 FF FF
 (001.820258)  can0  18FEE000   [8]  00 00 00 00 15 96 35 00
 (001.821675)  can0  0CF00300   [8]  D1 00 0B FF FF 0F 65 7E
 (001.824502)  can0  18FEF200   [8]  0D 00 00 00 00 00 E1 FF
 (001.824914)  can0  18F00F00   [8]  76 0F FF FF D5 9F FF FF
 (001.826390)  can0  0CF00400   [8]  20 7D 83 AD 16 00 0F 83
 (001.827952)  can0  0CF00203   [8]  C0 00 00 FF F7 53 16 03
 (001.827963)  can0  18F0010B   [8]  CF FF F0 FF FF CD FF FF
 (001.834388)  can0  18FEDF00   [8]  84 A0 28 7D 7D FF FF F5
 (001.834935)  can0  10FCFD00   [8]  FF FF FF FF 00 32 FF FF
 (001.836817)  can0  0CF00331   [8]  FF FF FF FF FF FF FF FF
 (001.837355)  can0  0CF00203   [8]  C0 00 00 FF F7 53 16 03
 (001.837925)  can0  18FEBF0B   [8]  00 00 7D 7D 7D 7D FF FF
 (001.838508)  can0  0CF00C03   [8]  EA 03 73 16 FF FF FF FF
 (001.839753)  can0  18FEC100   [8]  17 A8 3B 05 00 00 00 00
 (001.840336)  can0  0CF00300   [8]  D1 00 0B FF FF 0F 64 7E
 (001.844398)  can0  18F00100   [8]  FF FF FF FF FF FF FF FF
 (001.846238)  can0  0CF00400   [8]  30 7D 83 A2 16 00 0F 83
 (001.847263)  can0  0CF00203   [8]  C0 00 00 FF F7 59 16 03
 (001.847910)  can0  0C010305   [8]  FF FF FF FF FF F3 FF FF
 (001.854884)  can0  18FEDF00   [8]  84 A0 28 7D 7D FF FF F5
 (001.857260)  can0  0CF00203   [8]  C0 00 00 FF F7 59 16 03
 (001.857808)  can0  0CF00C03   [8]  EC 03 7A 16 FF FF FF FF
 (001.859903)  can0  0CF00300   [8]  D1 00 0B FF FF 0F 64 7E
 (001.860297)  can0  0CF00A00   [8]  EE 02 1D 06 FF FF FF FF
 (001.860951)  can0  18FEF000   [8]  FF FF FF AD 16 FF FF FF
 (001.861485)  can0  18F00E00   [8]  2E 27 FF FF D5 9F FF FF
 (001.864745)  can0  18FE5600   [8]  97 42 FF FF 1F 1F 00 FF
 (001.864963)  can0  18F03300   [8]  FF FF FF FF FF FF FF FF
 (001.866341)  can0  0CF00400   [8]  50 7D 83 8C 16 00 0F 84
 (001.867311)  can0  0CF00203   [8]  C0 00 00 FF F7 58 16 03
 (001.869358)  can0  18FCF200   [8]  E1 FF FF FF FF FF FF FF
 (001.874384)  can0  18FEDF00   [8]  84 A0 28 7D 7D FF FF F5
 (001.874912)  can0  18F00F00   [8]  76 0F FF FF D5 9F FF FF
 (001.877449)  can0  0CF00203   [8]  C0 00 00 FF F7 58 16 03
 (001.877815)  can0  0CF00C03   [8]  ED 03 C6 16 FF FF FF FF
 (001.878486)  can0  18F00503   [8]  7D 00 00 7D 4E 20 4E 43
 (001.879100)  can0  18FE4A03   [8]  03 1F 4F FF FF F3 FF FF
 (001.879728)  can0  0CF00300   [8]  D1 00 0C FF FF 0F 65 7E
 (001.880307)  can0  18FEF100   [8]  FF 00 00 FC FF 68 00 CF
 (001.884824)  can0  18FD7B00   [8]  00 FF E0 B9 00 00 0D 56
 (001.886492)  can0  0CF00400   [8]  50 7D 83 92 16 00 0F 84
 (001.886842)  can0  18F00131   [8]  FF FF FF 3F 00 FF FF FF
 (001.887437)  can0  0CF00203   [8]  C0 00 00 FF F7 56 16 03
 (001.887985)  can0  18FEF131   [8]  F3 FF FF C3 CC FF FF F0
 (001.888561)  can0  18FEF031   [8]  FF FF FF FF FF FC CC FF
 (001.889201)  can0  18FF4831   [8]  00 00 FF FF 00 00 00 00
 (001.889753)  can0  10FDA300   [8]  FF FF 14 FF FF FF FF FF
 (001.890321)  can0  18FEF231   [8]  FF FF FF FF FF FF FF FF
 (001.890897)  can0  18F00029   [8]  F0 7D 7D F3 29 FF FF 3C
 (001.891452)  can0  0CF00331   [8]  FF FF FF FF FF FF FF FF
 (001.894566)  can0  18FEDF00   [8]  84 A0 28 7D 7D FF FF F5
 (001.897710)  can0  0CF00203   [8]  C0 00 00 FF F7 56 16 03
 (001.897780)  can0  0C010305   [8]  FF FF FF FF FF F3 FF FF
 (001.898717)  can0  0CF00C03   [8]  E9 03 86 16 FF FF FF FF
 (001.899703)  can0  18FCDC00   [8]  9F FF FF FF 50 68 00 00
 (001.900298)  can0  0CF00300   [8]  D1 00 0C FF FF 0F 66 7E
 (001.900880)  can0  1CFE9200   [8]  FF 6C 8F FF FF FF 00 00
 (001.906285)  can0  0CF00400   [8]  50 7D 83 9A 16 00 0F 84
 (001.907813)  can0  0CF00203   [8]  C0 00 00 FF F7 50 16 03
 (001.909501)  can0  0CF00A00   [8]  EE 02 01 06 FF FF FF FF
 (001.909956)  can0  18FD9400   [8]  30 12 FF FF FF FF FF FF
 (001.910584)  can0  18FEDD00   [8]  FF F0 0E FF FF FF FF FF
 (001.911108)  can0  18F00E00   [8]  2E 27 FF FF D5 9F FF FF
 (001.914463)  can0  18F03300   [8]  FF FF FF FF FF FF FF FF
 (001.914997)  can0  18FEDF00   [8]  84 A0 28 7D 7D FF FF F5
 (001.918126)  can0  0CF00203   [8]  C0 00 00 FF F7 50 16 03
 (001.918137)  can0  0CF00C03   [8]  EA 03 67 16 FF FF FF FF
 (001.919712)  can0  18FEE000   [8]  00 00 00 00 15 96 35 00
 (001.920259)  can0  0CF00300   [8]  D1 00 0C FF FF 0F 65 7E
 (001.924501)  can0  18FEF200   [8]  12 00 00 00 00 00 E1 FF
 (001.924930)  can0  18F00F00   [8]  76 0F FF FF D5 9F FF FF
 (001.926503)  can0  0CF00400   [8]  40 7D 83 A6 16 00 0F 83
 (001.928108)  can0  0CF00203   [8]  C0 00 00 FF F7 4F 16 03
 (001.928120)  can0  18F0010B   [8]  CF FF F0 FF FF CD FF FF
 (001.929668)  can0  18FEE400   [8]  FF 3F FC FC 00 7F FF FF
 (001.934389)  can0  18FEDF00   [8]  84 A0 28 7D 7D FF FF F5
 (001.934983)  can0  10FCFD00   [8]  FF FF FF FF 00 32 FF FF
 (001.935516)  can0  0CFD9200   [8]  F4 FF FA FF FF FF FF FF
 (001.936740)  can0  0CF00331   [8]  FF FF FF FF FF FF FF FF
 (001.937311)  can0  0CF00203   [8]  C0 00 00 FF F7 4F 16 03
 (001.937967)  can0  0CF00C03   [8]  ED 03 D2 16 FF FF FF FF
 (001.938536)  can0  18FEBF0B   [8]  00 00 7D 7D 7D 7D FF FF
 (001.940378)  can0  0CF00300   [8]  D1 00 0B FF FF 0F 65 7E
 (001.944438)  can0  18F00100   [8]  FF FF FF FF FF FF FF FF
 (001.946185)  can0  0CF00400   [8]  30 7D 83 A9 16 00 0F 83
 (001.947262)  can0  0CF00203   [8]  C0 00 00 FF F7 4E 16 03
 (001.947842)  can0  0C010305   [8]  FF FF FF FF FF F3 FF FF
 (001.954876)  can0  18FEDF00   [8]  84 A0 28 7D 7D FF FF F5
 (001.957246)  can0  0CF00203   [8]  C0 00 00 FF F7 4E 16 03
 (001.957812)  can0  0CF00C03   [8]  EE 03 F5 16 FF FF FF FF
 (001.959944)  can0  0CF00300   [8]  D1 00 0B FF FF 0F 65 7E
 (001.960285)  can0  0CF00A00   [8]  EE 02 14 06 FF FF FF FF
 (001.961575)  can0  18FEF000   [8]  FF FF FF A0 16 FF FF FF
 (001.961585)  can0  18FEBD00   [8]  00 F0 FF FF FF FF FF FF
 (001.962068)  can0  18F00E00   [8]  2E 27 FF FF D5 9F FF FF
 (001.964428)  can0  18F03300   [8]  FF FF FF FF FF FF FF FF
 (001.966226)  can0  0CF00400   [8]  30 7D 83 B8 16 00 0F 83
 (001.967263)  can0  0CF00203   [8]  C0 00 00 FF F7 4D 16 03
 (001.969287)  can0  18FCF200   [8]  E1 FF FF FF FF FF FF FF
 (001.974523)  can0  18FEDF00   [8]  84 A0 28 7D 7D FF FF F5
 (001.974939)  can0  18E0FF00   [8]  00 FF FF FF FF FF FF FF
 (001.975556)  can0  18F00F00   [8]  6C 0F FF FF D5 9F FF FF
 (001.977379)  can0  0CF00203   [8]  C0 00 00 FF F7 4D 16 03
 (001.977832)  can0  0CF00C03   [8]  E9 03 89 16 FF FF FF FF
 (001.978461)  can0  18F00503   [8]  7D 00 00 7D 4E 20 4E 43
 (001.979035)  can0  18FE4A03   [8]  03 1F 4F FF FF F3 FF FF
 (001.979750)  can0  18FD0700   [8]  43 0C FC FF FF FF FF FF
 (001.980348)  can0  0CF00300   [8]  D1 00 0B FF FF 0F 66 7E
 (001.980932)  can0  18FEF100   [8]  FF 00 00 FC FF 68 00 CF
 (001.984668)  can0  18FEEE00   [8]  82 FF FF FF FF FF FF FF
 (001.986330)  can0  0CF00400   [8]  20 7D 83 B4 16 00 0F 83
 (001.986864)  can0  18F00131   [8]  FF FF FF 3F 00 FF FF FF
 (001.987431)  can0  0CF00203   [8]  C0 00 00 FF F7 4D 16 03
 (001.987981)  can0  18FEF131   [8]  F3 FF FF C3 CC FF FF F0
 (001.988582)  can0  18FEF031   [8]  FF FF FF FF FF FC CC FF
 (001.989186)  can0  18FF4831   [8]  00 00 FF FF 00 00 00 00
 (001.990552)  can0  10FDA300   [8]  FF FF 14 FF FF FF FF FF
 (001.990561)  can0  18FEF231   [8]  FF FF FF FF FF FF FF FF
 (001.990868)  can0  18F00029   [8]  F0 7D 7D F3 29 FF FF 3C
 (001.991472)  can0  0CF00331   [8]  FF FF FF FF FF FF FF FF
 (001.994897)  can0  18FEDF00   [8]  84 A0 28 7D 7D FF FF F5
 (001.997252)  can0  0CF00203   [8]  C0 00 00 FF F7 4D 16 03
 (001.997827)  can0  0C010305   [8]  FF FF FF FF FF F3 FF FF
 (001.998373)  can0  0CF00C03   [8]  EC 03 69 16 FF FF FF FF
 (001.999723)  can0  18FCDC00   [8]  9F FF FF FF 50 68 00 00
 (002.000261)  can0  0CF00300   [8]  D1 00 0B FF FF 0F 65 7E
 (002.000834)  can0  1CFE9200   [8]  FF F4 8F FF FF FF 00 00
 (002.001406)  can0  18FEF500   [8]  A8 FF FF 70 26 FF FF FF
 (002.006847)  can0  0CF00400   [8]  30 7D 83 A3 16 00 0F 83
 (002.007248)  can0  0CF00203   [8]  C0 00 00 FF F7 56 16 03
 (002.009513)  can0  14FC9800   [8]  FF 00 00 00 00 00 00 FF
 (002.009882)  can0  0CF00A00   [8]  EE 02 14 06 FF FF FF FF
 (002.010524)  can0  18FD9400   [8]  30 12 FF FF FF FF FF FF
 (002.011073)  can0  18F00E00   [8]  2E 27 FF FF D5 9F FF FF
 (002.014459)  can0  18F03300   [8]  FF FF FF FF FF FF FF FF
 (002.015055)  can0  18FEDF00   [8]  84 A0 28 7D 7D FF FF F5
 (002.017613)  can0  0CF00203   [8]  C0 00 00 FF F7 56 16 03
 (002.017853)  can0  0CF00C03   [8]  EE 03 D7 16 FF FF FF FF
 (002.019732)  can0  18FEE000   [8]  00 00 00 00 15 96 35 00
 (002.020280)  can0  0CF00300   [8]  D1 00 0B FF FF 0F 64 7E
 (002.020863)  can0  18FEA400   [8]  FF FF 08 2A FF FF 0C 2D
 (002.024484)  can0  18FDB400   [8]  2C 37 7C 38 FF FF FF FF
 (002.024944)  can0  18FEF200   [8]  12 00 00 00 00 00 E1 FF
 (002.025596)  can0  18F00F00   [8]  6C 0F FF FF D5 9F FF FF
 (002.026727)  can0  0CF00400   [8]  50 7D 83 8E 16 00 0F 84
 (002.027348)  can0  0CF00203   [8]  C0 00 00 FF F7 57 16 03
 (002.028722)  can0  18F0010B   [8]  CF FF F0 FF FF CD FF FF
 (002.034366)  can0  18FEDF00   [8]  84 A0 28 7D 7D FF FF F5
 (002.034960)  can0  10FCFD00   [8]  FF FF FF FF 00 32 FF FF
 (002.037642)  can0  0CF00331   [8]  FF FF FF FF FF FF FF FF
 (002.037652)  can0  0CF00203   [8]  C0 00 00 FF F7 57 16 03
 (002.037955)  can0  0CF00C03   [8]  EA 03 BE 16 FF FF FF FF
 (002.038558)  can0  18FEBF0B   [8]  00 00 7D 7D 7D 7D FF FF
 (002.040172)  can0  0CF00300   [8]  D1 00 0C FF FF 0F 65 7E
 (002.044431)  can0  18FD7C00   [8]  F8 83 00 00 C3 0F 03 FF
 (002.044980)  can0  18F00100   [8]  FF FF FF FF FF FF FF FF
 (002.046257)  can0  0CF00400   [8]  50 7D 83 96 16 00 0F 84
 (002.047293)  can0  0CF00203   [8]  C0 00 00 FF F7 53 16 03
 (002.047881)  can0  0C010305   [8]  FF FF FF FF FF F3 FF FF
 (002.049485)  can0  18FDB300   [8]  FF FF 40 3B FF FF FF FF
 (002.054902)  can0  18FEDF00   [8]  84 A0 28 7D 7D FF FF F5
 (002.057258)  can0  0CF00203   [8]  C0 00 00 FF F7 53 16 03
 (002.057783)  can0  0CF00C03   [8]  E9 03 50 16 FF FF FF FF
 (002.059801)  can0  0CF00300   [8]  D1 00 0C FF FF 0F 66 7E
 (002.060365)  can0  0CF00A00   [8]  EE 02 0A 06 FF FF FF FF
 (002.060878)  can0  18FEF000   [8]  FF FF FF 93 16 FF FF FF
 (002.061421)  can0  18F00E00   [8]  2E 27 FF FF D5 9F FF FF
 (002.064386)  can0  18F03300   [8]  FF FF FF FF FF FF FF FF
 (002.064959)  can0  18FE9A00   [8]  B9 27 FF FF FF FF FF FF
 (002.066272)  can0  0CF00400   [8]  50 7D 83 98 16 00 0F 84
 (002.067262)  can0  0CF00203   [8]  C0 00 00 FF F7 51 16 03
 (002.069382)  can0  18FDB200   [8]  FF FF FF FF 02 00 FF FF
 (002.069960)  can0  18FCF200   [8]  E1 FF FF FF FF FF FF FF
 (002.074514)  can0  18FEDF00   [8]  84 A0 28 7D 7D FF FF F5
 (002.074985)  can0  18F00F00   [8]  6C 0F FF FF D5 9F FF FF
 (002.077255)  can0  0CF00203   [8]  C0 00 00 FF F7 51 16 03
 (002.077878)  can0  0CF00C03   [8]  EC 03 AA 16 FF FF FF FF
 (002.078459)  can0  18F00503   [8]  7D 00 00 7D 4E 20 4E 43
 (002.079181)  can0  18FE4A03   [8]  03 1F 4F FF FF F3 FF FF
 (002.079784)  can0  0CF00300   [8]  D1 00 0C FF FF 0F 66 7E
 (002.080471)  can0  18FEF100   [8]  FF 00 00 FC FF 68 00 CF
 (002.086419)  can0  0CF00400   [8]  40 7D 83 A6 16 00 0F 83
 (002.086780)  can0  18F00131   [8]  FF FF FF 3F 00 FF FF FF
 (002.087530)  can0  0CF00203   [8]  C0 00 00 FF F7 51 16 03
 (002.087902)  can0  18FEF131   [8]  F3 FF FF C3 CC FF FF F0
 (002.088588)  can0  18FEF031   [8]  FF FF FF FF FF FC CC FF
 (002.089205)  can0  18FF4831   [8]  00 00 FF FF 00 00 00 00
 (002.089765)  can0  10FDA300   [8]  FF FF 14 FF FF FF FF FF
 (002.090347)  can0  18FEF231   [8]  FF FF FF FF FF FF FF FF
 (002.090939)  can0  18FE9900   [8]  FF FF FF FF FF FF FF FF
 (002.091964)  can0  0CF00331   [8]  FF FF FF FF FF FF FF FF
 (002.091986)  can0  18F00029   [8]  F0 7D 7D F3 29 FF FF 3C
 (002.094479)  can0  18FD8C00   [8]  FF FF 01 00 FF FF FF FF
 (002.095069)  can0  18FEDF00   [8]  84 A0 28 7D 7D FF FF F5
 (002.097211)  can0  0CF00203   [8]  C0 00 00 FF F7 51 16 03
 (002.097785)  can0  0C010305   [8]  FF FF FF FF FF F3 FF FF
 (002.098384)  can0  0CF00C03   [8]  ED 03 E7 16 FF FF FF FF
 (002.099750)  can0  18FCDC00   [8]  9F FF FF FF 50 68 00 00
 (002.100319)  can0  0CF00300   [8]  D1 00 0C FF FF 0F 65 7E
 (002.100845)  can0  1CFE9200   [8]  FF B8 8F FF FF FF 00 00
 (002.106893)  can0  0CF00400   [8]  30 7D 83 A9 16 00 0F 83
 (002.107245)  can0  0CF00203   [8]  C0 00 00 FF F7 50 16 03
 (002.109356)  can0  0CF00A00   [8]  EE 02 27 06 FF FF FF FF
 (002.109930)  can0  18FD9400   [8]  30 12 FF FF FF FF FF FF
 (002.110566)  can0  18FEFC00   [8]  FF FF FF FF FF FF FF FF
 (002.111120)  can0  18F00E00   [8]  20 27 FF FF D5 9F FF FF
 (002.114886)  can0  18FD2000   [8]  2C 37 FF FF FF FF FF FF
 (002.115003)  can0  18F03300   [8]  FF FF FF FF FF FF FF FF
 (002.115737)  can0  18FEDF00   [8]  84 A0 28 7D 7D FF FF F5
 (002.117417)  can0  0CF00203   [8]  C0 00 00 FF F7 50 16 03
 (002.117803)  can0  0CF00C03   [8]  E9 03 A8 16 FF FF FF FF
 (002.119901)  can0  18FEE000   [8]  00 00 00 00 15 96 35 00
 (002.120267)  can0  0CF00300   [8]  D1 00 0B FF FF 0F 64 7E
 (002.124491)  can0  18FEF200   [8]  0D 00 00 00 00 00 E1 FF
 (002.124931)  can0  18F00F00   [8]  6C 0F FF FF D5 9F FF FF
 (002.126205)  can0  0CF00400   [8]  30 7D 83 B5 16 00 0F 83
 (002.127257)  can0  0CF00203   [8]  C0 00 00 FF F7 4D 16 03
 (002.128375)  can0  18F0010B   [8]  CF FF F0 FF FF CD FF FF
 (002.134436)  can0  18FEDF00   [8]  84 A0 28 7D 7D FF FF F5
 (002.135012)  can0  10FCFD00   [8]  FF FF FF FF 00 32 FF FF
 (002.137465)  can0  0CF00331   [8]  FF FF FF FF FF FF FF FF
 (002.137475)  can0  0CF00203   [8]  C0 00 00 FF F7 4D 16 03
 (002.137904)  can0  0CF00C03   [8]  E9 03 73 16 FF FF FF FF
 (002.138735)  can0  18FEBF0B   [8]  00 00 7D 7D 7D 7D FF FF
 (002.139832)  can0  18FD3E00   [8]  83 3D FF 93 3F FF FF FF
 (002.140431)  can0  0CF00300   [8]  D1 00 0B FF FF 0F 65 7E
 (002.144716)  can0  18F00100   [8]  FF FF FF FF FF FF FF FF
 (002.146389)  can0  0CF00400   [8]  20 7D 83 B1 16 00 0F 83
 (002.147897)  can0  0CF00203   [8]  C0 00 00 FF F7 52 16 03
 (002.147905)  can0  0C010305   [8]  FF FF FF FF FF F3 FF FF
 (002.154890)  can0  18FEDF00   [8]  84 A0 28 7D 7D FF FF F5
 (002.157529)  can0  0CF00203   [8]  C0 00 00 FF F7 52 16 03
 (002.157789)  can0  0CF00C03   [8]  EF 03 BB 16 FF FF FF FF
 (002.159728)  can0  18FD4000   [8]  FF 3F 00 FF FF FF FF FF
 (002.160299)  can0  0CF00300   [8]  D1 00 0B FF FF 0F 65 7E
 (002.160872)  can0  0CF00A00   [8]  EE 02 0A 06 FF FF FF FF
 (002.161447)  can0  18FEF000   [8]  FF FF FF B4 16 FF FF FF
 (002.162060)  can0  18F00E00   [8]  20 27 FF FF D5 9F FF FF
 (002.163170)  can0  1CECFF00   [8]  20 0E 00 02 FF CA FE 00
 (002.164375)  can0  18F03300   [8]  FF FF FF FF FF FF FF FF
 (002.166272)  can0  0CF00400   [8]  30 7D 83 A8 16 00 0F 83
 (002.167307)  can0  0CF00203   [8]  C0 00 00 FF F7 57 16 03
 (002.169985)  can0  18FCF200   [8]  E1 FF FF FF FF FF FF FF
 (002.174466)  can0  18FEDF00   [8]  84 A0 28 7D 7D FF FF F5
 (002.174957)  can0  18F00F00   [8]  6C 0F FF FF D5 9F FF FF
 (002.178091)  can0  0CF00203   [8]  C0 00 00 FF F7 57 16 03
 (002.178100)  can0  0CF00C03   [8]  ED 03 C2 16 FF FF FF FF
 (002.178413)  can0  18F00503   [8]  7D 00 00 7D 4E 20 4E 43
 (002.179205)  can0  18FE4A03   [8]  03 1F 4F FF FF F3 FF FF
 (002.179891)  can0  0CF00300   [8]  D1 00 0B FF FF 0F 65 7E
 (002.180327)  can0  18FEF100   [8]  FF 00 00 FC FF 68 00 CF
 (002.184702)  can0  18FCC500   [8]  83 3D FF FF FF FF FF FF
 (002.185029)  can0  0CFD9200   [8]  F4 FF FA FF FF FF FF FF
 (002.186460)  can0  0CF00400   [8]  40 7D 83 91 16 00 0F 84
 (002.186836)  can0  18F00131   [8]  FF FF FF 3F 00 FF FF FF
 (002.188226)  can0  0CF00203   [8]  C0 00 00 FF F7 59 16 03
 (002.188233)  can0  18FEF131   [8]  F3 FF FF C3 CC FF FF F0
 (002.188553)  can0  18FEF031   [8]  FF FF FF FF FF FC CC FF
 (002.189941)  can0  18FF4831   [8]  00 00 FF FF 00 00 00 00
 (002.189948)  can0  10FDA300   [8]  FF FF 14 FF FF FF FF FF
 (002.190371)  can0  18FEF231   [8]  FF FF FF FF FF FF FF FF
 (002.190870)  can0  18F00029   [8]  F0 7D 7D F3 29 FF FF 3C
 (002.191448)  can0  0CF00331   [8]  FF FF FF FF FF FF FF FF
 (002.194473)  can0  18FEDF00   [8]  84 A0 28 7D 7D FF FF F5
 (002.197227)  can0  0CF00203   [8]  C0 00 00 FF F7 59 16 03
 (002.197880)  can0  0C010305   [8]  FF FF FF FF FF F3 FF FF
 (002.198376)  can0  0CF00C03   [8]  EA 03 45 16 FF FF FF FF
 (002.199764)  can0  18FCDC00   [8]  9F FF FF FF 50 68 00 00
 (002.200331)  can0  0CF00300   [8]  D1 00 0C FF FF 0F 65 7E
 (002.200942)  can0  1CFE9200   [8]  FF E8 8F FF FF FF 00 00
 (002.206306)  can0  0CF00400   [8]  60 7D 83 91 16 00 0F 84
 (002.207799)  can0  0CF00203   [8]  C0 00 00 FF F7 54 16 03
 (002.209771)  can0  0CF00A00   [8]  F7 02 0A 06 FF FF FF FF
 (002.209979)  can0  18FD9400   [8]  30 12 FF FF FF FF FF FF
 (002.210609)  can0  18FEEF00   [8]  FF FF FF 1E 3B 7D FF FA
 (002.211103)  can0  18F00E00   [8]  20 27 FF FF D5 9F FF FF
 (002.211810)  can0  1CEBFF00   [8]  01 43 FF BF 00 09 08 54
 (002.214857)  can0  18F03300   [8]  FF FF FF FF FF FF FF FF
 (002.215070)  can0  18FEDF00   [8]  84 A0 28 7D 7D FF FF F5
 (002.217413)  can0  0CF00203   [8]  C0 00 00 FF F7 54 16 03
 (002.217822)  can0  0CF00C03   [8]  E9 03 72 16 FF FF FF FF
 (002.220066)  can0  18FEE000   [8]  00 00 00 00 15 96 35 00
 (002.220246)  can0  0CF00300   [8]  D1 00 0C FF FF 0F 66 7E
 (002.224442)  can0  18FEF200   [8]  12 00 00 00 00 00 E1 FF
 (002.225029)  can0  18F00F00   [8]  6C 0F FF FF D5 9F FF FF
 (002.226280)  can0  0CF00400   [8]  40 7D 83 9A 16 00 0F 84
 (002.227282)  can0  0CF00203   [8]  C0 00 00 FF F7 53 16 03
 (002.228622)  can0  18F0010B   [8]  CF FF F0 FF FF CD FF FF
 (002.229349)  can0  18FEDB00   [8]  FF FF 14 31 FF FF FF FF
 (002.234487)  can0  18FEDF00   [8]  84 A0 28 7D 7D FF FF F5
 (002.235005)  can0  10FCFD00   [8]  FF FF FF FF 00 32 FF FF
 (002.236782)  can0  0CF00331   [8]  FF FF FF FF FF FF FF FF
 (002.237355)  can0  0CF00203   [8]  C0 00 00 FF F7 53 16 03
 (002.237969)  can0  0CF00C03   [8]  EE 03 DD 16 FF FF FF FF
 (002.238719)  can0  18FEBF0B   [8]  00 00 7D 7D 7D 7D FF FF
 (002.240263)  can0  0CF00300   [8]  D1 00 0C FF FF 0F 67 7E
 (002.244692)  can0  18F00100   [8]  FF FF FF FF FF FF FF FF
 (002.246395)  can0  0CF00400   [8]  40 7D 83 9D 16 00 0F 84
 (002.247981)  can0  0CF00203   [8]  C0 00 00 FF F7 50 16 03
 (002.247991)  can0  0C010305   [8]  FF FF FF FF FF F3 FF FF
 (002.249683)  can0  18FEF600   [8]  FF 00 65 FF FF FF FF FF
 (002.254883)  can0  18FEDF00   [8]  84 A0 28 7D 7D FF FF F5
 (002.257236)  can0  0CF00203   [8]  C0 00 00 FF F7 50 16 03
 (002.257857)  can0  0CF00C03   [8]  EA 03 C8 16 FF FF FF FF
 (002.259750)  can0  0CF00300   [8]  D1 00 0C FF FF 0F 65 7E
 (002.260333)  can0  0CF00A00   [8]  F7 02 01 06 FF FF FF FF
 (002.260952)  can0  18FEF000   [8]  FF FF FF 9C 16 FF FF FF
 (002.261504)  can0  18F00E00   [8]  20 27 FF FF D5 9F FF FF
 (002.264446)  can0  18F03300   [8]  FF FF FF FF FF FF FF FF
 (002.266266)  can0  0CF00400   [8]  30 7D 83 A9 16 00 0F 83
 (002.266839)  can0  1CEBFF00   [8]  02 00 09 08 ED 14 1F 01
 (002.267434)  can0  0CF00203   [8]  C0 00 00 FF F7 50 16 03
 (002.269758)  can0  18FCF200   [8]  E1 FF FF FF FF FF FF FF
 (002.274496)  can0  18FEDF00   [8]  84 A0 28 7D 7D FF FF F5
 (002.275006)  can0  18FDC600   [8]  FC 04 FF FF FF FF FF FF
 (002.275530)  can0  18F00F00   [8]  6C 0F FF FF D5 9F FF FF
 (002.277258)  can0  0CF00203   [8]  C0 00 00 FF F7 50 16 03
 (002.277860)  can0  0CF00C03   [8]  E9 03 65 16 FF FF FF FF
 (002.278490)  can0  18F00503   [8]  7D 00 00 7D 4E 20 4E 43
 (002.279092)  can0  18FE4A03   [8]  03 1F 4F FF FF F3 FF FF
 (002.280632)  can0  0CF00300   [8]  D1 00 0B FF FF 0F 64 7E
 (002.280641)  can0  18FEF100   [8]  FF 00 00 FC FF 68 00 CF
 (002.286481)  can0  0CF00400   [8]  10 7D 83 BE 16 00 0F 83
 (002.286849)  can0  18F00131   [8]  FF FF FF 3F 00 FF FF FF
 (002.287426)  can0  0CF00203   [8]  C0 00 00 FF F7 4C 16 03
 (002.287975)  can0  18FEF131   [8]  F3 FF FF C3 CC FF FF F0
 (002.288574)  can0  18FEF031   [8]  FF FF FF FF FF FC CC FF
 (002.289172)  can0  18FF4831   [8]  00 00 FF FF 00 00 00 00
 (002.289751)  can0  10FDA300   [8]  FF FF 14 FF FF FF FF FF
 (002.290324)  can0  18FEF231   [8]  FF FF FF FF FF FF FF FF
 (002.290875)  can0  18F00029   [8]  F0 7D 7D F3 29 FF FF 3C
 (002.291475)  can0  0CF00331   [8]  FF FF FF FF FF FF FF FF
 (002.294526)  can0  18FEDF00   [8]  84 A0 28 7D 7D FF FF F5
 (002.297231)  can0  0CF00203   [8]  C0 00 00 FF F7 4C 16 03
 (002.297833)  can0  0C010305   [8]  FF FF FF FF FF F3 FF FF
 (002.298379)  can0  0CF00C03   [8]  EE 03 C2 16 FF FF FF FF
 (002.299995)  can0  18FCDC00   [8]  9F FF FF FF 50 68 00 00
 (002.300299)  can0  0CF00300   [8]  D1 00 0B FF FF 0F 65 7E
 (002.301631)  can0  1CFE9200   [8]  FF 84 8F FF FF FF 00 00
 (002.306381)  can0  0CF00400   [8]  00 7D 83 C0 16 00 0F 83
 (002.307791)  can0  0CF00203   [8]  C0 00 00 FF F7 51 16 03
 (002.309724)  can0  0CF00A00   [8]  F7 02 0A 06 FF FF FF FF
 (002.310015)  can0  18FD9400   [8]  30 12 FF FF FF FF FF FF
 (002.310616)  can0  18F00E00   [8]  20 27 FF FF D5 9F FF FF
 (002.314898)  can0  18F03300   [8]  FF FF FF FF FF FF FF FF
 (002.314980)  can0  18FEDF00   [8]  84 A0 28 7D 7D FF FF F5
 (002.318060)  can0  0CF00203   [8]  C0 00 00 FF F7 51 16 03
 (002.318070)  can0  0CF00C03   [8]  EE 03 F4 16 FF FF FF FF
 (002.319777)  can0  18FEE000   [8]  00 00 00 00 15 96 35 00
 (002.320338)  can0  0CF00300   [8]  D1 00 0A FF FF 0F 65 7E
 (002.324376)  can0  18FEF200   [8]  12 00 00 00 00 00 E1 FF
 (002.324977)  can0  18F00F00   [8]  6C 0F FF FF D5 9F FF FF
 (002.326272)  can0  0CF00400   [8]  10 7D 83 B9 16 00 0F 83
 (002.327413)  can0  0CF00203   [8]  C0 00 00 FF F7 56 16 03
 (002.328838)  can0  18F0010B   [8]  CF FF F0 FF FF CD FF FF
 (002.334709)  can0  18FEDF00   [8]  84 A0 28 7D 7D FF FF F5
 (002.335067)  can0  10FCFD00   [8]  FF FF FF FF 00 32 FF FF
 (002.337458)  can0  0CF00331   [8]  FF FF FF FF FF FF FF FF
 (002.337468)  can0  0CF00203   [8]  C0 00 00 FF F7 56 16 03
 (002.337950)  can0  0CF00C03   [8]  E9 03 A3 16 FF FF FF FF
 (002.338853)  can0  18FEBF0B   [8]  00 00 7D 7D 7D 7D FF FF
 (002.340347)  can0  0CF00300   [8]  D1 00 0B FF FF 0F 65 7E
 (002.344438)  can0  18F00100   [8]  FF FF FF FF FF FF FF FF
 (002.346346)  can0  0CF00400   [8]  20 7D 83 AB 16 00 0F 83
 (002.347889)  can0  0CF00203   [8]  C0 00 00 FF F7 5D 16 03
 (002.347898)  can0  0C010305   [8]  FF FF FF FF FF F3 FF FF
 (002.354434)  can0  18FEDF00   [8]  84 A0 28 7D 7D FF FF F5
 (002.357245)  can0  0CF00203   [8]  C0 00 00 FF F7 5D 16 03
 (002.357852)  can0  0CF00C03   [8]  EA 03 5E 16 FF FF FF FF
 (002.359931)  can0  0CF00300   [8]  D1 00 0B FF FF 0F 65 7E
 (002.360368)  can0  0CF00A00   [8]  F7 02 1D 06 FF FF FF FF
 (002.361000)  can0  18FEF000   [8]  FF FF FF B4 16 FF FF FF
 (002.361555)  can0  18F00E00   [8]  20 27 FF FF D5 9F FF FF
 (002.364433)  can0  18F03300   [8]  FF FF FF FF FF FF FF FF
