 (000.000000)  can0  18FCF200   [8]  E1 FF FF FF FF FF FF FF
 (000.005001)  can0  18FEDF00   [8]  8A A0 28 7D 7D FF FF F5
 (000.005580)  can0  18E0FF00   [8]  00 FF FF FF FF FF FF FF
 (000.006194)  can0  18F00F00   [8]  18 0F FF FF D5 9F FF FF
 (000.008281)  can0  0CF00203   [8]  C1 6A 14 FF F7 E8 24 03
 (000.008918)  can0  0CF00C03   [8]  83 04 CC 2F FF FF FF FF
 (000.010489)  can0  0CF00300   [8]  D0 66 25 FF FF 0F 86 82
 (000.011063)  can0  18FEF100   [8]  FF 34 17 FC FF 68 00 CF
 (000.014930)  can0  0C010305   [8]  FF FF FF FF FF F3 FF FF
 (000.015570)  can0  18FEEE00   [8]  84 FF FF FF FF FF FF FF
 (000.017118)  can0  0CF00400   [8]  21 9B 9B DD 2F 00 0F 9B
 (000.018370)  can0  0CF00203   [8]  C1 5D 14 FF F7 D7 24 03
 (000.020065)  can0  10FDA300   [8]  FF FF 2F FF FF FF FF FF
 (000.020601)  can0  18F00029   [8]  F0 7D 7D F3 29 FF FF 36
 (000.024981)  can0  18FEDF00   [8]  8A A0 28 7D 7D FF FF F5
 (000.028354)  can0  0CF00203   [8]  C1 5D 14 FF F7 D7 24 03
 (000.028978)  can0  0CF00C03   [8]  7D 04 DD 2F FF FF FF FF
 (000.030487)  can0  18FCDC00   [8]  9F FF FF FF 50 68 34 17
 (000.031026)  can0  0CF00300   [8]  D0 66 25 FF FF 0F 86 82
 (000.031612)  can0  1CFE9200   [8]  FF E0 B8 FF FF FF 3E 00
 (000.032172)  can0  18FEF500   [8]  A8 FF FF 43 26 FF FF FF
 (000.037059)  can0  0CF00331   [8]  FF FF FF FF FF FF FF FF
 (000.037404)  can0  0CF00400   [8]  21 9B 9B B4 2F 00 0F 9B
 (000.038472)  can0  0CF00203   [8]  C1 52 14 FF F7 DF 24 03
 (000.040092)  can0  14FC9800   [8]  FF 00 00 00 00 00 00 FF
 (000.040729)  can0  0CF00A00   [8]  58 05 D4 18 FF FF FF FF
 (000.041115)  can0  18FD9400   [8]  30 12 FF FF FF FF FF FF
 (000.041746)  can0  18F00E00   [8]  4E 33 FF FF D5 9F FF FF
 (000.045232)  can0  18F03300   [8]  FF FF FF FF FF FF FF FF
 (000.045617)  can0  18FEDF00   [8]  8A A0 28 7D 7D FF FF F5
 (000.048323)  can0  0CF00203   [8]  C1 52 14 FF F7 DF 24 03
 (000.048996)  can0  0CF00C03   [8]  80 04 C4 2F FF FF FF FF
 (000.050442)  can0  18FEE000   [8]  C7 2C 01 00 10 96 35 00
 (000.050939)  can0  0CF00300   [8]  D0 66 25 FF FF 0F 85 82
 (000.051510)  can0  18FEA400   [8]  FF FF 6A 2A FF FF 2D 2C
 (000.054990)  can0  18FDB400   [8]  FC 44 A3 44 FF FF FF FF
 (000.055537)  can0  18FEF200   [8]  CA 00 8A 04 C3 09 E1 FF
 (000.056152)  can0  18F00F00   [8]  0E 0F FF FF D5 9F FF FF
 (000.057107)  can0  0CF00400   [8]  31 9B 9B D0 2F 00 0F 9B
 (000.058328)  can0  0CF00203   [8]  C1 66 14 FF F7 FE 24 03
 (000.064944)  can0  0C010305   [8]  FF FF FF FF FF F3 FF FF
 (000.065471)  can0  18FEDF00   [8]  8A A0 28 7D 7D FF FF F5
 (000.066060)  can0  10FCFD00   [8]  FF FF FF FF E9 76 FF FF
 (000.068328)  can0  0CF00203   [8]  C1 66 14 FF F7 FE 24 03
 (000.069058)  can0  0CF00C03   [8]  7B 04 A7 2F FF FF FF FF
 (000.070639)  can0  0CF00300   [8]  D0 66 25 FF FF 0F 84 82
 (000.075251)  can0  18FD7C00   [8]  F8 83 00 00 C3 0F 03 FF
 (000.075560)  can0  18F00100   [8]  FF FF FF FF FF FF FF FF
 (000.077219)  can0  0CF00400   [8]  51 9C 9B 8D 2F 00 0F 9C
 (000.078470)  can0  0CF00203   [8]  C1 7B 14 FF F7 0F 25 03
 (000.080106)  can0  18FDB300   [8]  FF FF 36 46 FF FF FF FF
 (000.082099)  can0  18F0010B   [8]  CF FF F0 FF FF CD FF FF
 (000.085075)  can0  18FEDF00   [8]  8A A0 28 7D 7D FF FF F5
 (000.086889)  can0  18F00131   [8]  FF FF FF 3F 00 FF FF FF
 (000.087448)  can0  18FEF131   [8]  F3 FF FF C3 CC FF FF F0
 (000.088052)  can0  18FEF031   [8]  FF FF FF FF FF FC CC FF
 (000.088607)  can0  0CF00203   [8]  C1 7B 14 FF F7 0F 25 03
 (000.089188)  can0  18FF4831   [8]  00 00 FF FF 00 00 00 00
 (000.089756)  can0  0CF00C03   [8]  7A 04 76 2F FF FF FF FF
 (000.090324)  can0  18FEF231   [8]  FF FF FF FF FF FF FF FF
 (000.090934)  can0  0CF00300   [8]  D0 67 25 FF FF 0F 85 82
 (000.091486)  can0  0CF00331   [8]  FF FF FF FF FF FF FF FF
 (000.092047)  can0  0CF00A00   [8]  6B 05 89 18 FF FF FF FF
 (000.092601)  can0  18F00503   [8]  7F 12 07 7F 35 20 32 43
 (000.093184)  can0  18FEBF0B   [8]  A0 17 7D 7D 7B 7D FF FF
 (000.093731)  can0  18FE4A03   [8]  03 0F 4F FF FF F3 FF FF
 (000.094287)  can0  18FEF000   [8]  FF FF FF C0 2B FF FF FF
 (000.094914)  can0  18F00E00   [8]  BE 32 FF FF D5 9F FF FF
 (000.095513)  can0  18F03300   [8]  FF FF FF FF FF FF FF FF
 (000.096084)  can0  18FE9A00   [8]  3B 27 FF FF FF FF FF FF
 (000.097265)  can0  0CF00400   [8]  51 9C 9B 92 2F 00 0F 9C
 (000.098341)  can0  0CF00203   [8]  C1 7A 14 FF F7 07 25 03
 (000.100062)  can0  18FDB200   [8]  FF FF FF FF 0F 00 FF FF
 (000.100599)  can0  18FCF200   [8]  E1 FF FF FF FF FF FF FF
 (000.105089)  can0  18FEDF00   [8]  8A A0 28 7D 7D FF FF F5
 (000.105615)  can0  18F00F00   [8]  02 0F FF FF D5 9F FF FF
 (000.108320)  can0  0CF00203   [8]  C1 7A 14 FF F7 07 25 03
 (000.108916)  can0  0CF00C03   [8]  75 04 B3 2F FF FF FF FF
 (000.110564)  can0  0CF00300   [8]  D0 67 25 FF FF 0F 85 82
 (000.110931)  can0  18FEF100   [8]  FF 60 17 FC FF 68 00 CF
 (000.115551)  can0  0C010305   [8]  FF FF FF FF FF F3 FF FF
 (000.117030)  can0  0CF00400   [8]  51 9C 9B 97 2F 00 0F 9C
 (000.118301)  can0  0CF00203   [8]  C1 7A 14 FF F7 1C 25 03
 (000.120066)  can0  10FDA300   [8]  FF FF 2F FF FF FF FF FF
 (000.120626)  can0  18FE9900   [8]  FF FF FF FF FF FF FF FF
 (000.121198)  can0  18F00029   [8]  F0 7D 7D F3 29 FF FF 36
 (000.125037)  can0  18FD8C00   [8]  FF FF 12 00 FF FF FF FF
 (000.125601)  can0  18FEDF00   [8]  8A A0 28 7D 7D FF FF F5
 (000.128313)  can0  0CF00203   [8]  C1 7A 14 FF F7 1C 25 03
 (000.128910)  can0  0CF00C03   [8]  76 04 92 2F FF FF FF FF
 (000.130429)  can0  18FCDC00   [8]  9F FF FF FF 50 68 60 17
 (000.131012)  can0  0CF00300   [8]  D0 67 25 FF FF 0F 84 82
 (000.131596)  can0  1CFE9200   [8]  FF 48 B9 FF FF FF 3E 00
 (000.137340)  can0  0CF00331   [8]  FF FF FF FF FF FF FF FF
 (000.137356)  can0  0CF00400   [8]  51 9C 9B B4 2F 00 0F 9C
 (000.138467)  can0  0CF00203   [8]  C1 9E 14 FF F7 72 25 03
 (000.140236)  can0  0CF00A00   [8]  58 05 89 18 FF FF FF FF
 (000.140606)  can0  18FD9400   [8]  96 0F FF FF FF FF FF FF
 (000.141319)  can0  18FEFC00   [8]  FF FF FF FF FF FF FF FF
 (000.141753)  can0  18F00E00   [8]  06 32 FF FF D5 9F FF FF
 (000.145433)  can0  18FD2000   [8]  26 45 FF FF FF FF FF FF
 (000.145593)  can0  18F03300   [8]  FF FF FF FF FF FF FF FF
 (000.146366)  can0  18FEDF00   [8]  8A A0 28 7D 7D FF FF F5
 (000.148310)  can0  0CF00203   [8]  C1 9E 14 FF F7 72 25 03
 (000.148909)  can0  0CF00C03   [8]  70 04 A8 2F FF FF FF FF
 (000.150358)  can0  18FEE000   [8]  C7 2C 01 00 10 96 35 00
 (000.150905)  can0  0CF00300   [8]  D0 67 25 FF FF 0F 83 82
 (000.155016)  can0  18FEF200   [8]  B0 00 4F 05 C2 09 E1 FF
 (000.155620)  can0  18F00F00   [8]  FA 0E FF FF D5 9F FF FF
 (000.157092)  can0  0CF00400   [8]  61 9C 9B 87 2F 00 0F 9C
 (000.158302)  can0  0CF00203   [8]  C1 C8 14 FF F7 A6 25 03
 (000.165527)  can0  0C010305   [8]  FF FF FF FF FF F3 FF FF
 (000.165536)  can0  18FEDF00   [8]  8A A0 28 7D 7D FF FF F5
 (000.166082)  can0  10FCFD00   [8]  FF FF FF FF 4C 76 FF FF
 (000.168335)  can0  0CF00203   [8]  C1 C8 14 FF F7 A6 25 03
 (000.168906)  can0  0CF00C03   [8]  6B 04 86 2F FF FF FF FF
 (000.170697)  can0  18FD3E00   [8]  73 40 FF 0C 3C FF FF FF
 (000.171012)  can0  0CF00300   [8]  D0 67 25 FF FF 0F 83 82
 (000.175743)  can0  18F00100   [8]  FF FF FF FF FF FF FF FF
 (000.177478)  can0  0CF00400   [8]  61 9C 9B A8 2F 00 0F 9C
 (000.179102)  can0  0CF00203   [8]  C1 DF 14 FF F7 C0 25 03
 (000.182243)  can0  18F0010B   [8]  CF FF F0 FF FF CD FF FF
 (000.185083)  can0  18FEDF00   [8]  8A A0 28 7D 7D FF FF F5
 (000.186897)  can0  18F00131   [8]  FF FF FF 3F 00 FF FF FF
 (000.187489)  can0  18FEF131   [8]  F3 FF FF C3 CC FF FF F0
 (000.188073)  can0  18FEF031   [8]  FF FF FF FF FF FC CC FF
 (000.188633)  can0  0CF00203   [8]  C1 DF 14 FF F7 C0 25 03
 (000.189239)  can0  18FF4831   [8]  00 00 FF FF 00 00 00 00
 (000.189818)  can0  0CF00C03   [8]  67 04 CE 2F FF FF FF FF
 (000.190401)  can0  18FEF231   [8]  FF FF FF FF FF FF FF FF
 (000.190907)  can0  18F00503   [8]  7F 12 07 7F 35 20 32 43
 (000.191482)  can0  0CF00331   [8]  FF FF FF FF FF FF FF FF
 (000.192079)  can0  18FD4000   [8]  FF 3F 00 FF FF FF FF FF
 (000.192626)  can0  18FE4A03   [8]  03 0F 4F FF FF F3 FF FF
 (000.193209)  can0  0CF00300   [8]  D0 67 25 FF FF 0F 84 82
 (000.193781)  can0  18FEBF0B   [8]  C0 17 7D 7D 81 81 FF FF
 (000.194325)  can0  0CF00A00   [8]  4F 05 5A 18 FF FF FF FF
 (000.194936)  can0  18FEF000   [8]  FF FF FF C0 2B FF FF FF
 (000.195508)  can0  18F00E00   [8]  AA 31 FF FF D5 9F FF FF
 (000.196107)  can0  1CECFF00   [8]  20 0E 00 02 FF CA FE 00
 (000.196659)  can0  18F03300   [8]  FF FF FF FF FF FF FF FF
 (000.197286)  can0  0CF00400   [8]  51 9C 9B B4 2F 00 0F 9C
 (000.198387)  can0  0CF00203   [8]  C1 E0 14 FF F7 C4 25 03
 (000.200142)  can0  18FCF200   [8]  E1 FF FF FF FF FF FF FF
 (000.205655)  can0  18FEDF00   [8]  8A A0 28 7D 7D FF FF F5
 (000.205665)  can0  18F00F00   [8]  E4 0E FF FF D5 9F FF FF
 (000.208308)  can0  0CF00203   [8]  C1 E0 14 FF F7 C4 25 03
 (000.209070)  can0  0CF00C03   [8]  68 04 AE 2F FF FF FF FF
 (000.210728)  can0  0CF00300   [8]  D0 67 25 FF FF 0F 83 82
 (000.210986)  can0  18FEF100   [8]  FF C0 17 FC FF 68 00 CF
 (000.214937)  can0  0C010305   [8]  FF FF FF FF FF F3 FF FF
 (000.215505)  can0  18FCC500   [8]  73 40 FF FF FF FF FF FF
 (000.216083)  can0  0CFD9200   [8]  F4 FF FF FF FF FF FF FF
 (000.217105)  can0  0CF00400   [8]  51 9C 9B BF 2F 00 0F 9C
 (000.218336)  can0  0CF00203   [8]  C1 E4 14 FF F7 E7 25 03
 (000.220067)  can0  10FDA300   [8]  FF FF 2F FF FF FF FF FF
 (000.220630)  can0  18F00029   [8]  F0 7D 7D F3 29 FF FF 36
 (000.225070)  can0  18FEDF00   [8]  8A A0 28 7D 7D FF FF F5
 (000.228345)  can0  0CF00203   [8]  C1 E4 14 FF F7 E7 25 03
 (000.228939)  can0  0CF00C03   [8]  68 04 BF 2F FF FF FF FF
 (000.230385)  can0  18FCDC00   [8]  9F FF FF FF 50 68 C0 17
 (000.231013)  can0  0CF00300   [8]  D0 67 25 FF FF 0F 82 82
 (000.231536)  can0  1CFE9200   [8]  FF 58 B9 FF FF FF 40 00
 (000.237327)  can0  0CF00331   [8]  FF FF FF FF FF FF FF FF
 (000.237381)  can0  0CF00400   [8]  61 9C 9B A3 2F 00 0F 9C
 (000.239115)  can0  0CF00203   [8]  C1 F8 14 FF F7 FF 25 03
 (000.240127)  can0  0CF00A00   [8]  04 05 D4 18 FF FF FF FF
 (000.240665)  can0  18FD9400   [8]  96 0F FF FF FF FF FF FF
 (000.241218)  can0  18FEEF00   [8]  FF FF FF 48 C3 7D FF FA
 (000.241758)  can0  18F00E00   [8]  46 31 FF FF D5 9F FF FF
 (000.242356)  can0  1CEBFF00   [8]  01 43 FF BF 00 09 08 54
 (000.245190)  can0  18F03300   [8]  FF FF FF FF FF FF FF FF
 (000.245632)  can0  18FEDF00   [8]  8A A0 28 7D 7D FF FF F5
 (000.248311)  can0  0CF00203   [8]  C1 F8 14 FF F7 FF 25 03
 (000.248924)  can0  0CF00C03   [8]  64 04 A7 2F FF FF FF FF
 (000.250431)  can0  18FEE000   [8]  C7 2C 01 00 10 96 35 00
 (000.251002)  can0  0CF00300   [8]  D0 67 25 FF FF 0F 83 82
 (000.255077)  can0  18FEF200   [8]  CA 00 A7 04 C2 09 E1 FF
 (000.255593)  can0  18F00F00   [8]  DC 0E FF FF D5 9F FF FF
 (000.257113)  can0  0CF00400   [8]  51 9C 9B D4 2F 00 0F 9C
 (000.258305)  can0  0CF00203   [8]  C1 FD 14 FF F7 F7 25 03
 (000.260054)  can0  18FEDB00   [8]  FF FF E4 74 FF FF FF FF
 (000.265387)  can0  0C010305   [8]  FF FF FF FF FF F3 FF FF
 (000.265438)  can0  18FEDF00   [8]  8A A0 28 7D 7D FF FF F5
 (000.266226)  can0  10FCFD00   [8]  FF FF FF FF D3 76 FF FF
 (000.268288)  can0  0CF00203   [8]  C1 FD 14 FF F7 F7 25 03
 (000.268919)  can0  0CF00C03   [8]  65 04 F7 2F FF FF FF FF
 (000.270487)  can0  0CF00300   [8]  D0 67 25 FF FF 0F 85 82
 (000.275789)  can0  18F00100   [8]  FF FF FF FF FF FF FF FF
 (000.277279)  can0  0CF00400   [8]  51 9C 9B E6 2F 00 0F 9C
 (000.278311)  can0  0CF00203   [8]  C1 05 15 FF F7 03 26 03
 (000.280051)  can0  18FEF600   [8]  FF 17 61 FF FF FF FF FF
 (000.282458)  can0  18F0010B   [8]  CF FF F0 FF FF CD FF FF
 (000.285100)  can0  18FEDF00   [8]  8A A0 28 7D 7D FF FF F5
 (000.287360)  can0  18F00131   [8]  FF FF FF 3F 00 FF FF FF
 (000.287433)  can0  18FEF131   [8]  F3 FF FF C3 CC FF FF F0
 (000.288085)  can0  18FEF031   [8]  FF FF FF FF FF FC CC FF
 (000.288658)  can0  0CF00203   [8]  C1 05 15 FF F7 03 26 03
 (000.289208)  can0  18FF4831   [8]  00 00 FF FF 00 00 00 00
 (000.289899)  can0  0CF00C03   [8]  64 04 DA 2F FF FF FF FF
 (000.290363)  can0  18FEF231   [8]  FF FF FF FF FF FF FF FF
 (000.290935)  can0  0CF00300   [8]  D0 67 25 FF FF 0F 83 82
 (000.291510)  can0  0CF00331   [8]  FF FF FF FF FF FF FF FF
 (000.292082)  can0  0CF00A00   [8]  04 05 E7 18 FF FF FF FF
 (000.292595)  can0  18F00503   [8]  7F 12 07 7F 35 20 32 43
 (000.293179)  can0  18FEBF0B   [8]  00 18 7D 7D 81 7F FF FF
 (000.293763)  can0  18FE4A03   [8]  03 0F 4F FF FF F3 FF FF
 (000.294358)  can0  18FEF000   [8]  FF FF FF C0 2B FF FF FF
 (000.294943)  can0  18F00E00   [8]  20 31 FF FF D5 9F FF FF
 (000.295570)  can0  18F03300   [8]  FF FF FF FF FF FF FF FF
 (000.297940)  can0  0CF00400   [8]  41 9C 9B C3 2F 00 0F 9C
 (000.297948)  can0  1CEBFF00   [8]  02 00 09 08 ED 14 1F 01
 (000.298336)  can0  0CF00203   [8]  C1 0B 15 FF F7 21 26 03
 (000.300128)  can0  18FCF200   [8]  E1 FF FF FF FF FF FF FF
 (000.305090)  can0  18FEDF00   [8]  8A A0 28 7D 7D FF FF F5
 (000.305671)  can0  18FDC600   [8]  FC 04 FF FF FF FF FF FF
 (000.306248)  can0  18F00F00   [8]  DA 0E FF FF D5 9F FF FF
 (000.308300)  can0  0CF00203   [8]  C1 0B 15 FF F7 21 26 03
 (000.308938)  can0  0CF00C03   [8]  67 04 C6 2F FF FF FF FF
 (000.310409)  can0  0CF00300   [8]  D0 66 25 FF FF 0F 82 82
 (000.310952)  can0  18FEF100   [8]  FF 00 18 FC FF 68 00 CF
 (000.314882)  can0  0C010305   [8]  FF FF FF FF FF F3 FF FF
 (000.317083)  can0  0CF00400   [8]  41 9C 9B B8 2F 00 0F 9C
 (000.318974)  can0  0CF00203   [8]  C1 16 15 FF F7 40 26 03
 (000.320130)  can0  10FDA300   [8]  FF FF 2F FF FF FF FF FF
 (000.320641)  can0  18F00029   [8]  F0 7D 7D F3 29 FF FF 36
 (000.325035)  can0  18FEDF00   [8]  8A A0 28 7D 7D FF FF F5
 (000.328303)  can0  0CF00203   [8]  C1 16 15 FF F7 40 26 03
 (000.328935)  can0  0CF00C03   [8]  60 04 BF 2F FF FF FF FF
 (000.330553)  can0  18FCDC00   [8]  9F FF FF FF 50 68 00 18
 (000.330983)  can0  0CF00300   [8]  D0 66 25 FF FF 0F 83 82
 (000.331588)  can0  1CFE9200   [8]  FF 68 B9 FF FF FF 3E 00
 (000.336890)  can0  0CF00331   [8]  FF FF FF FF FF FF FF FF
 (000.337376)  can0  0CF00400   [8]  21 9B 9B E5 2F 00 0F 9B
 (000.338360)  can0  0CF00203   [8]  C1 15 15 FF F7 28 26 03
 (000.340264)  can0  0CF00A00   [8]  F1 04 CA 18 FF FF FF FF
 (000.340654)  can0  18FD9400   [8]  96 0F FF FF FF FF FF FF
 (000.341209)  can0  18F00E00   [8]  AC 30 FF FF D5 9F FF FF
 (000.345031)  can0  18F03300   [8]  FF FF FF FF FF FF FF FF
 (000.345597)  can0  18FEDF00   [8]  8A A0 28 7D 7D FF FF F5
 (000.348306)  can0  0CF00203   [8]  C1 15 15 FF F7 28 26 03
 (000.348910)  can0  0CF00C03   [8]  63 04 EE 2F FF FF FF FF
 (000.350848)  can0  18FEE000   [8]  C7 2C 01 00 10 96 35 00
 (000.350919)  can0  0CF00300   [8]  D0 66 25 FF FF 0F 85 82
 (000.355185)  can0  18FEF200   [8]  B2 00 5E 05 C3 09 E1 FF
 (000.355583)  can0  18F00F00   [8]  DA 0E FF FF D5 9F FF FF
 (000.357135)  can0  0CF00400   [8]  31 9B 9B E5 2F 00 0F 9B
 (000.358319)  can0  0CF00203   [8]  C1 0B 15 FF F7 08 26 03
 (000.365444)  can0  0C010305   [8]  FF FF FF FF FF F3 FF FF
 (000.365454)  can0  18FEDF00   [8]  8A A0 28 7D 7D FF FF F5
 (000.366016)  can0  10FCFD00   [8]  FF FF FF FF DC 76 FF FF
 (000.368319)  can0  0CF00203   [8]  C1 0B 15 FF F7 08 26 03
 (000.368898)  can0  0CF00C03   [8]  64 04 DA 2F FF FF FF FF
 (000.370547)  can0  0CF00300   [8]  D0 66 25 FF FF 0F 83 82
 (000.375473)  can0  18F00100   [8]  FF FF FF FF FF FF FF FF
 (000.377055)  can0  0CF00400   [8]  31 9B 9B AF 2F 00 0F 9B
 (000.378279)  can0  0CF00203   [8]  C1 FE 14 FF F7 FF 25 03
 (000.382693)  can0  18F0010B   [8]  CF FF F0 FF FF CD FF FF
 (000.385472)  can0  18FEDF00   [8]  8A A0 28 7D 7D FF FF F5
 (000.387075)  can0  18F00131   [8]  FF FF FF 3F 00 FF FF FF
 (000.387426)  can0  18FEF131   [8]  F3 FF FF C3 CC FF FF F0
 (000.388131)  can0  18FEF031   [8]  FF FF FF FF FF FC CC FF
 (000.388564)  can0  0CF00203   [8]  C1 FE 14 FF F7 FF 25 03
 (000.389283)  can0  18FF4831   [8]  00 00 FF FF 00 00 00 00
 (000.389784)  can0  0CF00C03   [8]  6A 04 94 2F FF FF FF FF
 (000.390341)  can0  18FEF231   [8]  FF FF FF FF FF FF FF FF
 (000.390926)  can0  0CF00300   [8]  D0 66 25 FF FF 0F 83 82
 (000.391498)  can0  0CF00331   [8]  FF FF FF FF FF FF FF FF
 (000.392041)  can0  0CF00A00   [8]  0D 05 D4 18 FF FF FF FF
 (000.392626)  can0  18F00503   [8]  7F 12 07 7F 35 20 32 43
 (000.393202)  can0  18FEBF0B   [8]  70 18 7C 7E 7A 7A FF FF
 (000.393700)  can0  18FE4A03   [8]  03 0F 4F FF FF F3 FF FF
 (000.394315)  can0  18FEF000   [8]  FF FF FF C0 2B FF FF FF
 (000.394925)  can0  18F00E00   [8]  38 30 FF FF D5 9F FF FF
 (000.396110)  can0  18F03300   [8]  FF FF FF FF FF FF FF FF
 (000.397421)  can0  0CF00400   [8]  31 9B 9B B1 2F 00 0F 9B
 (000.398676)  can0  0CF00203   [8]  C1 FB 14 FF F7 16 26 03
 (000.400081)  can0  18FCF200   [8]  E1 FF FF FF FF FF FF FF
 (000.405545)  can0  18FEDF00   [8]  8A A0 28 7D 7D FF FF F5
 (000.405583)  can0  18F00F00   [8]  DA 0E FF FF D5 9F FF FF
 (000.408254)  can0  0CF00203   [8]  C1 FB 14 FF F7 16 26 03
 (000.408853)  can0  0CF00C03   [8]  61 04 BC 2F FF FF FF FF
 (000.410376)  can0  0CF00300   [8]  D0 66 25 FF FF 0F 84 82
 (000.410950)  can0  18FEF100   [8]  FF 2C 18 FC FF 68 00 CF
 (000.414961)  can0  0C010305   [8]  FF FF FF FF FF F3 FF FF
 (000.417475)  can0  0CF00400   [8]  11 9B 9B D2 2F 00 0F 9B
 (000.419092)  can0  0CF00203   [8]  C1 0B 15 FF F7 2B 26 03
 (000.420156)  can0  10FDA300   [8]  FF FF 2F FF FF FF FF FF
 (000.420656)  can0  18F00029   [8]  F0 7D 7D F3 29 FF FF 36
 (000.425085)  can0  18FEDF00   [8]  8A A0 28 7D 7D FF FF F5
 (000.428306)  can0  0CF00203   [8]  C1 0B 15 FF F7 2B 26 03
 (000.428909)  can0  0CF00C03   [8]  62 04 BA 2F FF FF FF FF
 (000.431293)  can0  18FCDC00   [8]  9F FF FF FF 50 68 2C 18
 (000.431303)  can0  0CF00300   [8]  D0 66 25 FF FF 0F 85 82
 (000.431546)  can0  1CFE9200   [8]  FF 60 BA FF FF FF 3E 00
 (000.437325)  can0  0CF00331   [8]  FF FF FF FF FF FF FF FF
 (000.437575)  can0  0CF00400   [8]  21 9B 9B C7 2F 00 0F 9B
 (000.438390)  can0  0CF00203   [8]  C1 36 15 FF F7 67 26 03
 (000.440145)  can0  0CF00A00   [8]  17 05 AE 18 FF FF FF FF
 (000.440641)  can0  18FD9400   [8]  96 0F FF FF FF FF FF FF
 (000.441227)  can0  18F00E00   [8]  1C 2F FF FF D5 9F FF FF
 (000.445055)  can0  18F03300   [8]  FF FF FF FF FF FF FF FF
 (000.445602)  can0  18FEDF00   [8]  8A A0 28 7D 7D FF FF F5
 (000.448268)  can0  0CF00203   [8]  C1 36 15 FF F7 67 26 03
 (000.448910)  can0  0CF00C03   [8]  5C 04 CB 2F FF FF FF FF
 (000.450436)  can0  18FEE000   [8]  C7 2C 01 00 10 96 35 00
 (000.451761)  can0  0CF00300   [8]  D0 66 25 FF FF 0F 83 82
 (000.455850)  can0  18FEF200   [8]  CC 00 BB 04 C2 09 E1 FF
 (000.455860)  can0  18F00F00   [8]  D0 0E FF FF D5 9F FF FF
 (000.457357)  can0  0CF00400   [8]  21 9B 9B 9C 2F 00 0F 9B
 (000.458825)  can0  0CF00203   [8]  C1 64 15 FF F7 B4 26 03
 (000.465411)  can0  0C010305   [8]  FF FF FF FF FF F3 FF FF
 (000.465463)  can0  18FEDF00   [8]  8A A0 28 7D 7D FF FF F5
 (000.466220)  can0  10FCFD00   [8]  FF FF FF FF A6 76 FF FF
 (000.466701)  can0  0CFD9200   [8]  F4 FF FF FF FF FF FF FF
 (000.468436)  can0  0CF00203   [8]  C1 64 15 FF F7 B4 26 03
 (000.468945)  can0  0CF00C03   [8]  59 04 7A 2F FF FF FF FF
 (000.470550)  can0  0CF00300   [8]  D0 67 25 FF FF 0F 83 82
 (000.475079)  can0  18F00100   [8]  FF FF FF FF FF FF FF FF
 (000.477030)  can0  0CF00400   [8]  71 9C 9B B7 2F 00 0F 9C
 (000.478312)  can0  0CF00203   [8]  C1 6A 15 FF F7 CE 26 03
 (000.482960)  can0  18F0010B   [8]  CF FF F0 FF FF CD FF FF
 (000.485442)  can0  18FEDF00   [8]  8A A0 28 7D 7D FF FF F5
 (000.487028)  can0  18F00131   [8]  FF FF FF 3F 00 FF FF FF
 (000.487423)  can0  18FEF131   [8]  F3 FF FF C3 CC FF FF F0
 (000.488011)  can0  18FEF031   [8]  FF FF FF FF FF FC CC FF
 (000.488592)  can0  0CF00203   [8]  C1 6A 15 FF F7 CE 26 03
 (000.489190)  can0  18FF4831   [8]  00 00 FF FF 00 00 00 00
 (000.489759)  can0  0CF00C03   [8]  53 04 D2 2F FF FF FF FF
 (000.490358)  can0  18FEF231   [8]  FF FF FF FF FF FF FF FF
 (000.490955)  can0  0CF00300   [8]  D0 69 25 FF FF 0F 83 82
 (000.491521)  can0  0CF00331   [8]  FF FF FF FF FF FF FF FF
 (000.492070)  can0  0CF00A00   [8]  17 05 89 18 FF FF FF FF
 (000.492605)  can0  18F00503   [8]  7F 12 07 7F 35 20 32 43
 (000.493173)  can0  18FEBF0B   [8]  B0 18 7C 7E 74 76 FF FF
 (000.493725)  can0  18FE4A03   [8]  03 0F 4F FF FF F3 FF FF
 (000.494406)  can0  18FEF000   [8]  FF FF FF C0 2B FF FF FF
 (000.494875)  can0  18F00E00   [8]  70 2E FF FF D5 9F FF FF
 (000.495485)  can0  18FD9503   [8]  CC FF FF AF FF FF FF FF
 (000.496080)  can0  18F03300   [8]  FF FF FF FF FF FF FF FF
 (000.497420)  can0  18FEF803   [8]  FF FF FF FF D5 2B FF FF
 (000.497425)  can0  0CF00400   [8]  61 9D 9C CC 2F 00 0F 9D
 (000.498777)  can0  0CF00203   [8]  C1 3F 15 FF F7 7C 26 03
 (000.500244)  can0  18FCF200   [8]  E1 FF FF FF FF FF FF FF
 (000.505084)  can0  18FEDF00   [8]  8A A0 28 7D 7D FF FF F5
 (000.505650)  can0  18F00F00   [8]  D0 0E FF FF D5 9F FF FF
 (000.508294)  can0  0CF00203   [8]  C1 3F 15 FF F7 7C 26 03
 (000.508900)  can0  0CF00C03   [8]  5C 04 A7 2F FF FF FF FF
 (000.510406)  can0  18FD0700   [8]  43 0C FC FF FF FF FF FF
 (000.510975)  can0  0CF00300   [8]  D0 6B 27 FF FF 0F 84 82
 (000.511621)  can0  18FEF100   [8]  FF 64 18 FC FF 68 00 CF
 (000.514935)  can0  0C010305   [8]  FF FF FF FF FF F3 FF FF
 (000.517411)  can0  0CF00400   [8]  41 9E 9D D5 2F 00 0F 9E
 (000.519004)  can0  0CF00203   [8]  C1 EE 14 FF F7 D1 25 03
 (000.520145)  can0  10FDA300   [8]  FF FF 2E FF FF FF FF FF
 (000.520653)  can0  18F00029   [8]  F0 7D 7D F3 29 FF FF 36
 (000.525354)  can0  18FEDF00   [8]  8A A0 28 7D 7D FF FF F5
 (000.528317)  can0  0CF00203   [8]  C1 EE 14 FF F7 D1 25 03
 (000.528930)  can0  0CF00C03   [8]  69 04 DF 2F FF FF FF FF
 (000.531308)  can0  18FCDC00   [8]  9F FF FF FF 50 68 64 18
 (000.531318)  can0  0CF00300   [8]  D0 6C 27 FF FF 0F 81 82
 (000.531539)  can0  1CFE9200   [8]  FF BC B9 FF FF FF 40 00
 (000.537322)  can0  0CF00331   [8]  FF FF FF FF FF FF FF FF
 (000.537383)  can0  0CF00400   [8]  71 9E 9D B1 2F 00 0F 9E
 (000.538407)  can0  0CF00203   [8]  C1 B9 14 FF F7 70 25 03
 (000.540052)  can0  14FC9800   [8]  FF 00 00 00 00 00 00 FF
 (000.540605)  can0  0CF00A00   [8]  04 05 9C 18 FF FF FF FF
 (000.541205)  can0  18FD9400   [8]  96 0F FF FF FF FF FF FF
 (000.541764)  can0  18F00E00   [8]  AC 2D FF FF D5 9F FF FF
 (000.545091)  can0  18F03300   [8]  FF FF FF FF FF FF FF FF
 (000.545706)  can0  18FEDF00   [8]  8A A0 28 7D 7D FF FF F5
 (000.548327)  can0  0CF00203   [8]  C1 B9 14 FF F7 70 25 03
 (000.548913)  can0  0CF00C03   [8]  74 04 A9 2F FF FF FF FF
 (000.550627)  can0  18FEE000   [8]  C7 2C 01 00 10 96 35 00
 (000.550937)  can0  0CF00300   [8]  D0 6C 28 FF FF 0F 81 82
 (000.555077)  can0  18FDB400   [8]  69 45 8C 44 FF FF FF FF
 (000.555609)  can0  18FEF200   [8]  C9 00 D7 04 C3 09 E1 FF
 (000.556196)  can0  18F00F00   [8]  CE 0E FF FF D5 9F FF FF
 (000.557160)  can0  0CF00400   [8]  01 9E 9E EF 2F 00 0F 9E
 (000.558360)  can0  0CF00203   [8]  C1 01 15 FF F7 19 26 03
 (000.565528)  can0  0C010305   [8]  FF FF FF FF FF F3 FF FF
 (000.565538)  can0  18FEDF00   [8]  8A A0 28 7D 7D FF FF F5
 (000.566083)  can0  10FCFD00   [8]  FF FF FF FF B3 7B FF FF
 (000.568289)  can0  0CF00203   [8]  C1 01 15 FF F7 19 26 03
 (000.568900)  can0  0CF00C03   [8]  64 04 2D 30 FF FF FF FF
 (000.570654)  can0  0CF00300   [8]  D0 6C 28 FF FF 0F 80 82
 (000.575038)  can0  18F00100   [8]  FF FF FF FF FF FF FF FF
 (000.577027)  can0  0CF00400   [8]  61 9E 9D 4C 30 00 0F 9E
 (000.578229)  can0  0CF00203   [8]  C1 9D 15 FF F7 51 27 03
 (000.580053)  can0  18FDB300   [8]  FF FF 3C 46 FF FF FF FF
 (000.583582)  can0  18F0010B   [8]  CF FF F0 FF FF CD FF FF
 (000.585111)  can0  18FEDF00   [8]  8A A0 28 7D 7D FF FF F5
 (000.587003)  can0  18F00131   [8]  FF FF FF 3F 00 FF FF FF
 (000.587429)  can0  18FEF131   [8]  F3 FF FF C3 CC FF FF F0
 (000.588051)  can0  18FEF031   [8]  FF FF FF FF FF FC CC FF
 (000.588628)  can0  0CF00203   [8]  C1 9D 15 FF F7 51 27 03
 (000.589204)  can0  18FF4831   [8]  00 00 FF FF 00 00 00 00
 (000.589778)  can0  0CF00C03   [8]  4C 04 6B 30 FF FF FF FF
 (000.590357)  can0  18FEF231   [8]  FF FF FF FF FF FF FF FF
 (000.590973)  can0  0CF00300   [8]  D0 6B 28 FF FF 0F 81 82
 (000.591493)  can0  0CF00331   [8]  FF FF FF FF FF FF FF FF
 (000.592077)  can0  0CF00A00   [8]  04 05 CA 18 FF FF FF FF
 (000.592664)  can0  18F00503   [8]  7F 12 07 7F 35 20 32 43
 (000.593189)  can0  18FEBF0B   [8]  F0 18 7E 7C 7A 7C FF FF
 (000.593796)  can0  18FE4A03   [8]  03 0F 4F FF FF F3 FF FF
 (000.594371)  can0  18FEF000   [8]  FF FF FF C0 2B FF FF FF
 (000.594972)  can0  18F00E00   [8]  20 2D FF FF D5 9F FF FF
 (000.595524)  can0  18F03300   [8]  FF FF FF FF FF FF FF FF
 (000.597662)  can0  0CF00400   [8]  41 9E 9D A3 30 00 0F 9E
 (000.599065)  can0  0CF00203   [8]  C1 0D 16 FF F7 FF 27 03
 (000.600147)  can0  18FDB200   [8]  FF FF FF FF 0F 00 FF FF
 (000.600648)  can0  18FCF200   [8]  E1 FF FF FF FF FF FF FF
 (000.605100)  can0  18FEDF00   [8]  8A A0 28 7D 7D FF FF F5
 (000.605702)  can0  18F00F00   [8]  DA 0E FF FF D5 9F FF FF
 (000.608255)  can0  0CF00203   [8]  C1 0D 16 FF F7 FF 27 03
 (000.608851)  can0  0CF00C03   [8]  46 04 9F 30 FF FF FF FF
 (000.610477)  can0  0CF00300   [8]  D0 6B 27 FF FF 0F 7F 82
 (000.610976)  can0  18FEF100   [8]  FF A4 18 FC FF 68 00 CF
 (000.615101)  can0  0C010305   [8]  FF FF FF FF FF F3 FF FF
 (000.617157)  can0  0CF00400   [8]  31 9D 9D 81 30 00 0F 9D
 (000.618332)  can0  0CF00203   [8]  C1 0C 16 FF F7 D1 27 03
 (000.620138)  can0  10FDA300   [8]  FF FF 30 FF FF FF FF FF
 (000.620651)  can0  18F00029   [8]  F0 7D 7D F3 29 FF FF 36
 (000.625556)  can0  18FD8C00   [8]  FF FF 12 00 FF FF FF FF
 (000.625711)  can0  18FEDF00   [8]  8A A0 28 7D 7D FF FF F5
 (000.627967)  can0  18FECA31   [8]  00 FF 00 00 00 00 FF FF
 (000.627977)  can0  18F11031   [8]  00 00 FF FF FF FF FF FF
 (000.628591)  can0  0CF00203   [8]  C1 0C 16 FF F7 D1 27 03
 (000.629323)  can0  0CF00C03   [8]  4D 04 85 30 FF FF FF FF
 (000.630978)  can0  18FCDC00   [8]  9F FF FF FF 50 68 A4 18
 (000.630988)  can0  0CF00300   [8]  D0 6B 27 FF FF 0F 7F 82
 (000.631562)  can0  1CFE9200   [8]  FF 28 BC FF FF FF 46 00
 (000.636861)  can0  0CF00331   [8]  FF FF FF FF FF FF FF FF
 (000.637424)  can0  0CF00400   [8]  21 9D 9D A8 30 00 0F 9D
 (000.638324)  can0  0CF00203   [8]  C1 C7 15 FF F7 5A 27 03
 (000.640045)  can0  0CF00A00   [8]  33 05 F9 18 FF FF FF FF
 (000.640651)  can0  18FD9400   [8]  96 0F FF FF FF FF FF FF
 (000.641198)  can0  18F00E00   [8]  B8 2C FF FF D5 9F FF FF
 (000.645110)  can0  18FD2000   [8]  69 45 FF FF FF FF FF FF
 (000.645708)  can0  18F03300   [8]  FF FF FF FF FF FF FF FF
 (000.646261)  can0  18FEDF00   [8]  8A A0 28 7D 7D FF FF F5
 (000.648299)  can0  0CF00203   [8]  C1 C7 15 FF F7 5A 27 03
 (000.648902)  can0  0CF00C03   [8]  59 04 A9 30 FF FF FF FF
 (000.651206)  can0  18FEE000   [8]  C7 2C 01 00 10 96 35 00
 (000.651214)  can0  0CF00300   [8]  D0 6B 27 FF FF 0F 7E 82
 (000.655754)  can0  18FEF200   [8]  B5 00 57 05 C2 09 E1 FF
 (000.655762)  can0  18F00F00   [8]  DA 0E FF FF D5 9F FF FF
 (000.657545)  can0  0CF00400   [8]  11 9D 9D C2 30 00 0F 9D
 (000.658444)  can0  0CF00203   [8]  C1 A8 15 FF F7 47 27 03
 (000.665520)  can0  0C010305   [8]  FF FF FF FF FF F3 FF FF
 (000.665530)  can0  18FEDF00   [8]  8A A0 28 7D 7D FF FF F5
 (000.666102)  can0  10FCFD00   [8]  FF FF FF FF 10 7D FF FF
 (000.668298)  can0  0CF00203   [8]  C1 A8 15 FF F7 47 27 03
 (000.668907)  can0  0CF00C03   [8]  59 04 CE 30 FF FF FF FF
 (000.670572)  can0  18FD3E00   [8]  73 40 FF 0C 3C FF FF FF
 (000.671124)  can0  0CF00300   [8]  D0 6A 27 FF FF 0F 80 82
 (000.675102)  can0  18F00100   [8]  FF FF FF FF FF FF FF FF
 (000.677139)  can0  0CF00400   [8]  01 9D 9D DE 30 00 0F 9D
 (000.678372)  can0  0CF00203   [8]  C1 DF 15 FF F7 AD 27 03
 (000.683840)  can0  18F0010B   [8]  CF FF F0 FF FF CD FF FF
 (000.685108)  can0  18FEDF00   [8]  8A A0 28 7D 7D FF FF F5
 (000.686888)  can0  18F00131   [8]  FF FF FF 3F 00 FF FF FF
 (000.687410)  can0  18FEF131   [8]  F3 FF FF C3 CC FF FF F0
 (000.688056)  can0  18FEF031   [8]  FF FF FF FF FF FC CC FF
 (000.688606)  can0  0CF00203   [8]  C1 DF 15 FF F7 AD 27 03
 (000.689348)  can0  18FF4831   [8]  00 00 FF FF 00 00 00 00
 (000.689763)  can0  0CF00C03   [8]  55 04 80 30 FF FF FF FF
 (000.690362)  can0  18FEF231   [8]  FF FF FF FF FF FF FF FF
 (000.690884)  can0  18F00503   [8]  7F 12 07 7F 35 20 32 43
 (000.691490)  can0  0CF00331   [8]  FF FF FF FF FF FF FF FF
 (000.692051)  can0  18FD4000   [8]  FF 3F 00 FF FF FF FF FF
 (000.692688)  can0  18FE4A03   [8]  03 0F 4F FF FF F3 FF FF
 (000.693190)  can0  0CF00300   [8]  D0 6A 27 FF FF 0F 7F 82
 (000.693771)  can0  18FEBF0B   [8]  00 19 7D 7D 7D 7F FF FF
 (000.694381)  can0  0CF00A00   [8]  33 05 F0 18 FF FF FF FF
 (000.694938)  can0  18FEF000   [8]  FF FF FF C0 2B FF FF FF
 (000.695499)  can0  18F00E00   [8]  48 2C FF FF D5 9F FF FF
 (000.696101)  can0  18F03300   [8]  FF FF FF FF FF FF FF FF
 (000.697528)  can0  0CF00400   [8]  71 9D 9C 30 30 00 0F 9D
 (000.698919)  can0  0CF00203   [8]  C1 38 16 FF F7 70 28 03
 (000.700120)  can0  18FCF200   [8]  E1 FF FF FF FF FF FF FF
 (000.705103)  can0  18FEDF00   [8]  8A A0 28 7D 7D FF FF F5
 (000.705700)  can0  18F00F00   [8]  DA 0E FF FF D5 9F FF FF
 (000.708300)  can0  0CF00203   [8]  C1 38 16 FF F7 70 28 03
 (000.708894)  can0  0CF00C03   [8]  40 04 22 30 FF FF FF FF
 (000.710487)  can0  0CF00300   [8]  D0 69 27 FF FF 0F 80 82
 (000.711084)  can0  18FEF100   [8]  FF EC 18 FC FF 68 00 CF
 (000.715658)  can0  0C010305   [8]  FF FF FF FF FF F3 FF FF
 (000.715666)  can0  18FCC500   [8]  73 40 FF FF FF FF FF FF
 (000.716091)  can0  0CFD9200   [8]  F4 FF FF FF FF FF FF FF
 (000.717721)  can0  0CF00400   [8]  41 9D 9C E4 2F 00 0F 9D
 (000.718322)  can0  0CF00203   [8]  C1 8B 16 FF F7 D4 28 03
 (000.720158)  can0  10FDA300   [8]  FF FF 30 FF FF FF FF FF
 (000.720670)  can0  18F00029   [8]  F0 7D 7D F3 29 FF FF 36
 (000.725492)  can0  18FEDF00   [8]  8A A0 28 7D 7D FF FF F5
 (000.728280)  can0  0CF00203   [8]  C1 8B 16 FF F7 D4 28 03
 (000.728899)  can0  0CF00C03   [8]  35 04 7E 2F FF FF FF FF
 (000.730622)  can0  18FCDC00   [8]  9F FF FF FF 50 68 EC 18
 (000.731061)  can0  0CF00300   [8]  D0 68 26 FF FF 0F 80 82
 (000.731609)  can0  1CFE9200   [8]  FF 54 BA FF FF FF 44 00
 (000.736872)  can0  0CF00331   [8]  FF FF FF FF FF FF FF FF
 (000.737422)  can0  0CF00400   [8]  21 9C 9C 41 2F 00 0F 9C
 (000.738324)  can0  0CF00203   [8]  C1 A9 16 FF F7 1C 29 03
 (000.740107)  can0  0CF00A00   [8]  33 05 7F 18 FF FF FF FF
 (000.740647)  can0  18FD9400   [8]  30 12 FF FF FF FF FF FF
 (000.741236)  can0  18FEEF00   [8]  FF FF FF 49 BD 7D FF FA
 (000.741801)  can0  18F00E00   [8]  02 2C FF FF D5 9F FF FF
 (000.745159)  can0  18F03300   [8]  FF FF FF FF FF FF FF FF
 (000.745742)  can0  18FEDF00   [8]  8A A0 28 7D 7D FF FF F5
 (000.748270)  can0  0CF00203   [8]  C1 A9 16 FF F7 1C 29 03
 (000.748904)  can0  0CF00C03   [8]  25 04 0C 2F FF FF FF FF
 (000.750578)  can0  18FEE000   [8]  C7 2C 01 00 10 96 35 00
 (000.750942)  can0  0CF00300   [8]  D0 67 26 FF FF 0F 82 82
 (000.755809)  can0  18FEF200   [8]  DD 00 7E 04 C3 09 E1 FF
 (000.755817)  can0  18F00F00   [8]  DA 0E FF FF D5 9F FF FF
 (000.757342)  can0  0CF00400   [8]  21 9C 9C 92 2E 00 0F 9C
 (000.758974)  can0  0CF00203   [8]  C1 91 16 FF F7 DC 28 03
 (000.760122)  can0  18FEDB00   [8]  FF FF 84 78 FF FF FF FF
 (000.765359)  can0  0C010305   [8]  FF FF FF FF FF F3 FF FF
 (000.765517)  can0  18FEDF00   [8]  8A A0 28 7D 7D FF FF F5
 (000.766102)  can0  10FCFD00   [8]  FF FF FF FF 2C 75 FF FF
 (000.768276)  can0  0CF00203   [8]  C1 91 16 FF F7 DC 28 03
 (000.768901)  can0  0CF00C03   [8]  20 04 F5 2D FF FF FF FF
 (000.770574)  can0  0CF00300   [8]  D0 67 26 FF FF 0F 82 82
 (000.775129)  can0  18F00100   [8]  FF FF FF FF FF FF FF FF
 (000.777104)  can0  0CF00400   [8]  21 9C 9C 6B 2D 00 0F 9C
 (000.778306)  can0  0CF00203   [8]  C1 3F 16 FF F7 25 28 03
 (000.780143)  can0  18FEF600   [8]  FF 17 61 FF FF FF FF FF
 (000.783654)  can0  18F0010B   [8]  CF FF F0 FF FF CD FF FF
 (000.785515)  can0  18FEDF00   [8]  89 A0 28 7D 7D FF FF F5
 (000.787170)  can0  18F00131   [8]  FF FF FF 3F 00 FF FF FF
 (000.787436)  can0  18E0FF31   [8]  00 FF FF FF FF F0 FF FF
 (000.788092)  can0  18FEF131   [8]  F3 FF FF C3 CC FF FF F0
 (000.788600)  can0  0CF00203   [8]  C1 3F 16 FF F7 25 28 03
 (000.789219)  can0  18FEF031   [8]  FF FF FF FF FF FC CC FF
 (000.789753)  can0  0CF00C03   [8]  21 04 3D 2D FF FF FF FF
 (000.790346)  can0  18FEFC31   [8]  FF 77 FF FF FF FF 00 FF
 (000.790900)  can0  0CF00300   [8]  D0 67 26 FF FF 0F 84 82
 (000.791485)  can0  18F00503   [8]  7F 12 07 7F 35 20 32 43
 (000.792045)  can0  0CF00A00   [8]  20 05 B1 17 FF FF FF FF
 (000.792641)  can0  18FE4A03   [8]  03 0F 4F FF FF F3 FF FF
 (000.793159)  can0  18FEAE31   [8]  FF FF 65 65 FF FF FF FF
 (000.793762)  can0  18FEBF0B   [8]  40 19 7D 7D 81 7F FF FF
 (000.794331)  can0  18FEF000   [8]  FF FF FF C0 2B FF FF FF
 (000.794910)  can0  18FEF731   [8]  FF FF FF FF 1A 01 FF FF
 (000.795468)  can0  18F00E00   [8]  4C 2B FF FF D5 9F FF FF
 (000.796109)  can0  18F03300   [8]  FF FF FF FF FF FF FF FF
 (000.796627)  can0  18FF4831   [8]  00 00 FF FF 00 00 00 00
 (000.797953)  can0  0CF00400   [8]  31 9C 9C E0 2C 00 0F 9C
 (000.797957)  can0  18FD8331   [8]  F8 FF FF FF FF FF FF FF
 (000.798320)  can0  0CF00203   [8]  C1 E3 15 FF F7 7B 27 03
 (000.798906)  can0  18FEF831   [8]  FF FF FF FF FF FF FF FF
 (000.799489)  can0  18FEF231   [8]  FF FF FF FF FF FF FF FF
 (000.800115)  can0  18FEFA31   [8]  FF C9 CA FF FF FF FF FF
 (000.800678)  can0  18FCF200   [8]  E1 FF FF FF FF FF FF FF
 (000.801250)  can0  18FEC131   [8]  B1 41 67 06 FF FF FF FF
 (000.801821)  can0  0CF00331   [8]  FF FF FF FF FF FF FF FF
 (000.805204)  can0  18FEDF00   [8]  89 A0 28 7D 7D FF FF F5
 (000.805803)  can0  18FDC600   [8]  FC 04 FF FF FF FF FF FF
 (000.806401)  can0  18F00F00   [8]  E4 0E FF FF D5 9F FF FF
 (000.808276)  can0  0CF00203   [8]  C1 E3 15 FF F7 7B 27 03
 (000.808898)  can0  0CF00C03   [8]  1E 04 88 2C FF FF FF FF
 (000.810493)  can0  0CF00300   [8]  D0 66 26 FF FF 0F 85 82
 (000.811106)  can0  18FEF100   [8]  FF 6C 19 FC FF 68 00 CF
 (000.815556)  can0  0C010305   [8]  FF FF FF FF FF F3 FF FF
 (000.817571)  can0  0CF00400   [8]  11 9C 9C 4F 2C 00 0F 9C
 (000.818395)  can0  0CF00203   [8]  C1 AB 15 FF F7 37 27 03
 (000.820241)  can0  10FDA300   [8]  FF FF 2A FF FF FF FF FF
 (000.820677)  can0  18F00029   [8]  F0 7D 7D F3 29 FF FF 37
 (000.825278)  can0  18FEDF00   [8]  89 A0 28 7D 7D FF FF F5
 (000.828281)  can0  0CF00203   [8]  C1 AB 15 FF F7 37 27 03
 (000.828868)  can0  0CF00C03   [8]  14 04 F6 2B FF FF FF FF
 (000.830452)  can0  18FCDC00   [8]  9F FF FF FF 50 68 6C 19
 (000.831009)  can0  0CF00300   [8]  D0 66 26 FF FF 0F 86 82
 (000.831577)  can0  1CFE9200   [8]  FF 74 B6 FF FF FF 40 00
 (000.836862)  can0  0CF00331   [8]  FF FF FF FF FF FF FF FF
 (000.837422)  can0  0CF00400   [8]  21 9D 9C A9 2B 00 0F 9D
 (000.838428)  can0  0CF00203   [8]  C1 BE 15 FF F7 7B 27 03
 (000.840234)  can0  0CF00A00   [8]  E8 04 BD 16 FF FF FF FF
 (000.840664)  can0  18FD9400   [8]  96 0F FF FF FF FF FF FF
 (000.841277)  can0  18F00E00   [8]  22 2B FF FF D5 9F FF FF
 (000.845160)  can0  18F03300   [8]  FF FF FF FF FF FF FF FF
 (000.845731)  can0  18FEDF00   [8]  89 A0 28 7D 7D FF FF F5
 (000.848298)  can0  0CF00203   [8]  C1 BE 15 FF F7 7B 27 03
 (000.848904)  can0  0CF00C03   [8]  0F 04 57 2B FF FF FF FF
 (000.851294)  can0  18FEF700   [8]  FF FF FF FF 19 01 FF FF
 (000.851303)  can0  18FEE000   [8]  C7 2C 01 00 10 96 35 00
 (000.851587)  can0  0CF00300   [8]  D0 66 26 FF FF 0F 84 82
 (000.855824)  can0  18FEF200   [8]  D8 00 B5 04 C2 09 E1 FF
 (000.855833)  can0  18F00F00   [8]  EC 0E FF FF D5 9F FF FF
 (000.857424)  can0  0CF00400   [8]  21 9D 9C D6 2A 00 0F 9D
 (000.858405)  can0  0CF00203   [8]  C1 02 16 FF F7 E7 27 03
 (000.861499)  can0  18EAFF31   [3]  E9 FE 00
 (000.864845)  can0  18FEE900   [8]  68 0F 00 00 C2 3F 03 00
 (000.865434)  can0  0C010305   [8]  FF FF FF FF FF F3 FF FF
 (000.866015)  can0  18FEDF00   [8]  89 A0 28 7D 7D FF FF F5
 (000.866581)  can0  10FCFD00   [8]  FF FF FF FF C6 6A FF FF
 (000.868283)  can0  0CF00203   [8]  C1 02 16 FF F7 E7 27 03
 (000.868900)  can0  0CF00C03   [8]  04 04 58 2A FF FF FF FF
 (000.869518)  can0  18FECA03   [8]  00 FF 00 00 00 00 FF FF
 (000.870600)  can0  18FEC100   [8]  9A A7 3B 05 79 5F 1D 00
 (000.871186)  can0  0CF00300   [8]  D0 66 26 FF FF 0F 85 82
 (000.875151)  can0  18F00100   [8]  FF FF FF FF FF FF FF FF
 (000.877009)  can0  0CF00400   [8]  01 9D 9C 59 2A 00 0F 9D
 (000.878275)  can0  0CF00203   [8]  C1 26 16 FF F7 0A 28 03
 (000.884315)  can0  18F0010B   [8]  CF FF F0 FF FF CD FF FF
 (000.885159)  can0  18FEDF00   [8]  89 A0 28 7D 7D FF FF F5
 (000.886887)  can0  18F00131   [8]  FF FF FF 3F 00 FF FF FF
 (000.887468)  can0  18FEF131   [8]  F3 FF FF C3 CC FF FF F0
 (000.888010)  can0  18FEF031   [8]  FF FF FF FF FF FC CC FF
 (000.888599)  can0  0CF00203   [8]  C1 26 16 FF F7 0A 28 03
 (000.889178)  can0  18FF4831   [8]  00 00 FF FF 00 00 00 00
 (000.889756)  can0  0CF00C03   [8]  FE 03 43 2A FF FF FF FF
 (000.890328)  can0  18FEF231   [8]  FF FF FF FF FF FF FF FF
 (000.890901)  can0  0CF00300   [8]  D0 66 26 FF FF 0F 85 82
 (000.891471)  can0  0CF00331   [8]  FF FF FF FF FF FF FF FF
 (000.891986)  can0  0CF00A00   [8]  CC 04 CA 15 FF FF FF FF
 (000.892574)  can0  18F00503   [8]  7F 12 07 7F 35 20 32 43
 (000.893209)  can0  18FEF000   [8]  FF FF FF 8D 2A FF FF FF
 (000.893764)  can0  18FE4A03   [8]  03 0F 4F FF FF F3 FF FF
 (000.894337)  can0  18F00E00   [8]  00 2B FF FF D5 9F FF FF
 (000.894908)  can0  18FEBF0B   [8]  80 19 7D 7D 7F 77 FF FF
 (000.895497)  can0  18FE5600   [8]  96 42 FF FF 1F 1F 00 FF
 (000.896004)  can0  18F03300   [8]  FF FF FF FF FF FF FF FF
 (000.897160)  can0  0CF00400   [8]  01 9D 9C 23 2A 00 0F 9D
 (000.898311)  can0  0CF00203   [8]  C1 0F 16 FF F7 E5 27 03
 (000.900169)  can0  18FCF200   [8]  E1 FF FF FF FF FF FF FF
 (000.905304)  can0  18FEDF00   [8]  89 A0 28 7D 7D FF FF F5
 (000.905695)  can0  18F00F00   [8]  EE 0E FF FF D5 9F FF FF
 (000.908278)  can0  0CF00203   [8]  C1 0F 16 FF F7 E5 27 03
 (000.908907)  can0  0CF00C03   [8]  FC 03 0D 2A FF FF FF FF
 (000.910469)  can0  0CF00300   [8]  D0 66 26 FF FF 0F 86 82
 (000.911031)  can0  18FEF100   [8]  FF 64 19 FC FF 68 00 CF
 (000.915509)  can0  0C010305   [8]  FF FF FF FF FF F3 FF FF
 (000.915517)  can0  18FD7B00   [8]  00 FF DD B7 00 00 1F 55
 (000.917312)  can0  0CF00400   [8]  11 9D 9C D5 29 00 0F 9D
 (000.918946)  can0  0CF00203   [8]  C1 EC 15 FF F7 BF 27 03
 (000.920133)  can0  10FDA300   [8]  FF FF 28 FF FF FF FF FF
 (000.920711)  can0  18F00029   [8]  F0 7D 7D F3 29 FF FF 38
 (000.925443)  can0  18FEDF00   [8]  89 A0 28 7D 7D FF FF F5
 (000.928238)  can0  0CF00203   [8]  C1 EC 15 FF F7 BF 27 03
 (000.928859)  can0  0CF00C03   [8]  E8 03 B3 29 FF FF FF FF
 (000.930411)  can0  18FCDC00   [8]  9F FF FF FF 50 68 64 19
 (000.930983)  can0  0CF00300   [8]  D0 66 26 FF FF 0F 84 82
 (000.931558)  can0  1CFE9200   [8]  FF 30 B6 FF FF FF 3C 00
 (000.937291)  can0  0CF00331   [8]  FF FF FF FF FF FF FF FF
 (000.937452)  can0  0CF00400   [8]  21 9D 9C BF 29 00 0F 9D
 (000.938467)  can0  0CF00203   [8]  C1 FB 15 FF F7 DB 27 03
 (000.940235)  can0  0CF00A00   [8]  A6 04 46 15 FF FF FF FF
 (000.940661)  can0  18FD9400   [8]  FD 0C FF FF FF FF FF FF
 (000.941297)  can0  18FEDD00   [8]  FF 41 3E FF FF FF FF FF
 (000.941847)  can0  18F00E00   [8]  D8 2A FF FF D5 9F FF FF
 (000.945182)  can0  18F03300   [8]  FF FF FF FF FF FF FF FF
 (000.945749)  can0  18FEDF00   [8]  89 A0 28 7D 7D FF FF F5
 (000.948285)  can0  0CF00203   [8]  C1 FB 15 FF F7 DB 27 03
 (000.948910)  can0  0CF00C03   [8]  E8 03 A6 29 FF FF FF FF
 (000.950509)  can0  18FEE000   [8]  C7 2C 01 00 10 96 35 00
 (000.951863)  can0  0CF00300   [8]  D0 66 26 FF FF 0F 82 82
 (000.955842)  can0  18FEF200   [8]  B4 00 9E 05 C3 09 E1 FF
 (000.955852)  can0  18F00F00   [8]  F8 0E FF FF D5 9F FF FF
 (000.957409)  can0  0CF00400   [8]  41 9D 9C 79 29 00 0F 9D
 (000.958991)  can0  0CF00203   [8]  C1 33 16 FF F7 2F 28 03
 (000.960177)  can0  18FEE400   [8]  FF 3F FC FC 00 7F FF FF
 (000.964966)  can0  0C010305   [8]  FF FF FF FF FF F3 FF FF
 (000.965531)  can0  18FEDF00   [8]  89 A0 28 7D 7D FF FF F5
 (000.966103)  can0  10FCFD00   [8]  FF FF FF FF D3 66 FF FF
 (000.966696)  can0  0CFD9200   [8]  F4 FF FF FF FF FF FF FF
 (000.968273)  can0  0CF00203   [8]  C1 33 16 FF F7 2F 28 03
 (000.968875)  can0  0CF00C03   [8]  E8 03 99 29 FF FF FF FF
 (000.970623)  can0  0CF00300   [8]  D0 67 27 FF FF 0F 82 82
 (000.975102)  can0  18F00100   [8]  FF FF FF FF FF FF FF FF
 (000.977010)  can0  0CF00400   [8]  71 9E 9C 82 29 00 0F 9E
 (000.978281)  can0  0CF00203   [8]  C1 62 16 FF F7 87 28 03
 (000.984279)  can0  18F0010B   [8]  CF FF F0 FF FF CD FF FF
 (000.985181)  can0  18FEDF00   [8]  89 A0 28 7D 7D FF FF F5
 (000.986896)  can0  18F00131   [8]  FF FF FF 3F 00 FF FF FF
 (000.987469)  can0  18FEF131   [8]  F3 FF FF C3 CC FF FF F0
 (000.988008)  can0  18FEF031   [8]  FF FF FF FF FF FC CC FF
 (000.988735)  can0  0CF00203   [8]  C1 62 16 FF F7 87 28 03
 (000.989137)  can0  18FF4831   [8]  00 00 FF FF 00 00 00 00
 (000.989859)  can0  0CF00C03   [8]  E8 03 7A 29 FF FF FF FF
 (000.990288)  can0  18FEF231   [8]  FF FF FF FF FF FF FF FF
 (000.991627)  can0  0CF00300   [8]  D0 68 27 FF FF 0F 82 82
 (000.991636)  can0  0CF00331   [8]  FF FF FF FF FF FF FF FF
 (000.992013)  can0  0CF00A00   [8]  9D 04 DF 14 FF FF FF FF
 (000.992632)  can0  18F00503   [8]  7F 12 07 7F 35 20 32 43
 (000.993138)  can0  18FEF000   [8]  FF FF FF 7B 29 FF FF FF
 (000.993710)  can0  18FE4A03   [8]  03 0F 4F FF FF F3 FF FF
 (000.994280)  can0  18FEBD00   [8]  00 F0 FF FF FF FF FF FF
 (000.994852)  can0  18F00E00   [8]  BE 2A FF FF D5 9F FF FF
 (000.995407)  can0  18FEBF0B   [8]  E0 19 7B 7F 7B 79 FF FF
 (000.996005)  can0  18F03300   [8]  FF FF FF FF FF FF FF FF
 (000.997248)  can0  0CF00400   [8]  21 9E 9D BF 29 00 0F 9E
 (000.998324)  can0  0CF00203   [8]  C1 59 16 FF F7 73 28 03
 (001.000113)  can0  18FCF200   [8]  E1 FF FF FF FF FF FF FF
 (001.005311)  can0  18FEDF00   [8]  89 A0 28 7D 7D FF FF F5
 (001.005728)  can0  18E0FF00   [8]  00 FF FF FF FF FF FF FF
 (001.006344)  can0  18F00F00   [8]  F8 0E FF FF D5 9F FF FF
 (001.008275)  can0  0CF00203   [8]  C1 59 16 FF F7 73 28 03
 (001.008902)  can0  0CF00C03   [8]  E8 03 E7 29 FF FF FF FF
 (001.010634)  can0  0CF00300   [8]  D0 69 27 FF FF 0F 81 82
 (001.011180)  can0  18FEF100   [8]  FF 8C 19 FC FF 68 00 CF
 (001.015716)  can0  0C010305   [8]  FF FF FF FF FF F3 FF FF
 (001.015725)  can0  18FEEE00   [8]  84 FF FF FF FF FF FF FF
 (001.017369)  can0  0CF00400   [8]  71 9E 9D F6 29 00 0F 9E
 (001.018994)  can0  0CF00203   [8]  C1 41 16 FF F7 54 28 03
 (001.020154)  can0  10FDA300   [8]  FF FF 2D FF FF FF FF FF
 (001.020677)  can0  18F00029   [8]  F0 7D 7D F3 29 FF FF 39
 (001.025407)  can0  18FEDF00   [8]  89 A0 28 7D 7D FF FF F5
 (001.028284)  can0  0CF00203   [8]  C1 41 16 FF F7 54 28 03
 (001.028882)  can0  0CF00C03   [8]  E8 03 DE 29 FF FF FF FF
 (001.030483)  can0  18FCDC00   [8]  9F FF FF FF 50 68 8C 19
 (001.031046)  can0  0CF00300   [8]  D0 69 28 FF FF 0F 7F 82
 (001.031603)  can0  1CFE9200   [8]  FF A4 B9 FF FF FF 3C 00
 (001.032178)  can0  18FEF500   [8]  A8 FF FF 43 26 FF FF FF
 (001.037293)  can0  0CF00331   [8]  FF FF FF FF FF FF FF FF
 (001.037373)  can0  0CF00400   [8]  11 9E 9E CC 29 00 0F 9E
 (001.038456)  can0  0CF00203   [8]  C1 5D 16 FF F7 80 28 03
 (001.040120)  can0  14FC9800   [8]  FF 00 00 00 00 00 00 FF
 (001.040702)  can0  0CF00A00   [8]  39 03 4D 16 FF FF FF FF
 (001.041274)  can0  18FD9400   [8]  30 05 FF FF FF FF FF FF
 (001.041826)  can0  18F00E00   [8]  86 2A FF FF D5 9F FF FF
 (001.045149)  can0  18F03300   [8]  FF FF FF FF FF FF FF FF
 (001.045757)  can0  18FEDF00   [8]  89 A0 28 7D 7D FF FF F5
 (001.048289)  can0  0CF00203   [8]  C1 5D 16 FF F7 80 28 03
 (001.048907)  can0  0CF00C03   [8]  E8 03 D1 29 FF FF FF FF
 (001.051293)  can0  18FEE000   [8]  C7 2C 01 00 10 96 35 00
 (001.051303)  can0  0CF00300   [8]  D0 69 29 FF FF 0F 7E 82
 (001.051589)  can0  18FEA400   [8]  FF FF 6B 2A FF FF 47 2C
 (001.055772)  can0  18FDB400   [8]  69 45 8C 44 FF FF FF FF
 (001.055782)  can0  18FEF200   [8]  B3 00 AD 05 C2 09 E1 FF
 (001.056288)  can0  18F00F00   [8]  02 0F FF FF D5 9F FF FF
 (001.057722)  can0  0CF00400   [8]  31 9F 9E 24 2A 00 0F 9F
 (001.058333)  can0  0CF00203   [8]  C1 AB 16 FF F7 11 29 03
 (001.064954)  can0  0C010305   [8]  FF FF FF FF FF F3 FF FF
 (001.065542)  can0  18FEDF00   [8]  89 A0 28 7D 7D FF FF F5
 (001.066138)  can0  10FCFD00   [8]  FF FF FF FF FC 6A FF FF
 (001.068297)  can0  0CF00203   [8]  C1 AB 16 FF F7 11 29 03
 (001.068871)  can0  0CF00C03   [8]  E8 03 72 2A FF FF FF FF
 (001.070617)  can0  0CF00300   [8]  D0 6A 29 FF FF 0F 80 82
 (001.075136)  can0  18FD7C00   [8]  F8 83 00 00 C3 0F 03 FF
 (001.075729)  can0  18F00100   [8]  FF FF FF FF FF FF FF FF
 (001.077212)  can0  0CF00400   [8]  31 9F 9E 99 2A 00 0F 9F
 (001.078330)  can0  0CF00203   [8]  C1 DC 16 FF F7 76 29 03
 (001.080164)  can0  18FDB300   [8]  FF FF 3C 46 FF FF FF FF
 (001.084324)  can0  18F0010B   [8]  CF FF F0 FF FF CD FF FF
 (001.085165)  can0  18FEDF00   [8]  89 A0 28 7D 7D FF FF F5
 (001.087273)  can0  18F00131   [8]  FF FF FF 3F 00 FF FF FF
 (001.087433)  can0  18FEF131   [8]  F3 FF FF C3 CC FF FF F0
 (001.088080)  can0  18FEF031   [8]  FF FF FF FF FF FC CC FF
 (001.088630)  can0  0CF00203   [8]  C1 DC 16 FF F7 76 29 03
 (001.089206)  can0  18FF4831   [8]  00 00 FF FF 00 00 00 00
 (001.089780)  can0  0CF00C03   [8]  E8 03 C1 2A FF FF FF FF
 (001.090360)  can0  18FEF231   [8]  FF FF FF FF FF FF FF FF
 (001.090906)  can0  0CF00300   [8]  D0 6A 29 FF FF 0F 81 82
 (001.091488)  can0  0CF00331   [8]  FF FF FF FF FF FF FF FF
 (001.092089)  can0  0CF00A00   [8]  2F 03 7C 16 FF FF FF FF
 (001.092627)  can0  18F00503   [8]  7F 12 07 7F 35 20 32 43
 (001.093204)  can0  18FEF000   [8]  FF FF FF 59 2A FF FF FF
 (001.093772)  can0  18FE4A03   [8]  03 0F 4F FF FF F3 FF FF
 (001.094322)  can0  18F00E00   [8]  68 2A FF FF D5 9F FF FF
 (001.094885)  can0  18FEBF0B   [8]  00 1A 7D 7D 7F 7F FF FF
 (001.095476)  can0  18F03300   [8]  FF FF FF FF FF FF FF FF
 (001.096108)  can0  18FE9A00   [8]  38 27 FF FF FF FF FF FF
 (001.097362)  can0  0CF00400   [8]  61 9F 9E E2 2A 00 0F 9F
 (001.098313)  can0  0CF00203   [8]  C1 E3 16 FF F7 77 29 03
 (001.100133)  can0  18FDB200   [8]  FF FF FF FF 0E 00 FF FF
 (001.101507)  can0  18FCF200   [8]  E1 FF FF FF FF FF FF FF
 (001.105164)  can0  18FEDF00   [8]  89 A0 28 7D 7D FF FF F5
 (001.105715)  can0  18F00F00   [8]  02 0F FF FF D5 9F FF FF
 (001.108275)  can0  0CF00203   [8]  C1 E3 16 FF F7 77 29 03
 (001.108875)  can0  0CF00C03   [8]  E8 03 DA 2A FF FF FF FF
 (001.110488)  can0  0CF00300   [8]  D0 6A 29 FF FF 0F 7F 82
 (001.111056)  can0  18FEF100   [8]  FF D8 19 FC FF 68 00 CF
 (001.115531)  can0  0C010305   [8]  FF FF FF FF FF F3 FF FF
 (001.117114)  can0  0CF00400   [8]  71 9F 9E F6 2A 00 0F 9F
 (001.118336)  can0  0CF00203   [8]  C1 DC 16 FF F7 60 29 03
 (001.120187)  can0  10FDA300   [8]  FF FF 30 FF FF FF FF FF
 (001.120744)  can0  18FE9900   [8]  FF FF FF FF FF FF FF FF
 (001.121325)  can0  18F00029   [8]  F0 7D 7D F3 29 FF FF 38
 (001.125101)  can0  18FD8C00   [8]  FF FF 11 00 FF FF FF FF
 (001.125697)  can0  18FEDF00   [8]  89 A0 28 7D 7D FF FF F5
 (001.128278)  can0  0CF00203   [8]  C1 DC 16 FF F7 60 29 03
 (001.128869)  can0  0CF00C03   [8]  E8 03 02 2B FF FF FF FF
 (001.130541)  can0  18FCDC00   [8]  9F FF FF FF 50 68 D8 19
 (001.131106)  can0  0CF00300   [8]  D0 6B 29 FF FF 0F 7F 82
 (001.131706)  can0  1CFE9200   [8]  FF F4 B9 FF FF FF 42 00
 (001.136890)  can0  0CF00331   [8]  FF FF FF FF FF FF FF FF
 (001.137447)  can0  0CF00400   [8]  01 9F 9F DF 2A 00 0F 9F
 (001.138331)  can0  0CF00203   [8]  C1 FB 16 FF F7 90 29 03
 (001.140234)  can0  0CF00A00   [8]  32 02 E9 17 FF FF FF FF
 (001.140780)  can0  18FD9400   [8]  C9 07 FF FF FF FF FF FF
 (001.141357)  can0  18FEFC00   [8]  FF FF FF FF FF FF FF FF
 (001.141950)  can0  18F00E00   [8]  70 2A FF FF D5 9F FF FF
 (001.145446)  can0  18FD2000   [8]  99 45 FF FF FF FF FF FF
 (001.145738)  can0  18F03300   [8]  FF FF FF FF FF FF FF FF
 (001.146461)  can0  18FEDF00   [8]  89 A0 28 7D 7D FF FF F5
 (001.148304)  can0  0CF00203   [8]  C1 FB 16 FF F7 90 29 03
 (001.148881)  can0  0CF00C03   [8]  E8 03 D2 2A FF FF FF FF
 (001.150484)  can0  18FEE000   [8]  C7 2C 01 00 10 96 35 00
 (001.151079)  can0  0CF00300   [8]  D0 6C 29 FF FF 0F 7F 82
 (001.155809)  can0  18FEF200   [8]  B9 00 90 05 C2 09 E1 FF
 (001.155817)  can0  18F00F00   [8]  02 0F FF FF D5 9F FF FF
 (001.157364)  can0  0CF00400   [8]  21 9F 9F F8 2A 00 0F 9F
 (001.158357)  can0  0CF00203   [8]  C1 03 17 FF F7 C1 29 03
 (001.164992)  can0  0C010305   [8]  FF FF FF FF FF F3 FF FF
 (001.165543)  can0  18FEDF00   [8]  89 A0 28 7D 7D FF FF F5
 (001.166186)  can0  10FCFD00   [8]  FF FF FF FF 50 6F FF FF
 (001.168302)  can0  0CF00203   [8]  C1 03 17 FF F7 C1 29 03
 (001.168903)  can0  0CF00C03   [8]  E8 03 F2 2A FF FF FF FF
 (001.170621)  can0  18FD3E00   [8]  86 40 FF 1C 3C FF FF FF
 (001.171173)  can0  0CF00300   [8]  D0 6D 2A FF FF 0F 83 82
 (001.175178)  can0  18F00100   [8]  FF FF FF FF FF FF FF FF
 (001.177143)  can0  0CF00400   [8]  51 A0 9F FB 2A 00 0F A0
 (001.178342)  can0  0CF00203   [8]  C1 F8 16 FF F7 A1 29 03
 (001.184481)  can0  18F0010B   [8]  CF FF F0 FF FF CD FF FF
 (001.185181)  can0  18FEDF00   [8]  89 A0 28 7D 7D FF FF F5
 (001.186900)  can0  18F00131   [8]  FF FF FF 3F 00 FF FF FF
 (001.187465)  can0  18FEF131   [8]  F3 FF FF C3 CC FF FF F0
 (001.188072)  can0  18FEF031   [8]  FF FF FF FF FF FC CC FF
 (001.188602)  can0  0CF00203   [8]  C1 F8 16 FF F7 A1 29 03
 (001.189251)  can0  18FF4831   [8]  00 00 FF FF 00 00 00 00
 (001.189749)  can0  0CF00C03   [8]  E8 03 2E 2B FF FF FF FF
 (001.190321)  can0  18FEF231   [8]  FF FF FF FF FF FF FF FF
 (001.190875)  can0  18F00503   [8]  7F 12 07 7F 35 20 32 43
 (001.191473)  can0  0CF00331   [8]  FF FF FF FF FF FF FF FF
 (001.192068)  can0  18FD4000   [8]  FF 3F 00 FF FF FF FF FF
 (001.192624)  can0  0CF00300   [8]  D0 6D 2A FF FF 0F 82 82
 (001.193192)  can0  0CF00A00   [8]  32 02 18 18 FF FF FF FF
 (001.193765)  can0  18FE4A03   [8]  03 0F 4F FF FF F3 FF FF
 (001.194329)  can0  18FEF000   [8]  FF FF FF 0D 2B FF FF FF
 (001.194905)  can0  18F00E00   [8]  80 2A FF FF D5 9F FF FF
 (001.195474)  can0  18FEBF0B   [8]  30 1A 7E 7C 80 7E FF FF
 (001.196055)  can0  1CECFF00   [8]  20 0E 00 02 FF CA FE 00
 (001.196625)  can0  18F03300   [8]  FF FF FF FF FF FF FF FF
 (001.197312)  can0  0CF00400   [8]  71 A0 9F 01 2B 00 0F A0
 (001.198335)  can0  0CF00203   [8]  C1 F5 16 FF F7 90 29 03
 (001.200156)  can0  18FCF200   [8]  E1 FF FF FF FF FF FF FF
 (001.205237)  can0  18FEDF00   [8]  89 A0 28 7D 7D FF FF F5
 (001.205784)  can0  18F00F00   [8]  02 0F FF FF D5 9F FF FF
 (001.208297)  can0  0CF00203   [8]  C1 F5 16 FF F7 90 29 03
 (001.208947)  can0  0CF00C03   [8]  E8 03 77 2A FF FF FF FF
 (001.211222)  can0  0CF00300   [8]  D0 6E 2A FF FF 0F 81 82
 (001.211230)  can0  18FEF100   [8]  FF 44 1A FC FF 68 00 CF
 (001.215507)  can0  0C010305   [8]  FF FF FF FF FF F3 FF FF
 (001.215522)  can0  18FCC500   [8]  86 40 FF FF FF FF FF FF
 (001.216179)  can0  0CFD9200   [8]  F4 FF FF FF FF FF FF FF
 (001.217721)  can0  0CF00400   [8]  11 A0 A0 4D 2A 00 0F A0
 (001.218324)  can0  0CF00203   [8]  C1 36 17 FF F7 F5 29 03
 (001.220236)  can0  10FDA300   [8]  FF FF 2E FF FF FF FF FF
 (001.220750)  can0  18F00029   [8]  F0 7D 7D F3 29 FF FF 38
 (001.225152)  can0  18FEDF00   [8]  89 A0 28 7D 7D FF FF F5
 (001.228275)  can0  0CF00203   [8]  C5 36 17 FF F7 F5 29 03
 (001.228874)  can0  0CF00C03   [8]  E8 03 7E 2A FF FF FF FF
 (001.230575)  can0  18FCDC00   [8]  9F FF FF FF 50 68 44 1A
 (001.231131)  can0  0CF00300   [8]  D0 6E 2B FF FF 0F 83 82
 (001.231709)  can0  1CFE9200   [8]  FF 00 B8 FF FF FF 46 00
 (001.236872)  can0  0CF00331   [8]  FF FF FF FF FF FF FF FF
 (001.237423)  can0  0CF00400   [8]  11 A0 A0 4A 2A 00 0F A0
 (001.238331)  can0  0CF00203   [8]  C5 54 17 FF F7 20 2A 03
 (001.240277)  can0  0CF00A00   [8]  4E 02 A8 17 FF FF FF FF
 (001.240777)  can0  18FD9400   [8]  C9 07 FF FF FF FF FF FF
 (001.241365)  can0  18FEEF00   [8]  FF FF FF 40 A7 7D FF FA
 (001.241926)  can0  18F00E00   [8]  C2 2A FF FF D5 9F FF FF
 (001.242526)  can0  1CEBFF00   [8]  01 43 FF BF 00 09 08 54
 (001.245400)  can0  18F03300   [8]  FF FF FF FF FF FF FF FF
 (001.245760)  can0  18FEDF00   [8]  89 A0 28 7D 7D FF FF F5
 (001.248288)  can0  0CF00203   [8]  C5 54 17 FF F7 20 2A 03
 (001.250752)  can0  18FEE000   [8]  C7 2C 01 00 10 96 35 00
 (001.251036)  can0  0CF00300   [8]  D0 6E 2B FF FF 0F 83 82
 (001.255173)  can0  18FEF200   [8]  A6 00 45 06 C3 09 E1 FF
 (001.255758)  can0  18F00F00   [8]  02 0F FF FF D5 9F FF FF
 (001.257256)  can0  0CF00400   [8]  21 A0 A0 29 2A 00 0F A0
 (001.258330)  can0  0CF00203   [8]  C5 5B 17 FF F7 66 2A 03
 (001.260163)  can0  18FEDB00   [8]  FF FF E7 6C FF FF FF FF
 (001.265019)  can0  0C010305   [8]  FF FF FF FF FF F3 FF FF
 (001.265578)  can0  18FEDF00   [8]  89 A0 28 7D 7D FF FF F5
 (001.266165)  can0  10FCFD00   [8]  FF FF FF FF 83 6E FF FF
 (001.268292)  can0  0CF00203   [8]  C5 5B 17 FF F7 66 2A 03
 (001.270601)  can0  0CF00300   [8]  D0 6E 2B FF FF 0F 83 82
 (001.275798)  can0  18F00100   [8]  FF FF FF FF FF FF FF FF
 (001.277421)  can0  0CF00400   [8]  31 A0 A0 AF 29 00 0F A0
 (001.279143)  can0  0CF00203   [8]  C5 28 17 FF F7 E7 29 03
 (001.280187)  can0  18FEF600   [8]  FF 16 61 FF FF FF FF FF
 (001.285471)  can0  18F0010B   [8]  CF FF F0 FF FF CD FF FF
 (001.285482)  can0  18FEDF00   [8]  89 A0 28 7D 7D FF FF F5
 (001.287088)  can0  18F00131   [8]  FF FF FF 3F 00 FF FF FF
 (001.287420)  can0  18FEF131   [8]  F3 FF FF C3 CC FF FF F0
 (001.288079)  can0  18FEF031   [8]  FF FF FF FF FF FC CC FF
 (001.288603)  can0  0CF00203   [8]  C5 28 17 FF F7 E7 29 03
 (001.289185)  can0  18FF4831   [8]  00 00 FF FF 00 00 00 00
 (001.289754)  can0  18F00503   [8]  7F 12 07 7F 35 20 32 4C
 (001.290330)  can0  18FEF231   [8]  FF FF FF FF FF FF FF FF
 (001.290904)  can0  0CF00300   [8]  D0 6F 2B FF FF 0F 83 82
 (001.291450)  can0  0CF00331   [8]  FF FF FF FF FF FF FF FF
 (001.292046)  can0  0CF00A00   [8]  86 02 1B 17 FF FF FF FF
 (001.292618)  can0  18FE4A03   [8]  03 0F 4F FF FF F3 FF FF
 (001.293196)  can0  18FEF000   [8]  FF FF FF D5 29 FF FF FF
 (001.293770)  can0  18F00E00   [8]  26 2B FF FF D5 9F FF FF
 (001.294755)  can0  18FEBF0B   [8]  80 1A 7D 7D 81 81 FF FF
 (001.295304)  can0  18F03300   [8]  FF FF FF FF FF FF FF FF
 (001.297310)  can0  0CF00400   [8]  41 A0 A0 56 29 00 0F A0
 (001.297883)  can0  1CEBFF00   [8]  02 00 09 08 ED 14 1F 01
 (001.298462)  can0  0CF00203   [8]  C5 23 17 FF F7 87 29 03
 (001.300176)  can0  18FCF200   [8]  E1 FF FF FF FF FF FF FF
 (001.305277)  can0  18FEDF00   [8]  89 A0 28 7D 7D FF FF F5
 (001.305750)  can0  18FDC600   [8]  FC 04 FF FF FF FF FF FF
 (001.306438)  can0  18F00F00   [8]  0E 0F FF FF D5 9F FF FF
 (001.308283)  can0  0CF00203   [8]  C5 23 17 FF F7 87 29 03
 (001.310807)  can0  0CF00300   [8]  D0 6F 2B FF FF 0F 84 82
 (001.311057)  can0  18FEF100   [8]  FF 8C 1A FC FF 68 00 CF
 (001.315598)  can0  0C010305   [8]  FF FF FF FF FF F3 FF FF
 (001.317329)  can0  0CF00400   [8]  51 A1 A0 2A 29 00 0F A1
 (001.319012)  can0  0CF00203   [8]  C5 E9 16 FF F7 82 29 03
 (001.320242)  can0  10FDA300   [8]  FF FF 2C FF FF FF FF FF
 (001.320783)  can0  18F00029   [8]  F0 7D 7D F3 29 FF FF 38
 (001.325176)  can0  18FEDF00   [8]  89 A0 28 7D 7D FF FF F5
 (001.325797)  can0  1CECFF00   [8]  20 22 00 05 FF E3 FE 00
 (001.328294)  can0  0CF00203   [8]  C5 E9 16 FF F7 82 29 03
 (001.328899)  can0  0CF00C03   [8]  E8 03 16 29 FF FF FF FF
 (001.330564)  can0  18FCDC00   [8]  9F FF FF FF 50 68 8C 1A
 (001.331106)  can0  0CF00300   [8]  D0 6F 2C FF FF 0F 83 82
 (001.331759)  can0  1CFE9200   [8]  FF 14 B7 FF FF FF 48 00
 (001.337268)  can0  0CF00331   [8]  FF FF FF FF FF FF FF FF
 (001.337367)  can0  0CF00400   [8]  41 A1 A0 45 29 00 0F A1
 (001.338337)  can0  0CF00203   [8]  C5 B2 16 FF F7 28 29 03
 (001.340184)  can0  0CF00A00   [8]  90 02 A1 16 FF FF FF FF
 (001.340759)  can0  18FD9400   [8]  63 0A FF FF FF FF FF FF
 (001.341380)  can0  18F00E00   [8]  82 2B FF FF D5 9F FF FF
 (001.345462)  can0  18F03300   [8]  FF FF FF FF FF FF FF FF
 (001.345806)  can0  18FEDF00   [8]  89 A0 28 7D 7D FF FF F5
 (001.348303)  can0  0CF00203   [8]  C5 B2 16 FF F7 28 29 03
 (001.350828)  can0  18FEE000   [8]  C7 2C 01 00 10 96 35 00
 (001.351041)  can0  0CF00300   [8]  D0 6F 2B FF FF 0F 85 82
 (001.355183)  can0  18FEF200   [8]  CA 00 40 05 C2 09 E1 FF
 (001.355756)  can0  18F00F00   [8]  0E 0F FF FF D5 9F FF FF
 (001.357190)  can0  0CF00400   [8]  41 A0 A0 98 29 00 0F A0
 (001.358340)  can0  0CF00203   [8]  C5 EC 16 FF F7 70 29 03
 (001.364986)  can0  0C010305   [8]  FF FF FF FF FF F3 FF FF
 (001.365556)  can0  18FEDF00   [8]  89 A0 28 7D 7D FF FF F5
 (001.366137)  can0  10FCFD00   [8]  FF FF FF FF C6 6C FF FF
 (001.368284)  can0  0CF00203   [8]  C5 EC 16 FF F7 70 29 03
 (001.370631)  can0  0CF00300   [8]  D0 6F 2B FF FF 0F 83 82
 (001.375888)  can0  18F00100   [8]  FF FF FF FF FF FF FF FF
 (001.377679)  can0  0CF00400   [8]  51 A1 A0 D6 29 00 0F A1
 (001.377696)  can0  1CEBFF00   [8]  01 A8 16 B1 30 52 C2 E8
 (001.378332)  can0  0CF00203   [8]  C5 07 17 FF F7 BC 29 03
 (001.384930)  can0  18F0010B   [8]  CF FF F0 FF FF CD FF FF
 (001.385487)  can0  18FEDF00   [8]  89 A0 28 7D 7D FF FF F5
 (001.386907)  can0  18F00131   [8]  FF FF FF 3F 00 FF FF FF
 (001.387480)  can0  18FEF131   [8]  F3 FF FF C3 CC FF FF F0
 (001.388080)  can0  18FEF031   [8]  FF FF FF FF FF FC CC FF
 (001.388603)  can0  0CF00203   [8]  C5 07 17 FF F7 BC 29 03
 (001.389216)  can0  18FF4831   [8]  00 00 FF FF 00 00 00 00
 (001.389756)  can0  18F00503   [8]  7F 12 07 7F 35 20 32 4C
 (001.390330)  can0  18FEF231   [8]  FF FF FF FF FF FF FF FF
 (001.390906)  can0  0CF00300   [8]  D0 6F 2C FF FF 0F 81 82
 (001.391475)  can0  0CF00331   [8]  FF FF FF FF FF FF FF FF
 (001.392072)  can0  0CF00A00   [8]  E4 02 85 16 FF FF FF FF
 (001.392608)  can0  18FE4A03   [8]  03 0F 4F FF FF F3 FF FF
 (001.393183)  can0  18FEF000   [8]  FF FF FF AD 29 FF FF FF
 (001.393785)  can0  18F00E00   [8]  12 2C FF FF D5 9F FF FF
 (001.394934)  can0  18FEBF0B   [8]  80 1A 7D 7D 7B 7F FF FF
 (001.395509)  can0  18F03300   [8]  FF FF FF FF FF FF FF FF
 (001.397500)  can0  0CF00400   [8]  41 A1 A0 B4 29 00 0F A1
 (001.399087)  can0  0CF00203   [8]  C5 03 17 FF F7 AC 29 03
 (001.400184)  can0  18FCF200   [8]  E1 FF FF FF FF FF FF FF
 (001.405165)  can0  18FEDF00   [8]  89 A0 28 7D 7D FF FF F5
 (001.405759)  can0  18F00F00   [8]  0E 0F FF FF D5 9F FF FF
 (001.408300)  can0  0CF00203   [8]  C5 03 17 FF F7 AC 29 03
 (001.411183)  can0  0CF00300   [8]  D0 6F 2C FF FF 0F 82 82
 (001.411195)  can0  18FEF100   [8]  FF 84 1A FC FF 68 00 CF
 (001.415192)  can0  0C010305   [8]  FF FF FF FF FF F3 FF FF
 (001.417852)  can0  0CF00400   [8]  51 A1 A0 F6 29 00 0F A1
 (001.418324)  can0  0CF00203   [8]  C5 15 17 FF F7 C6 29 03
 (001.420234)  can0  10FDA300   [8]  FF FF 2D FF FF FF FF FF
 (001.420781)  can0  18F00029   [8]  F0 7D 7D F3 29 FF FF 39
 (001.425153)  can0  18FEDF00   [8]  89 A0 28 7D 7D FF FF F5
 (001.428258)  can0  0CF00203   [8]  C5 15 17 FF F7 C6 29 03
 (001.428883)  can0  0CF00C03   [8]  E8 03 09 2A FF FF FF FF
 (001.431359)  can0  18FCDC00   [8]  9F FF FF FF 50 68 84 1A
 (001.431370)  can0  0CF00300   [8]  D0 70 2C FF FF 0F 80 82
 (001.431724)  can0  1CFE9200   [8]  FF 8C B9 FF FF FF 48 00
 (001.433374)  can0  1CEBFF00   [8]  02 1C B9 60 22 C7 C0 44
 (001.436858)  can0  0CF00331   [8]  FF FF FF FF FF FF FF FF
 (001.437440)  can0  0CF00400   [8]  21 A1 A1 28 2A 00 0F A1
 (001.438334)  can0  0CF00203   [8]  C5 27 17 FF F7 0E 2A 03
 (001.440188)  can0  0CF00A00   [8]  E4 02 8F 16 FF FF FF FF
 (001.440792)  can0  18FD9400   [8]  C9 07 FF FF FF FF FF FF
 (001.441358)  can0  18F00E00   [8]  88 2C FF FF D5 9F FF FF
 (001.445533)  can0  18F03300   [8]  FF FF FF FF FF FF FF FF
 (001.445737)  can0  18FEDF00   [8]  89 A0 28 7D 7D FF FF F5
 (001.448272)  can0  0CF00203   [8]  C5 27 17 FF F7 0E 2A 03
 (001.450744)  can0  18FEE000   [8]  C7 2C 01 00 10 96 35 00
 (001.451080)  can0  0CF00300   [8]  D0 76 2C FF FF 0F 81 82
 (001.455141)  can0  18FEF200   [8]  CE 00 1F 05 C3 09 E1 FF
 (001.455780)  can0  18F00F00   [8]  0E 0F FF FF D5 9F FF FF
 (001.457240)  can0  0CF00400   [8]  31 A3 A3 60 2A 00 0F A3
 (001.458331)  can0  0CF00203   [8]  C5 44 17 FF F7 13 2A 03
 (001.464998)  can0  0C010305   [8]  FF FF FF FF FF F3 FF FF
 (001.465509)  can0  18FEDF00   [8]  89 A0 28 7D 7D FF FF F5
 (001.466134)  can0  10FCFD00   [8]  FF FF FF FF F9 70 FF FF
 (001.466712)  can0  0CFD9200   [8]  F4 FF FF FF FF FF FF FF
 (001.468288)  can0  0CF00203   [8]  C5 44 17 FF F7 13 2A 03
 (001.470652)  can0  0CF00300   [8]  D0 7D 2F FF FF 0F 80 82
 (001.475853)  can0  18F00100   [8]  FF FF FF FF FF FF FF FF
 (001.477522)  can0  0CF00400   [8]  31 A6 A6 7D 2A 00 0F A6
 (001.478446)  can0  0CF00203   [8]  C5 7B 17 FF F7 7B 2A 03
 (001.485083)  can0  18F0010B   [8]  CF FF F0 FF FF CD FF FF
 (001.485662)  can0  18FEDF00   [8]  89 A0 28 7D 7D FF FF F5
 (001.486837)  can0  18F00131   [8]  FF FF FF 3F 00 FF FF FF
 (001.487435)  can0  18FEF131   [8]  F3 FF FF C3 CC FF FF F0
 (001.487987)  can0  1CEBFF00   [8]  03 CB 80 57 FF FF 55 04
 (001.488577)  can0  0CF00203   [8]  C5 7B 17 FF F7 7B 2A 03
 (001.489151)  can0  18FEF031   [8]  FF FF FF FF FF FC CC FF
 (001.489695)  can0  18F00503   [8]  7F 12 07 7F 35 20 32 4C
 (001.490310)  can0  18FF4831   [8]  00 00 FF FF 00 00 00 00
 (001.490862)  can0  0CF00300   [8]  D0 83 33 FF FF 0F 7F 82
 (001.491430)  can0  0CF00A00   [8]  BF 02 2E 17 FF FF FF FF
 (001.492004)  can0  18FE4A03   [8]  03 0F 4F FF FF F3 FF FF
 (001.492573)  can0  18FEF000   [8]  FF FF FF 8B 2A FF FF FF
 (001.493158)  can0  18FD9503   [8]  CC FF FF AF FF FF FF FF
 (001.493737)  can0  18F00E00   [8]  F0 2C FF FF D5 9F FF FF
 (001.494260)  can0  18FEF231   [8]  FF FF FF FF FF FF FF FF
 (001.494888)  can0  18FEF803   [8]  FF FF FF FF D7 2B FF FF
 (001.495445)  can0  0CF00331   [8]  FF FF FF FF FF FF FF FF
 (001.496073)  can0  18F03300   [8]  FF FF FF FF FF FF FF FF
 (001.496590)  can0  18FEBF0B   [8]  20 1B 7D 7D 7D 77 FF FF
 (001.497416)  can0  0CF00400   [8]  61 A9 A8 D2 2A 00 0F A9
 (001.498311)  can0  0CF00203   [8]  C5 6D 17 FF F7 90 2A 03
 (001.500280)  can0  18FCF200   [8]  E1 FF FF FF FF FF FF FF
 (001.505753)  can0  18FEDF00   [8]  89 A0 28 7D 7D FF FF F5
 (001.505762)  can0  18F00F00   [8]  18 0F FF FF D5 9F FF FF
 (001.508280)  can0  0CF00203   [8]  C5 6D 17 FF F7 90 2A 03
 (001.510767)  can0  18FD0700   [8]  43 0C FC FF FF FF FF FF
 (001.511186)  can0  0CF00300   [8]  D0 87 35 FF FF 0F 7E 82
 (001.511827)  can0  18FEF100   [8]  FF BC 1A FC FF 68 00 CF
 (001.515855)  can0  0C010305   [8]  FF FF FF FF FF F3 FF FF
 (001.517165)  can0  0CF00400   [8]  71 AA A9 4F 2B 00 0F AA
 (001.518282)  can0  0CF00203   [8]  C5 9C 17 FF F7 CD 2A 03
 (001.520185)  can0  10FDA300   [8]  FF FF 2D FF FF FF FF FF
 (001.520797)  can0  18F00029   [8]  F0 7D 7D F3 29 FF FF 38
 (001.525225)  can0  18FEDF00   [8]  89 A0 28 7D 7D FF FF F5
 (001.528284)  can0  0CF00203   [8]  C5 9C 17 FF F7 CD 2A 03
 (001.528882)  can0  0CF00C03   [8]  E8 03 BD 2B FF FF FF FF
 (001.530613)  can0  18FCDC00   [8]  9F FF FF FF 50 68 BC 1A
 (001.531152)  can0  0CF00300   [8]  D0 87 37 FF FF 0F 7F 82
 (001.531736)  can0  1CFE9200   [8]  FF 78 BA FF FF FF 5A 00
 (001.537252)  can0  0CF00331   [8]  FF FF FF FF FF FF FF FF
 (001.537354)  can0  0CF00400   [8]  11 AA AA C8 2B 00 0F AA
 (001.539178)  can0  0CF00203   [8]  C5 F4 17 FF F7 57 2B 03
 (001.540163)  can0  14FC9800   [8]  FF 00 00 00 00 00 00 FF
 (001.540880)  can0  0CF00A00   [8]  BF 02 BB 17 FF FF FF FF
 (001.541310)  can0  18FD9400   [8]  63 0A FF FF FF FF FF FF
 (001.542029)  can0  18F00E00   [8]  CA 2D FF FF D5 9F FF FF
 (001.542435)  can0  1CEBFF00   [8]  04 38 5E 14 46 FA 7D C7
 (001.545388)  can0  18F03300   [8]  FF FF FF FF FF FF FF FF
 (001.545762)  can0  18FEDF00   [8]  89 A0 28 7D 7D FF FF F5
 (001.548281)  can0  0CF00203   [8]  C5 F4 17 FF F7 57 2B 03
 (001.550494)  can0  18FEE000   [8]  C7 2C 01 00 10 96 35 00
 (001.551063)  can0  0CF00300   [8]  D0 87 37 FF FF 0F 7C 82
 (001.555159)  can0  18FDB400   [8]  B0 45 76 44 FF FF FF FF
 (001.555707)  can0  18FEF200   [8]  D0 00 21 05 C2 09 E1 FF
 (001.556333)  can0  18F00F00   [8]  18 0F FF FF D5 9F FF FF
 (001.557224)  can0  0CF00400   [8]  11 AA AA 26 2C 00 0F AA
 (001.558323)  can0  0CF00203   [8]  C5 28 18 FF F7 DE 2B 03
 (001.565002)  can0  0C010305   [8]  FF FF FF FF FF F3 FF FF
 (001.565554)  can0  18FEDF00   [8]  8A A0 28 7D 7D FF FF F5
 (001.566160)  can0  10FCFD00   [8]  FF FF FF FF 59 7F FF FF
 (001.568276)  can0  0CF00203   [8]  C5 28 18 FF F7 DE 2B 03
 (001.570638)  can0  0CF00300   [8]  D0 87 37 FF FF 0F 7A 82
 (001.575728)  can0  18F00100   [8]  FF FF FF FF FF FF FF FF
 (001.577365)  can0  0CF00400   [8]  11 AA AA 1B 2C 00 0F AA
 (001.579089)  can0  0CF00203   [8]  C5 37 18 FF F7 EE 2B 03
 (001.580187)  can0  18FDB300   [8]  FF FF 40 46 FF FF FF FF
 (001.585168)  can0  18FEDF00   [8]  8A A0 28 7D 7D FF FF F5
 (001.585789)  can0  18F0010B   [8]  CF FF F0 FF FF CD FF FF
 (001.586874)  can0  18F00131   [8]  FF FF FF 3F 00 FF FF FF
 (001.587483)  can0  18FEF131   [8]  F3 FF FF C3 CC FF FF F0
 (001.588042)  can0  18FEF031   [8]  FF FF FF FF FF FC CC FF
 (001.588606)  can0  0CF00203   [8]  C5 37 18 FF F7 EE 2B 03
 (001.589211)  can0  18FF4831   [8]  00 00 FF FF 00 00 00 00
 (001.589753)  can0  18F00503   [8]  7F 12 07 7F 35 20 32 4C
 (001.590367)  can0  18FEF231   [8]  FF FF FF FF FF FF FF FF
 (001.590889)  can0  0CF00300   [8]  D0 86 37 FF FF 0F 7B 82
 (001.591479)  can0  0CF00331   [8]  FF FF FF FF FF FF FF FF
 (001.591981)  can0  0CF00A00   [8]  C8 02 18 18 FF FF FF FF
 (001.592596)  can0  18FE4A03   [8]  03 0F 4F FF FF F3 FF FF
 (001.593179)  can0  18FEF000   [8]  FF FF FF C0 2B FF FF FF
 (001.593795)  can0  18F00E00   [8]  B8 2E FF FF D5 9F FF FF
 (001.595332)  can0  18F03300   [8]  FF FF FF FF FF FF FF FF
 (001.595921)  can0  18FEBF0B   [8]  40 1B 7F 7B 81 83 FF FF
 (001.597381)  can0  0CF00400   [8]  51 AA A9 38 2C 00 0F AA
 (001.597959)  can0  1CEBFF00   [8]  05 80 57 86 00 F7 02 FF
 (001.598506)  can0  0CF00203   [8]  C5 50 18 FF F7 FF 2B 03
 (001.600157)  can0  18FDB200   [8]  FF FF FF FF 0E 00 FF FF
 (001.601379)  can0  18FCF200   [8]  E1 FF FF FF FF FF FF FF
 (001.605939)  can0  18FEDF00   [8]  8A A0 28 7D 7D FF FF F5
 (001.605948)  can0  18F00F00   [8]  18 0F FF FF D5 9F FF FF
 (001.608317)  can0  0CF00203   [8]  C5 50 18 FF F7 FF 2B 03
 (001.610717)  can0  0CF00300   [8]  D0 84 36 FF FF 0F 7B 82
 (001.611164)  can0  18FEF100   [8]  FF 70 1B FC FF 68 00 CF
 (001.614962)  can0  0C010305   [8]  FF FF FF FF FF F3 FF FF
 (001.617211)  can0  0CF00400   [8]  01 A9 A9 29 2C 00 0F A9
 (001.618259)  can0  0CF00203   [8]  C5 6F 18 FF F7 35 2C 03
 (001.620244)  can0  10FDA300   [8]  FF FF 2F FF FF FF FF FF
 (001.620833)  can0  18F00029   [8]  F0 7D 7D F3 29 FF FF 38
 (001.625209)  can0  18FD8C00   [8]  FF FF 11 00 FF FF FF FF
 (001.625777)  can0  18FEDF00   [8]  8A A0 28 7D 7D FF FF F5
 (001.627297)  can0  18FECA31   [8]  00 FF 00 00 00 00 FF FF
 (001.627958)  can0  18F11031   [8]  00 00 FF FF FF FF FF FF
 (001.628507)  can0  0CF00203   [8]  C5 6F 18 FF F7 35 2C 03
 (001.629107)  can0  0CF00C03   [8]  E8 03 35 2C FF FF FF FF
 (001.630597)  can0  18FCDC00   [8]  9F FF FF FF 50 68 70 1B
 (001.631933)  can0  0CF00300   [8]  D0 82 35 FF FF 0F 7B 83
 (001.631943)  can0  1CFE9200   [8]  FF E0 BE FF FF FF 6A 00
 (001.637244)  can0  0CF00331   [8]  FF FF FF FF FF FF FF FF
 (001.637436)  can0  0CF00400   [8]  31 A8 A8 F8 2B 00 0F A8
 (001.639171)  can0  0CF00203   [8]  C5 4F 18 FF F7 14 2C 03
 (001.640173)  can0  0CF00A00   [8]  EE 02 FC 17 FF FF FF FF
 (001.640853)  can0  18FD9400   [8]  63 0A FF FF FF FF FF FF
 (001.641285)  can0  18F00E00   [8]  6E 2F FF FF D5 9F FF FF
 (001.645424)  can0  18FD2000   [8]  B0 45 FF FF FF FF FF FF
 (001.645770)  can0  18F03300   [8]  FF FF FF FF FF FF FF FF
 (001.646415)  can0  18FEDF00   [8]  8A A0 28 7D 7D FF FF F5
 (001.648212)  can0  0CF00203   [8]  C5 4F 18 FF F7 14 2C 03
 (001.650566)  can0  18FEE000   [8]  C7 2C 01 00 10 96 35 00
 (001.651122)  can0  0CF00300   [8]  D0 81 35 FF FF 0F 7B 83
 (001.655372)  can0  18FEF200   [8]  CF 00 3D 05 C3 09 E1 FF
 (001.655762)  can0  18F00F00   [8]  22 0F FF FF D5 9F FF FF
 (001.657432)  can0  0CF00400   [8]  11 A8 A8 66 2B 00 0F A8
 (001.658308)  can0  0CF00203   [8]  C5 35 18 FF F7 D1 2B 03
 (001.665437)  can0  0C010305   [8]  FF FF FF FF FF F3 FF FF
 (001.665522)  can0  18FEDF00   [8]  8A A0 28 7D 7D FF FF F5
 (001.666295)  can0  10FCFD00   [8]  FF FF FF FF 93 7D FF FF
 (001.668297)  can0  0CF00203   [8]  C5 35 18 FF F7 D1 2B 03
 (001.670694)  can0  18FD3E00   [8]  86 40 FF 1C 3C FF FF FF
 (001.671236)  can0  0CF00300   [8]  D0 80 34 FF FF 0F 7D 83
 (001.675766)  can0  18F00100   [8]  FF FF FF FF FF FF FF FF
 (001.677408)  can0  0CF00400   [8]  71 A8 A7 48 2B 00 0F A8
 (001.678948)  can0  0CF00203   [8]  C5 12 18 FF F7 78 2B 03
 (001.685220)  can0  18FEDF00   [8]  8A A0 28 7D 7D FF FF F5
 (001.685785)  can0  18F0010B   [8]  CF FF F0 FF FF CD FF FF
 (001.686880)  can0  18F00131   [8]  FF FF FF 3F 00 FF FF FF
 (001.687492)  can0  18FEF131   [8]  F3 FF FF C3 CC FF FF F0
 (001.688011)  can0  18FEF031   [8]  FF FF FF FF FF FC CC FF
 (001.688617)  can0  0CF00203   [8]  C5 12 18 FF F7 78 2B 03
 (001.689253)  can0  18FF4831   [8]  00 00 FF FF 00 00 00 00
 (001.689756)  can0  18F00503   [8]  7F 12 07 7F 35 20 32 4C
 (001.690334)  can0  18FEF231   [8]  FF FF FF FF FF FF FF FF
 (001.690880)  can0  18FD4000   [8]  FF 3F 00 FF FF FF FF FF
 (001.691477)  can0  0CF00331   [8]  FF FF FF FF FF FF FF FF
 (001.692032)  can0  0CF00300   [8]  D0 80 34 FF FF 0F 7D 83
 (001.692591)  can0  0CF00A00   [8]  00 03 82 17 FF FF FF FF
 (001.693151)  can0  18FE4A03   [8]  03 0F 4F FF FF F3 FF FF
 (001.693761)  can0  18FEF000   [8]  FF FF FF 4C 2B FF FF FF
 (001.694314)  can0  18F00E00   [8]  A6 30 FF FF D5 9F FF FF
 (001.695591)  can0  18F03300   [8]  FF FF FF FF FF FF FF FF
 (001.695849)  can0  18FEBF0B   [8]  A0 1B 7D 7D 7D 7D FF FF
 (001.697948)  can0  0CF00400   [8]  51 A8 A7 21 2B 00 0F A8
 (001.698278)  can0  0CF00203   [8]  C5 F0 17 FF F7 57 2B 03
 (001.700169)  can0  18FCF200   [8]  E1 FF FF FF FF FF FF FF
 (001.701180)  can0  18EAFF31   [3]  ED FE 00
 (001.705706)  can0  18FEED00   [8]  68 68 30 9C 68 FF FF FF
 (001.705716)  can0  18FEDF00   [8]  8A A0 28 7D 7D FF FF F5
 (001.706111)  can0  18F00F00   [8]  22 0F FF FF D5 9F FF FF
 (001.708260)  can0  0CF00203   [8]  C5 F0 17 FF F7 57 2B 03
 (001.711240)  can0  0CF00300   [8]  D0 7F 34 FF FF 0F 7E 83
 (001.711248)  can0  18FEF100   [8]  FF AC 1B FC FF 68 00 CF
 (001.714962)  can0  0C010305   [8]  FF FF FF FF FF F3 FF FF
 (001.715572)  can0  18FCC500   [8]  86 40 FF FF FF FF FF FF
 (001.716184)  can0  0CFD9200   [8]  F4 FF FF FF FF FF FF FF
 (001.717308)  can0  0CF00400   [8]  41 A7 A7 10 2B 00 0F A7
 (001.718338)  can0  0CF00203   [8]  C5 CD 17 FF F7 19 2B 03
 (001.720261)  can0  10FDA300   [8]  FF FF 2D FF FF FF FF FF
 (001.720826)  can0  18F00029   [8]  F0 7D 7D F3 29 FF FF 38
 (001.725257)  can0  18FEDF00   [8]  8A A0 28 7D 7D FF FF F5
 (001.728257)  can0  0CF00203   [8]  C5 CD 17 FF F7 19 2B 03
 (001.729005)  can0  0CF00C03   [8]  E8 03 2E 2B FF FF FF FF
 (001.731406)  can0  18FCDC00   [8]  9F FF FF FF 50 68 AC 1B
 (001.731416)  can0  0CF00300   [8]  D0 7F 33 FF FF 0F 7E 82
 (001.731703)  can0  1CFE9200   [8]  FF 10 BD FF FF FF 60 00
 (001.736891)  can0  0CF00331   [8]  FF FF FF FF FF FF FF FF
 (001.737444)  can0  0CF00400   [8]  21 A7 A7 EE 2A 00 0F A7
 (001.738342)  can0  0CF00203   [8]  C5 D5 17 FF F7 2E 2B 03
 (001.740250)  can0  0CF00A00   [8]  2F 03 5D 17 FF FF FF FF
 (001.740787)  can0  18FD9400   [8]  63 0A FF FF FF FF FF FF
 (001.741518)  can0  18FEEF00   [8]  FF FF FF 40 A4 7D FF FA
 (001.741911)  can0  18F00E00   [8]  8C 31 FF FF D5 9F FF FF
 (001.745190)  can0  18F03300   [8]  FF FF FF FF FF FF FF FF
 (001.745756)  can0  18FEDF00   [8]  8A A0 28 7D 7D FF FF F5
 (001.748244)  can0  0CF00203   [8]  C5 D5 17 FF F7 2E 2B 03
 (001.750608)  can0  18FEE000   [8]  C7 2C 01 00 10 96 35 00
 (001.751180)  can0  0CF00300   [8]  D0 7F 33 FF FF 0F 7F 82
 (001.755384)  can0  18FEF200   [8]  0E 01 17 04 C2 09 E1 FF
 (001.755761)  can0  18F00F00   [8]  2C 0F FF FF D5 9F FF FF
 (001.757269)  can0  0CF00400   [8]  11 A7 A7 2C 2B 00 0F A7
 (001.758302)  can0  0CF00203   [8]  C5 CF 17 FF F7 0B 2B 03
 (001.760162)  can0  18FEDB00   [8]  FF FF 97 78 FF FF FF FF
 (001.765383)  can0  0C010305   [8]  FF FF FF FF FF F3 FF FF
 (001.765571)  can0  18FEDF00   [8]  8A A0 28 7D 7D FF FF F5
 (001.766848)  can0  10FCFD00   [8]  FF FF FF FF 56 7A FF FF
 (001.768224)  can0  0CF00203   [8]  C5 CF 17 FF F7 0B 2B 03
 (001.770741)  can0  0CF00300   [8]  D0 7F 33 FF FF 0F 7D 82
 (001.775805)  can0  18F00100   [8]  FF FF FF FF FF FF FF FF
 (001.777220)  can0  0CF00400   [8]  71 A7 A6 99 2B 00 0F A7
 (001.778258)  can0  0CF00203   [8]  C5 DF 17 FF F7 36 2B 03
 (001.780187)  can0  18FEF600   [8]  FF 16 61 FF FF FF FF FF
 (001.785521)  can0  18FEDF00   [8]  8A A0 28 7D 7D FF FF F5
 (001.785833)  can0  18F0010B   [8]  CF FF F0 FF FF CD FF FF
 (001.787256)  can0  18F00131   [8]  FF FF FF 3F 00 FF FF FF
 (001.787484)  can0  18E0FF31   [8]  00 FF FF FF FF F0 FF FF
 (001.788108)  can0  18FEF131   [8]  F3 FF FF C3 CC FF FF F0
 (001.788622)  can0  0CF00203   [8]  C5 DF 17 FF F7 36 2B 03
 (001.789186)  can0  18FEF031   [8]  FF FF FF FF FF FC CC FF
 (001.789758)  can0  18F00503   [8]  7F 12 07 7F 35 20 32 4C
 (001.790317)  can0  18FEFC31   [8]  FF 77 FF FF FF FF 00 FF
 (001.790898)  can0  0CF00300   [8]  D0 7F 33 FF FF 0F 7F 82
 (001.791451)  can0  18FE4A03   [8]  03 0F 4F FF FF F3 FF FF
 (001.791987)  can0  0CF00A00   [8]  2F 03 82 17 FF FF FF FF
 (001.792609)  can0  18FEAE31   [8]  FF FF 65 65 FF FF FF FF
 (001.793209)  can0  18FEF000   [8]  FF FF FF 5D 2B FF FF FF
 (001.793744)  can0  18FEF731   [8]  FF FF FF FF 1A 01 FF FF
 (001.794332)  can0  18F00E00   [8]  E2 32 FF FF D5 9F FF FF
 (001.794892)  can0  18FF4831   [8]  00 00 FF FF 00 00 00 00
 (001.795475)  can0  18F03300   [8]  FF FF FF FF FF FF FF FF
 (001.796027)  can0  18FD8331   [8]  F8 FF FF FF FF FF FF FF
 (001.797389)  can0  18FEBF0B   [8]  E0 1B 7D 7D 7D 7D FF FF
 (001.797392)  can0  18FEF831   [8]  FF FF FF FF FF FF FF FF
 (001.797755)  can0  0CF00400   [8]  01 A7 A7 F2 2B 00 0F A7
 (001.799079)  can0  0CF00203   [8]  C5 0D 18 FF F7 9F 2B 03
 (001.799082)  can0  18FEF231   [8]  FF FF FF FF FF FF FF FF
 (001.799476)  can0  18FEFA31   [8]  FF C9 CA FF FF FF FF FF
 (001.800091)  can0  18FEC131   [8]  B2 41 67 06 FF FF FF FF
 (001.800678)  can0  18FCF200   [8]  E1 FF FF FF FF FF FF FF
 (001.801232)  can0  0CF00331   [8]  FF FF FF FF FF FF FF FF
 (001.805459)  can0  18FEDF00   [8]  8A A0 28 7D 7D FF FF F5
 (001.805866)  can0  18FDC600   [8]  FC 04 FF FF FF FF FF FF
 (001.807221)  can0  18F00F00   [8]  2C 0F FF FF D5 9F FF FF
 (001.808252)  can0  0CF00203   [8]  C5 0D 18 FF F7 9F 2B 03
 (001.810587)  can0  0CF00300   [8]  D0 7F 33 FF FF 0F 7D 82
 (001.811164)  can0  18FEF100   [8]  FF A0 1B FC FF 68 00 CF
 (001.815014)  can0  0C010305   [8]  FF FF FF FF FF F3 FF FF
 (001.817275)  can0  0CF00400   [8]  71 A7 A6 48 2C 00 0F A7
 (001.818663)  can0  0CF00203   [8]  C5 44 18 FF F7 0D 2C 03
 (001.820270)  can0  10FDA300   [8]  FF FF 2B FF FF FF FF FF
 (001.820856)  can0  18F00029   [8]  F0 7D 7D F3 29 FF FF 38
 (001.825283)  can0  18FEDF00   [8]  8A A0 28 7D 7D FF FF F5
 (001.828292)  can0  0CF00203   [8]  C5 44 18 FF F7 0D 2C 03
 (001.828856)  can0  0CF00C03   [8]  E8 03 72 2C FF FF FF FF
 (001.831215)  can0  18FCDC00   [8]  9F FF FF FF 50 68 A0 1B
 (001.831225)  can0  0CF00300   [8]  D0 7F 33 FF FF 0F 7C 82
 (001.831652)  can0  1CFE9200   [8]  FF 70 BE FF FF FF 5E 00
 (001.836858)  can0  0CF00331   [8]  FF FF FF FF FF FF FF FF
 (001.837402)  can0  0CF00400   [8]  01 A7 A7 6C 2C 00 0F A7
 (001.838890)  can0  0CF00203   [8]  C5 6D 18 FF F7 2F 2C 03
 (001.840187)  can0  0CF00A00   [8]  DB 02 89 18 FF FF FF FF
 (001.840778)  can0  18FD9400   [8]  63 0A FF FF FF FF FF FF
 (001.841343)  can0  18F00E00   [8]  9E 33 FF FF D5 9F FF FF
 (001.845272)  can0  18F03300   [8]  FF FF FF FF FF FF FF FF
 (001.845840)  can0  18FEDF00   [8]  8A A0 28 7D 7D FF FF F5
 (001.848269)  can0  0CF00203   [8]  C5 6D 18 FF F7 2F 2C 03
 (001.851085)  can0  18FEF700   [8]  FF FF FF FF 17 01 FF FF
 (001.851120)  can0  18FEE000   [8]  C7 2C 01 00 10 96 35 00
 (001.851728)  can0  0CF00300   [8]  D0 7F 33 FF FF 0F 7C 83
 (001.855607)  can0  18FEF200   [8]  01 01 49 04 C3 09 E1 FF
 (001.855825)  can0  18F00F00   [8]  2C 0F FF FF D5 9F FF FF
 (001.857453)  can0  0CF00400   [8]  11 A7 A7 C3 2C 00 0F A7
 (001.858996)  can0  0CF00203   [8]  C5 83 18 FF F7 5D 2C 03
 (001.865412)  can0  0C010305   [8]  FF FF FF FF FF F3 FF FF
 (001.865576)  can0  18FEDF00   [8]  8A A0 28 7D 7D FF FF F5
 (001.867004)  can0  10FCFD00   [8]  FF FF FF FF 83 80 FF FF
 (001.868261)  can0  0CF00203   [8]  C5 83 18 FF F7 5D 2C 03
 (001.869652)  can0  18FECA03   [8]  00 FF 00 00 00 00 FF FF
 (001.871418)  can0  18FEC100   [8]  9C A7 3B 05 7B 5F 1D 00
 (001.871426)  can0  0CF00300   [8]  D0 7F 33 FF FF 0F 7E 83
 (001.875207)  can0  18F00100   [8]  FF FF FF FF FF FF FF FF
 (001.877247)  can0  0CF00400   [8]  11 A7 A7 E8 2C 00 0F A7
 (001.878310)  can0  0CF00203   [8]  C5 B1 18 FF F7 CC 2C 03
 (001.885257)  can0  18FEDF00   [8]  8A A0 28 7D 7D FF FF F5
 (001.886031)  can0  18F0010B   [8]  CF FF F0 FF FF CD FF FF
 (001.886902)  can0  18F00131   [8]  FF FF FF 3F 00 FF FF FF
 (001.887471)  can0  18FEF131   [8]  F3 FF FF C3 CC FF FF F0
 (001.888004)  can0  18FEF031   [8]  FF FF FF FF FF FC CC FF
 (001.888640)  can0  0CF00203   [8]  C5 B1 18 FF F7 CC 2C 03
 (001.889162)  can0  18FF4831   [8]  00 00 FF FF 00 00 00 00
 (001.889858)  can0  18F00503   [8]  7F 12 07 7F 35 20 32 4C
 (001.890276)  can0  18FEF231   [8]  FF FF FF FF FF FF FF FF
 (001.891744)  can0  0CF00300   [8]  D0 7F 33 FF FF 0F 7C 83
 (001.891754)  can0  0CF00331   [8]  FF FF FF FF FF FF FF FF
 (001.892092)  can0  0CF00A00   [8]  D1 02 DD 18 FF FF FF FF
 (001.892604)  can0  18FE4A03   [8]  03 0F 4F FF FF F3 FF FF
 (001.893314)  can0  18FEF000   [8]  FF FF FF C0 2B FF FF FF
 (001.893727)  can0  18F00E00   [8]  CC 34 FF FF D5 9F FF FF
 (001.896041)  can0  18FE5600   [8]  96 42 FF FF 1F 1F 00 FF
 (001.896051)  can0  18F03300   [8]  FF FF FF FF FF FF FF FF
 (001.896483)  can0  18FEBF0B   [8]  20 1C 7F 7B 81 7F FF FF
 (001.897957)  can0  0CF00400   [8]  21 A7 A7 1D 2D 00 0F A7
 (001.898292)  can0  0CF00203   [8]  C5 CC 18 FF F7 0F 2D 03
 (001.900256)  can0  18FCF200   [8]  E1 FF FF FF FF FF FF FF
 (001.905180)  can0  18FEDF00   [8]  8A A0 28 7D 7D FF FF F5
 (001.905745)  can0  18F00F00   [8]  2C 0F FF FF D5 9F FF FF
 (001.908200)  can0  0CF00203   [8]  C5 CC 18 FF F7 0F 2D 03
 (001.910617)  can0  0CF00300   [8]  D0 7F 33 FF FF 0F 7C 83
 (001.911173)  can0  18FEF100   [8]  FF 00 1C FC FF 68 00 CF
 (001.915592)  can0  0C010305   [8]  FF FF FF FF FF F3 FF FF
 (001.915599)  can0  18FD7B00   [8]  00 FF DE B7 00 00 20 55
 (001.917281)  can0  0CF00400   [8]  31 A7 A7 E5 2C 00 0F A7
 (001.918305)  can0  0CF00203   [8]  C5 E5 18 FF F7 F7 2C 03
 (001.920276)  can0  10FDA300   [8]  FF FF 2F FF FF FF FF FF
 (001.920848)  can0  18F00029   [8]  F0 7D 7D F3 29 FF FF 37
 (001.925425)  can0  18FEDF00   [8]  8A A0 28 7D 7D FF FF F5
 (001.928285)  can0  0CF00203   [8]  C5 E5 18 FF F7 F7 2C 03
 (001.928809)  can0  0CF00C03   [8]  E8 03 1C 2D FF FF FF FF
 (001.931117)  can0  18FCDC00   [8]  9F FF FF FF 50 68 00 1C
 (001.931127)  can0  0CF00300   [8]  D0 7F 33 FF FF 0F 7D 83
 (001.931784)  can0  1CFE9200   [8]  FF A4 C2 FF FF FF 60 00
 (001.937136)  can0  0CF00331   [8]  FF FF FF FF FF FF FF FF
 (001.937357)  can0  0CF00400   [8]  31 A7 A7 FA 2C 00 0F A7
 (001.938270)  can0  0CF00203   [8]  C5 C8 18 FF F7 D7 2C 03
 (001.940198)  can0  0CF00A00   [8]  2F 03 92 18 FF FF FF FF
 (001.940847)  can0  18FD9400   [8]  63 0A FF FF FF FF FF FF
 (001.941422)  can0  18FEDD00   [8]  FF A6 3F FF FF FF FF FF
 (001.942015)  can0  18F00E00   [8]  EC 35 FF FF D5 9F FF FF
 (001.945275)  can0  18F03300   [8]  FF FF FF FF FF FF FF FF
 (001.945857)  can0  18FEDF00   [8]  8A A0 28 7D 7D FF FF F5
 (001.948268)  can0  0CF00203   [8]  C5 C8 18 FF F7 D7 2C 03
 (001.950637)  can0  18FEE000   [8]  C7 2C 01 00 10 96 35 00
 (001.951231)  can0  0CF00300   [8]  D0 7F 33 FF FF 0F 7C 83
 (001.955751)  can0  18FEF200   [8]  FA 00 76 04 C2 09 E1 FF
 (001.955761)  can0  18F00F00   [8]  2C 0F FF FF D5 9F FF FF
 (001.958121)  can0  0CF00400   [8]  31 A7 A7 06 2D 00 0F A7
 (001.958292)  can0  0CF00203   [8]  C5 CD 18 FF F7 02 2D 03
 (001.960286)  can0  18FEE400   [8]  FF 3F FC FC 00 7F FF FF
 (001.965547)  can0  0C010305   [8]  FF FF FF FF FF F3 FF FF
 (001.965557)  can0  18FEDF00   [8]  8A A0 28 7D 7D FF FF F5
 (001.966192)  can0  10FCFD00   [8]  FF FF FF FF 23 82 FF FF
 (001.966745)  can0  0CFD9200   [8]  F4 FF FF FF FF FF FF FF
 (001.968212)  can0  0CF00203   [8]  C5 CD 18 FF F7 02 2D 03
 (001.970706)  can0  0CF00300   [8]  D0 7F 33 FF FF 0F 7C 83
 (001.975274)  can0  18F00100   [8]  FF FF FF FF FF FF FF FF
 (001.977315)  can0  0CF00400   [8]  21 A7 A7 13 2D 00 0F A7
 (001.978305)  can0  0CF00203   [8]  C5 D5 18 FF F7 05 2D 03
 (001.985290)  can0  18FEDF00   [8]  8A A0 28 7D 7D FF FF F5
 (001.986280)  can0  18F0010B   [8]  CF FF F0 FF FF CD FF FF
 (001.986940)  can0  18F00131   [8]  FF FF FF 3F 00 FF FF FF
 (001.987471)  can0  18FEF131   [8]  F3 FF FF C3 CC FF FF F0
 (001.988108)  can0  18FEF031   [8]  FF FF FF FF FF FC CC FF
 (001.988623)  can0  0CF00203   [8]  C5 D5 18 FF F7 05 2D 03
 (001.989224)  can0  18FF4831   [8]  00 00 FF FF 00 00 00 00
 (001.989884)  can0  18F00503   [8]  7F 12 07 7F 35 20 32 4C
 (001.990349)  can0  18FEF231   [8]  FF FF FF FF FF FF FF FF
 (001.990952)  can0  0CF00300   [8]  D0 7F 33 FF FF 0F 7B 83
 (001.991509)  can0  0CF00331   [8]  FF FF FF FF FF FF FF FF
 (001.992062)  can0  0CF00A00   [8]  67 03 76 18 FF FF FF FF
 (001.992626)  can0  18FE4A03   [8]  03 0F 4F FF FF F3 FF FF
 (001.993184)  can0  18FEF000   [8]  FF FF FF C0 2B FF FF FF
 (001.994524)  can0  18FEBD00   [8]  00 F0 FF FF FF FF FF FF
 (001.994528)  can0  18F00E00   [8]  A2 36 FF FF D5 9F FF FF
 (001.995843)  can0  18F03300   [8]  FF FF FF FF FF FF FF FF
 (001.996267)  can0  18FEBF0B   [8]  60 1C 7D 7D 81 81 FF FF
 (001.997623)  can0  0CF00400   [8]  21 A7 A7 BD 2C 00 0F A7
 (001.999001)  can0  0CF00203   [8]  C5 EA 18 FF F7 FD 2C 03
 (002.000285)  can0  18FCF200   [8]  E1 FF FF FF FF FF FF FF
 (002.005273)  can0  18FEDF00   [8]  8A A0 28 7D 7D FF FF F5
 (002.005849)  can0  18E0FF00   [8]  00 FF FF FF FF FF FF FF
 (002.006448)  can0  18F00F00   [8]  2C 0F FF FF D5 9F FF FF
 (002.008249)  can0  0CF00203   [8]  C5 EA 18 FF F7 FD 2C 03
 (002.010708)  can0  0CF00300   [8]  D0 7F 33 FF FF 0F 7D 83
 (002.011253)  can0  18FEF100   [8]  FF 78 1C FC FF 68 00 CF
 (002.015221)  can0  0C010305   [8]  FF FF FF FF FF F3 FF FF
 (002.015565)  can0  18FEEE00   [8]  84 FF FF FF FF FF FF FF
 (002.017335)  can0  0CF00400   [8]  21 A7 A7 FA 2C 00 0F A7
 (002.018307)  can0  0CF00203   [8]  C5 C8 18 FF F7 DB 2C 03
 (002.020260)  can0  10FDA300   [8]  FF FF 2C FF FF FF FF FF
 (002.020873)  can0  18F00029   [8]  F0 7D 7D F3 29 FF FF 37
 (002.025542)  can0  18FEDF00   [8]  8A A0 28 7D 7D FF FF F5
 (002.028281)  can0  0CF00203   [8]  C5 C8 18 FF F7 DB 2C 03
 (002.028884)  can0  0CF00C03   [8]  E8 03 EE 2C FF FF FF FF
 (002.031222)  can0  18FCDC00   [8]  9F FF FF FF 50 68 78 1C
 (002.031232)  can0  0CF00300   [8]  D0 7F 33 FF FF 0F 7C 83
 (002.031748)  can0  1CFE9200   [8]  FF 28 C0 FF FF FF 60 00
 (002.032349)  can0  18FEF500   [8]  A8 FF FF 43 26 FF FF FF
 (002.036852)  can0  0CF00331   [8]  FF FF FF FF FF FF FF FF
 (002.037424)  can0  0CF00400   [8]  01 A7 A7 32 2D 00 0F A7
 (002.038291)  can0  0CF00203   [8]  C5 CF 18 FF F7 12 2D 03
 (002.040256)  can0  14FC9800   [8]  FF 00 00 00 00 00 00 FF
 (002.040823)  can0  0CF00A00   [8]  71 03 9C 18 FF FF FF FF
 (002.041419)  can0  18FD9400   [8]  63 0A FF FF FF FF FF FF
 (002.042011)  can0  18F00E00   [8]  FC 36 FF FF D5 9F FF FF
 (002.045475)  can0  18F03300   [8]  FF FF FF FF FF FF FF FF
 (002.045835)  can0  18FEDF00   [8]  8A A0 28 7D 7D FF FF F5
 (002.048298)  can0  0CF00203   [8]  C5 CF 18 FF F7 12 2D 03
 (002.050605)  can0  18FEE000   [8]  C7 2C 01 00 10 96 35 00
 (002.051207)  can0  0CF00300   [8]  D0 7F 33 FF FF 0F 7D 83
 (002.051784)  can0  18FEA400   [8]  FF FF 6D 2A FF FF 5C 2C
 (002.055820)  can0  18FDB400   [8]  B0 45 76 44 FF FF FF FF
 (002.055830)  can0  18FEF200   [8]  23 01 E4 03 C2 09 E1 FF
 (002.056421)  can0  18F00F00   [8]  2C 0F FF FF D5 9F FF FF
 (002.057896)  can0  0CF00400   [8]  71 A7 A6 63 2D 00 0F A7
 (002.058311)  can0  0CF00203   [8]  C5 F2 18 FF F7 26 2D 03
 (002.065338)  can0  0C010305   [8]  FF FF FF FF FF F3 FF FF
 (002.065562)  can0  18FEDF00   [8]  8A A0 28 7D 7D FF FF F5
 (002.066190)  can0  10FCFD00   [8]  FF FF FF FF 93 82 FF FF
 (002.068248)  can0  0CF00203   [8]  C5 F2 18 FF F7 26 2D 03
 (002.070742)  can0  0CF00300   [8]  D0 7E 33 FF FF 0F 7C 83
 (002.075284)  can0  18FD7C00   [8]  F8 83 00 00 C3 0F 03 FF
 (002.075875)  can0  18F00100   [8]  FF FF FF FF FF FF FF FF
 (002.077322)  can0  0CF00400   [8]  71 A7 A6 1A 2D 00 0F A7
 (002.078282)  can0  0CF00203   [8]  C5 12 19 FF F7 45 2D 03
 (002.080215)  can0  18FDB300   [8]  FF FF 40 46 FF FF FF FF
 (002.085411)  can0  18FEDF00   [8]  8A A0 28 7D 7D FF FF F5
 (002.087012)  can0  18F0010B   [8]  CF FF F0 FF FF CD FF FF
 (002.087021)  can0  18F00131   [8]  FF FF FF 3F 00 FF FF FF
 (002.087648)  can0  18FEF131   [8]  F3 FF FF C3 CC FF FF F0
 (002.088226)  can0  18FEF031   [8]  FF FF FF FF FF FC CC FF
 (002.088909)  can0  0CF00203   [8]  C5 12 19 FF F7 45 2D 03
 (002.089372)  can0  18FF4831   [8]  00 00 FF FF 00 00 00 00
 (002.089879)  can0  18F00503   [8]  7F 12 07 7F 35 20 32 4C
 (002.090459)  can0  18FEF231   [8]  FF FF FF FF FF FF FF FF
 (002.091175)  can0  0CF00300   [8]  D0 7E 33 FF FF 0F 7D 83
 (002.091655)  can0  0CF00331   [8]  FF FF FF FF FF FF FF FF
 (002.092216)  can0  0CF00A00   [8]  E1 03 92 18 FF FF FF FF
 (002.092792)  can0  18FE4A03   [8]  03 0F 4F FF FF F3 FF FF
 (002.093371)  can0  18FEF000   [8]  FF FF FF C0 2B FF FF FF
 (002.094047)  can0  18F00E00   [8]  A0 37 FF FF D5 9F FF FF
 (002.095383)  can0  18F03300   [8]  FF FF FF FF FF FF FF FF
 (002.096123)  can0  18FE9A00   [8]  38 27 FF FF FF FF FF FF
 (002.096532)  can0  18FEBF0B   [8]  B0 1C 7E 7C 80 7E FF FF
 (002.097896)  can0  0CF00400   [8]  61 A7 A6 56 2D 00 0F A7
 (002.098284)  can0  0CF00203   [8]  C5 EE 18 FF F7 2C 2D 03
 (002.100221)  can0  18FDB200   [8]  FF FF FF FF 0E 00 FF FF
 (002.100841)  can0  18FCF200   [8]  E1 FF FF FF FF FF FF FF
 (002.105372)  can0  18FEDF00   [8]  8A A0 28 7D 7D FF FF F5
 (002.105876)  can0  18F00F00   [8]  2C 0F FF FF D5 9F FF FF
 (002.108296)  can0  0CF00203   [8]  C5 EE 18 FF F7 2C 2D 03
 (002.110702)  can0  0CF00300   [8]  D0 7D 32 FF FF 0F 7B 83
 (002.111220)  can0  18FEF100   [8]  FF A4 1C FC FF 68 00 CF
 (002.115706)  can0  0C010305   [8]  FF FF FF FF FF F3 FF FF
 (002.117444)  can0  0CF00400   [8]  21 A6 A6 86 2D 00 0F A6
 (002.119133)  can0  0CF00203   [8]  C5 00 19 FF F7 5F 2D 03
 (002.120330)  can0  10FDA300   [8]  FF FF 2B FF FF FF FF FF
 (002.120911)  can0  18FE9900   [8]  FF FF FF FF FF FF FF FF
 (002.121464)  can0  18F00029   [8]  F0 7D 7D F3 29 FF FF 37
 (002.125448)  can0  18FD8C00   [8]  FF FF 12 00 FF FF FF FF
 (002.125812)  can0  18FEDF00   [8]  8A A0 28 7D 7D FF FF F5
 (002.128285)  can0  0CF00203   [8]  C5 00 19 FF F7 5F 2D 03
 (002.128859)  can0  0CF00C03   [8]  E8 03 90 2D FF FF FF FF
 (002.130660)  can0  18FCDC00   [8]  9F FF FF FF 50 68 A4 1C
 (002.131230)  can0  0CF00300   [8]  D0 79 32 FF FF 0F 7D 83
 (002.131804)  can0  1CFE9200   [8]  FF E0 C2 FF FF FF 60 00
 (002.136885)  can0  0CF00331   [8]  FF FF FF FF FF FF FF FF
 (002.137436)  can0  0CF00400   [8]  61 A5 A4 B0 2D 00 0F A5
 (002.138308)  can0  0CF00203   [8]  C5 24 19 FF F7 77 2D 03
 (002.140295)  can0  0CF00A00   [8]  1A 04 6D 18 FF FF FF FF
 (002.140877)  can0  18FD9400   [8]  FD 0C FF FF FF FF FF FF
 (002.141435)  can0  18FEFC00   [8]  FF FF FF FF FF FF FF FF
 (002.142003)  can0  18F00E00   [8]  80 38 FF FF D5 9F FF FF
 (002.145314)  can0  18FD2000   [8]  C6 45 FF FF FF FF FF FF
 (002.145908)  can0  18F03300   [8]  FF FF FF FF FF FF FF FF
 (002.146478)  can0  18FEDF00   [8]  8A A0 28 7D 7D FF FF F5
 (002.148297)  can0  0CF00203   [8]  C5 24 19 FF F7 77 2D 03
 (002.150785)  can0  18FEE000   [8]  C7 2C 01 00 10 96 35 00
 (002.151114)  can0  0CF00300   [8]  D0 74 30 FF FF 0F 7B 83
 (002.155890)  can0  18FEF200   [8]  00 01 78 04 C3 09 E1 FF
 (002.155902)  can0  18F00F00   [8]  2C 0F FF FF D5 9F FF FF
 (002.157564)  can0  0CF00400   [8]  01 A3 A3 97 2D 00 0F A3
 (002.158435)  can0  0CF00203   [8]  C5 43 19 FF F7 B3 2D 03
 (002.164985)  can0  0C010305   [8]  FF FF FF FF FF F3 FF FF
 (002.165524)  can0  18FEDF00   [8]  8B A0 28 7D 7D FF FF F5
 (002.166126)  can0  10FCFD00   [8]  FF FF FF FF 33 7F FF FF
 (002.168231)  can0  0CF00203   [8]  C5 43 19 FF F7 B3 2D 03
 (002.170758)  can0  18FD3E00   [8]  99 40 FF 30 3C FF FF FF
 (002.171389)  can0  0CF00300   [8]  D0 72 2E FF FF 0F 7C 83
 (002.175318)  can0  18F00100   [8]  FF FF FF FF FF FF FF FF
 (002.177255)  can0  0CF00400   [8]  01 A2 A2 99 2D 00 0F A2
 (002.178311)  can0  0CF00203   [8]  C5 28 19 FF F7 99 2D 03
 (002.181110)  can0  18EAFF31   [3]  E5 FE 00
 (002.185333)  can0  18FEE500   [8]  DF 5D 02 00 4D 55 00 00
 (002.185593)  can0  18FEDF00   [8]  8B A0 28 7D 7D FF FF F5
 (002.187084)  can0  18F0010B   [8]  CF FF F0 FF FF CD FF FF
 (002.187296)  can0  18F00131   [8]  FF FF FF 3F 00 FF FF FF
 (002.187887)  can0  18FEF131   [8]  F3 FF FF C3 CC FF FF F0
 (002.188428)  can0  0CF00203   [8]  C5 28 19 FF F7 99 2D 03
 (002.189011)  can0  18FEF031   [8]  FF FF FF FF FF FC CC FF
 (002.189539)  can0  18F00503   [8]  7F 12 07 7F 35 20 32 4C
 (002.190152)  can0  18FF4831   [8]  00 00 FF FF 00 00 00 00
 (002.190689)  can0  18FE4A03   [8]  03 0F 4F FF FF F3 FF FF
 (002.191301)  can0  18FD4000   [8]  FF 3F 00 FF FF FF FF FF
 (002.191889)  can0  18FEF231   [8]  FF FF FF FF FF FF FF FF
 (002.192436)  can0  0CF00300   [8]  D0 72 2C FF FF 0F 7C 83
 (002.193080)  can0  0CF00331   [8]  FF FF FF FF FF FF FF FF
 (002.193579)  can0  0CF00A00   [8]  2C 04 76 18 FF FF FF FF
 (002.194886)  can0  18FEF000   [8]  FF FF FF C0 2B FF FF FF
 (002.194893)  can0  18F00E00   [8]  66 39 FF FF D5 9F FF FF
 (002.195322)  can0  1CECFF00   [8]  20 0E 00 02 FF CA FE 00
 (002.195897)  can0  18F03300   [8]  FF FF FF FF FF FF FF FF
 (002.196696)  can0  18FEBF0B   [8]  30 1D 7E 7C 82 7E FF FF
 (002.197445)  can0  0CF00400   [8]  11 A2 A2 9F 2D 00 0F A2
 (002.198249)  can0  0CF00203   [8]  C5 25 19 FF F7 A4 2D 03
 (002.200297)  can0  18FCF200   [8]  E1 FF FF FF FF FF FF FF
 (002.205415)  can0  18FEDF00   [8]  8B A0 28 7D 7D FF FF F5
 (002.205883)  can0  18F00F00   [8]  36 0F FF FF D5 9F FF FF
 (002.208253)  can0  0CF00203   [8]  C5 25 19 FF F7 A4 2D 03
 (002.210720)  can0  0CF00300   [8]  D0 78 2C FF FF 0F 7E 83
 (002.211272)  can0  18FEF100   [8]  FF E4 1C FC FF 68 00 CF
 (002.215552)  can0  0C010305   [8]  FF FF FF FF FF F3 FF FF
 (002.215601)  can0  18FCC500   [8]  99 40 FF FF FF FF FF FF
 (002.216220)  can0  0CFD9200   [8]  F4 FF FF FF FF FF FF FF
 (002.217383)  can0  0CF00400   [8]  51 A5 A4 A0 2D 00 0F A5
 (002.218298)  can0  0CF00203   [8]  C5 3A 19 FF F7 91 2D 03
 (002.220362)  can0  10FDA300   [8]  FF FF 2D FF FF FF FF FF
 (002.220867)  can0  18F00029   [8]  F0 7D 7D F3 29 FF FF 37
 (002.225479)  can0  18FEDF00   [8]  8B A0 28 7D 7D FF FF F5
 (002.228287)  can0  0CF00203   [8]  C5 3A 19 FF F7 91 2D 03
 (002.228857)  can0  0CF00C03   [8]  E8 03 B2 2D FF FF FF FF
 (002.230632)  can0  18FCDC00   [8]  9F FF FF FF 50 68 E4 1C
 (002.231209)  can0  0CF00300   [8]  D0 7F 30 FF FF 0F 7E 83
 (002.231779)  can0  1CFE9200   [8]  FF 80 C3 FF FF FF 4E 00
 (002.237214)  can0  0CF00331   [8]  FF FF FF FF FF FF FF FF
 (002.237428)  can0  0CF00400   [8]  21 A7 A7 71 2D 00 0F A7
 (002.238360)  can0  0CF00203   [8]  C5 3C 19 FF F7 AB 2D 03
 (002.240326)  can0  0CF00A00   [8]  3F 04 63 18 FF FF FF FF
 (002.240859)  can0  18FD9400   [8]  96 0F FF FF FF FF FF FF
 (002.241470)  can0  18FEEF00   [8]  FF FF FF 44 A5 7D FF FA
 (002.242031)  can0  18F00E00   [8]  48 3A FF FF D5 9F FF FF
 (002.242615)  can0  1CEBFF00   [8]  01 43 FF BF 00 09 08 54
 (002.245300)  can0  18F03300   [8]  FF FF FF FF FF FF FF FF
 (002.245900)  can0  18FEDF00   [8]  8B A0 28 7D 7D FF FF F5
 (002.248288)  can0  0CF00203   [8]  C5 3C 19 FF F7 AB 2D 03
 (002.250605)  can0  18FEE000   [8]  C7 2C 01 00 10 96 35 00
 (002.251214)  can0  0CF00300   [8]  D0 82 33 FF FF 0F 7D 83
 (002.255882)  can0  18FEF200   [8]  FD 00 8C 04 C2 09 E1 FF
 (002.255893)  can0  18F00F00   [8]  36 0F FF FF D5 9F FF FF
 (002.257597)  can0  0CF00400   [8]  31 A8 A8 92 2D 00 0F A8
 (002.258307)  can0  0CF00203   [8]  C5 10 19 FF F7 6E 2D 03
 (002.260294)  can0  18FEDB00   [8]  FF FF CD 7A FF FF FF FF
 (002.265067)  can0  0C010305   [8]  FF FF FF FF FF F3 FF FF
 (002.265627)  can0  18FEDF00   [8]  8A A0 28 7D 7D FF FF F5
 (002.266210)  can0  10FCFD00   [8]  FF FF FF FF C6 83 FF FF
 (002.268260)  can0  0CF00203   [8]  C5 10 19 FF F7 6E 2D 03
 (002.270906)  can0  0CF00300   [8]  D0 81 34 FF FF 0F 7C 83
 (002.275349)  can0  18F00100   [8]  FF FF FF FF FF FF FF FF
 (002.277332)  can0  0CF00400   [8]  01 A8 A8 F9 2D 00 0F A8
 (002.278311)  can0  0CF00203   [8]  C5 2C 19 FF F7 9B 2D 03
 (002.280304)  can0  18FEF600   [8]  FF 18 61 FF FF FF FF FF
 (002.285471)  can0  18FEDF00   [8]  8A A0 28 7D 7D FF FF F5
 (002.287216)  can0  18F00131   [8]  FF FF FF 3F 00 FF FF FF
 (002.287442)  can0  18F0010B   [8]  CF FF F0 FF FF CD FF FF
 (002.288034)  can0  18FEF131   [8]  F3 FF FF C3 CC FF FF F0
 (002.288586)  can0  0CF00203   [8]  C5 2C 19 FF F7 9B 2D 03
 (002.289135)  can0  18FEF031   [8]  FF FF FF FF FF FC CC FF
 (002.289710)  can0  18F00503   [8]  7F 12 07 7F 35 20 32 4C
 (002.290289)  can0  18FF4831   [8]  00 00 FF FF 00 00 00 00
 (002.290854)  can0  18FE4A03   [8]  03 0F 4F FF FF F3 FF FF
 (002.291442)  can0  0CF00300   [8]  D0 7F 34 FF FF 0F 7D 83
 (002.292012)  can0  18FEF231   [8]  FF FF FF FF FF FF FF FF
 (002.292578)  can0  0CF00A00   [8]  3F 04 7F 18 FF FF FF FF
 (002.293161)  can0  0CF00331   [8]  FF FF FF FF FF FF FF FF
 (002.293729)  can0  18FEF000   [8]  FF FF FF C0 2B FF FF FF
 (002.294309)  can0  18F00E00   [8]  F2 3A FF FF D5 9F FF FF
 (002.295438)  can0  18F03300   [8]  FF FF FF FF FF FF FF FF
 (002.296955)  can0  18FEBF0B   [8]  30 1D 7E 7C 80 86 FF FF
 (002.297543)  can0  0CF00400   [8]  01 A7 A7 58 2E 00 0F A7
 (002.298102)  can0  1CEBFF00   [8]  02 00 09 08 ED 14 1F 01
 (002.298699)  can0  0CF00203   [8]  C5 64 19 FF F7 F0 2D 03
 (002.300332)  can0  18FCF200   [8]  E1 FF FF FF FF FF FF FF
 (002.305481)  can0  18FEDF00   [8]  8A A0 28 7D 7D FF FF F5
 (002.305860)  can0  18FDC600   [8]  FC 04 FF FF FF FF FF FF
 (002.306494)  can0  18F00F00   [8]  36 0F FF FF D5 9F FF FF
 (002.308267)  can0  0CF00203   [8]  C5 64 19 FF F7 F0 2D 03
 (002.310736)  can0  0CF00300   [8]  D0 7D 33 FF FF 0F 7B 83
 (002.311260)  can0  18FEF100   [8]  FF FC 1C FC FF 68 00 CF
 (002.315862)  can0  0C010305   [8]  FF FF FF FF FF F3 FF FF
 (002.317333)  can0  0CF00400   [8]  21 A6 A6 A0 2E 00 0F A6
 (002.318302)  can0  0CF00203   [8]  C5 A1 19 FF F7 79 2E 03
 (002.320327)  can0  10FDA300   [8]  FF FF 2B FF FF FF FF FF
 (002.320908)  can0  18F00029   [8]  F0 7D 7D F3 29 FF FF 37
 (002.325380)  can0  18FEDF00   [8]  8B A0 28 7D 7D FF FF F5
 (002.328254)  can0  0CF00203   [8]  C5 A1 19 FF F7 79 2E 03
 (002.328853)  can0  0CF00C03   [8]  E8 03 BA 2E FF FF FF FF
 (002.330705)  can0  18FCDC00   [8]  9F FF FF FF 50 68 FC 1C
 (002.331268)  can0  0CF00300   [8]  D0 7D 32 FF FF 0F 7A 83
 (002.331883)  can0  1CFE9200   [8]  FF 98 C3 FF FF FF 64 00
 (002.337198)  can0  0CF00331   [8]  FF FF FF FF FF FF FF FF
 (002.337438)  can0  0CF00400   [8]  01 A6 A6 ED 2E 00 0F A6
 (002.338428)  can0  0CF00203   [8]  C5 AE 19 FF F7 9E 2E 03
 (002.340342)  can0  0CF00A00   [8]  8A 04 DD 18 FF FF FF FF
 (002.340878)  can0  18FD9400   [8]  FD 0C FF FF FF FF FF FF
 (002.341454)  can0  18F00E00   [8]  5C 3B FF FF D5 9F FF FF
 (002.345358)  can0  18F03300   [8]  FF FF FF FF FF FF FF FF
 (002.345926)  can0  18FEDF00   [8]  8B A0 28 7D 7D FF FF F5
 (002.348315)  can0  0CF00203   [8]  C5 AE 19 FF F7 9E 2E 03
 (002.350897)  can0  18FEE000   [8]  C7 2C 01 00 10 96 35 00
 (002.351189)  can0  0CF00300   [8]  D0 7D 32 FF FF 0F 7B 83
 (002.356008)  can0  18FEF200   [8]  E5 00 0D 05 C3 09 E1 FF
 (002.356040)  can0  18F00F00   [8]  36 0F FF FF D5 9F FF FF
 (002.357606)  can0  0CF00400   [8]  01 A6 A6 49 2F 00 0F A6
 (002.358305)  can0  0CF00203   [8]  C5 E1 19 FF F7 DC 2E 03
 (002.365035)  can0  0C010305   [8]  FF FF FF FF FF F3 FF FF
 (002.365601)  can0  18FEDF00   [8]  8B A0 28 7D 7D FF FF F5
 (002.366201)  can0  10FCFD00   [8]  FF FF FF FF CC 86 FF FF
 (002.368261)  can0  0CF00203   [8]  C5 E1 19 FF F7 DC 2E 03
 (002.370872)  can0  0CF00300   [8]  D0 7D 31 FF FF 0F 7B 83
 (002.375331)  can0  18F00100   [8]  FF FF FF FF FF FF FF FF
 (002.377343)  can0  0CF00400   [8]  31 A6 A6 5F 2F 00 0F A6
 (002.378307)  can0  0CF00203   [8]  C5 1F 1A FF F7 23 2F 03
 (002.385351)  can0  18FEDF00   [8]  8B A0 28 7D 7D FF FF F5
 (002.386906)  can0  18F00131   [8]  FF FF FF 3F 00 FF FF FF
 (002.387464)  can0  18F0010B   [8]  CF FF F0 FF FF CD FF FF
 (002.388011)  can0  18FEF131   [8]  F3 FF FF C3 CC FF FF F0
 (002.388530)  can0  0CF00203   [8]  C5 1F 1A FF F7 23 2F 03
 (002.389197)  can0  18FEF031   [8]  FF FF FF FF FF FC CC FF
 (002.389702)  can0  18F00503   [8]  7F 12 07 7F 35 20 32 4C
 (002.390229)  can0  18FF4831   [8]  00 00 FF FF 00 00 00 00
 (002.390799)  can0  18FE4A03   [8]  03 0F 4F FF FF F3 FF FF
 (002.391403)  can0  0CF00300   [8]  D0 7D 32 FF FF 0F 7B 83
 (002.391982)  can0  18FEF231   [8]  FF FF FF FF FF FF FF FF
 (002.392572)  can0  0CF00A00   [8]  8A 04 44 19 FF FF FF FF
 (002.393146)  can0  0CF00331   [8]  FF FF FF FF FF FF FF FF
 (002.393716)  can0  18FEF000   [8]  FF FF FF C0 2B FF FF FF
 (002.394321)  can0  18F00E00   [8]  18 3C FF FF D5 9F FF FF
 (002.395448)  can0  18F03300   [8]  FF FF FF FF FF FF FF FF
 (002.397175)  can0  18FEBF0B   [8]  80 1D 7F 7B 83 7F FF FF
 (002.397744)  can0  0CF00400   [8]  31 A6 A6 34 2F 00 0F A6
 (002.398272)  can0  0CF00203   [8]  C5 28 1A FF F7 68 2F 03
 (002.400400)  can0  18FCF200   [8]  E1 FF FF FF FF FF FF FF
 (002.405332)  can0  18FEDF00   [8]  8B A0 28 7D 7D FF FF F5
 (002.405905)  can0  18F00F00   [8]  36 0F FF FF D5 9F FF FF
 (002.408204)  can0  0CF00203   [8]  C5 28 1A FF F7 68 2F 03
 (002.411350)  can0  0CF00300   [8]  D0 7D 32 FF FF 0F 7B 83
 (002.411360)  can0  18FEF100   [8]  FF 9C 1D FC FF 68 00 CF
 (002.415308)  can0  0C010305   [8]  FF FF FF FF FF F3 FF FF
 (002.418125)  can0  0CF00400   [8]  21 A6 A6 37 2F 00 0F A6
 (002.418209)  can0  0CF00203   [8]  C5 0E 1A FF F7 32 2F 03
 (002.420301)  can0  10FDA300   [8]  FF FF 32 FF FF FF FF FF
 (002.420925)  can0  18F00029   [8]  F0 7D 7D F3 29 FF FF 36
 (002.425330)  can0  18FEDF00   [8]  8B A0 28 7D 7D FF FF F5
 (002.428247)  can0  0CF00203   [8]  C5 0E 1A FF F7 32 2F 03
 (002.428843)  can0  0CF00C03   [8]  E8 03 43 2F FF FF FF FF
