 (000.000000)  can0  0CF00C03   [8]  EF 03 E7 16 FF FF FF FF
 (000.000004)  can0  18F00503   [8]  7D 00 00 7D 4E 20 4E 43
 (000.001853)  can0  18FE4A03   [8]  03 1F 4F FF FF F3 FF FF
 (000.001860)  can0  18FEDF00   [8]  84 A0 28 7D 7D FF FF F1
 (000.002424)  can0  10FCFD00   [8]  FF FF FF FF 00 32 FF FF
 (000.006496)  can0  18FD3E00   [8]  F0 3E FF 16 3F FF FF FF
 (000.006948)  can0  0CF00300   [8]  D1 00 0A FF FF 0F 61 7E
 (000.009855)  can0  0CF00203   [8]  C0 00 00 FF F7 70 16 03
 (000.011301)  can0  18F00100   [8]  FF FF FF FF FF FF FF FF
 (000.013037)  can0  0CF00400   [8]  70 7D 82 A5 16 00 0F 83
 (000.018830)  can0  0CF00203   [8]  C0 00 00 FF F7 70 16 03
 (000.019408)  can0  0CF00C03   [8]  E9 03 B3 16 FF FF FF FF
 (000.020557)  can0  18F0010B   [8]  CF FF F0 FF FF CD FF FF
 (000.021835)  can0  18FEDF00   [8]  84 A0 28 7D 7D FF FF F1
 (000.026387)  can0  18FD4000   [8]  FF 3F 00 FF FF FF FF FF
 (000.026908)  can0  0CF00300   [8]  D1 00 0A FF FF 0F 61 7E
 (000.027466)  can0  0CF00A00   [8]  0A 03 EE 05 FF FF FF FF
 (000.028097)  can0  18FEF000   [8]  FF FF FF A7 16 FF FF FF
 (000.028616)  can0  18F00E00   [8]  B6 26 FF FF D5 9F FF FF
 (000.029209)  can0  0CF00203   [8]  C0 00 00 FF F7 6C 16 03
 (000.029788)  can0  1CECFF00   [8]  20 0E 00 02 FF CA FE 00
 (000.030636)  can0  18FEBF0B   [8]  00 00 7D 7D 7D 7D FF FF
 (000.031392)  can0  18F03300   [8]  FF FF FF FF FF FF FF FF
 (000.033780)  can0  0CF00400   [8]  10 7D 83 90 16 00 0F 83
 (000.033787)  can0  0C010305   [8]  FF FF FF FF FF F3 FF FF
 (000.036382)  can0  18FCF200   [8]  E1 FF FF FF FF FF FF FF
 (000.038836)  can0  0CF00203   [8]  C0 00 00 FF F7 6C 16 03
 (000.039436)  can0  0CF00C03   [8]  EA 03 4A 16 FF FF FF FF
 (000.042326)  can0  18FEDF00   [8]  84 A0 28 7D 7D FF FF F1
 (000.042336)  can0  18F00F00   [8]  FF FF FF FF FF FF FF FF
 (000.046827)  can0  0CF00300   [8]  D1 00 0B FF FF 0F 61 7E
 (000.046878)  can0  18F00131   [8]  FF FF FF 3F 00 FF FF FF
 (000.047546)  can0  18FEF100   [8]  FF 00 00 FC FF 68 00 CF
 (000.048021)  can0  18FEF131   [8]  F3 FF FF C3 CC FF FF F0
 (000.048771)  can0  18FEF031   [8]  FF FF FF FF FF FC CC FF
 (000.049246)  can0  0CF00203   [8]  C0 00 00 FF F7 68 16 03
 (000.049824)  can0  18FF4831   [8]  00 00 FF FF 00 00 00 00
 (000.050406)  can0  18FEF231   [8]  FF FF FF FF FF FF FF FF
 (000.051000)  can0  0CF00331   [8]  FF FF FF FF FF FF FF FF
 (000.051604)  can0  18FCC500   [8]  F0 3E FF FF FF FF FF FF
 (000.052176)  can0  0CFD9200   [8]  F4 FF FA FF FF FF FF FF
 (000.053300)  can0  0CF00400   [8]  10 7D 83 9D 16 00 0F 83
 (000.056378)  can0  10FDA300   [8]  FF FF 14 FF FF FF FF FF
 (000.056956)  can0  18F00029   [8]  F0 7D 7D F3 29 FF FF 3C
 (000.058836)  can0  0CF00203   [8]  C0 00 00 FF F7 68 16 03
 (000.059462)  can0  0CF00C03   [8]  EA 03 A5 16 FF FF FF FF
 (000.061751)  can0  18FEDF00   [8]  84 A0 28 7D 7D FF FF F1
 (000.066930)  can0  18FCDC00   [8]  9F FF FF FF 50 68 00 00
 (000.066940)  can0  0CF00300   [8]  D1 00 0B FF FF 0F 62 7E
 (000.067500)  can0  1CFE9200   [8]  FF 44 8D FF FF FF 00 00
 (000.068783)  can0  0CF00203   [8]  C0 00 00 FF F7 63 16 03
 (000.073028)  can0  0CF00400   [8]  70 7D 82 A6 16 00 0F 83
 (000.076437)  can0  0CF00A00   [8]  0A 03 D2 05 FF FF FF FF
 (000.076890)  can0  18FD9400   [8]  30 12 FF FF FF FF FF FF
 (000.077452)  can0  18FEEF00   [8]  FF FF FF 1E 38 7D FF FA
 (000.078042)  can0  18F00E00   [8]  B6 26 FF FF D5 9F FF FF
 (000.078600)  can0  1CEBFF00   [8]  01 43 FF BF 00 09 08 54
 (000.079149)  can0  0CF00203   [8]  C0 00 00 FF F7 63 16 03
 (000.079973)  can0  0CF00C03   [8]  EB 03 E9 16 FF FF FF FF
 (000.082173)  can0  18F03300   [8]  FF FF FF FF FF FF FF FF
 (000.082310)  can0  18FEDF00   [8]  84 A0 28 7D 7D FF FF F1
 (000.083853)  can0  0C010305   [8]  FF FF FF FF FF F3 FF FF
 (000.086314)  can0  18FEE000   [8]  18 00 00 00 2E 96 35 00
 (000.086883)  can0  0CF00300   [8]  D1 00 0A FF FF 0F 62 7E
 (000.088811)  can0  0CF00203   [8]  C0 00 00 FF F7 61 16 03
 (000.091365)  can0  18FEF200   [8]  11 00 00 00 E1 06 E1 FF
 (000.091919)  can0  18F00F00   [8]  FF FF FF FF FF FF FF FF
 (000.093100)  can0  0CF00400   [8]  70 7D 82 B2 16 00 0F 83
 (000.096347)  can0  18FEDB00   [8]  FF FF 9D 31 FF FF FF FF
 (000.096906)  can0  0CF00331   [8]  FF FF FF FF FF FF FF FF
 (000.099422)  can0  0CF00203   [8]  C0 00 00 FF F7 61 16 03
 (000.099429)  can0  0CF00C03   [8]  E9 03 B5 16 FF FF FF FF
 (000.099985)  can0  18F00503   [8]  7D 00 00 7D 4E 20 4E 43
 (000.100633)  can0  18FE4A03   [8]  03 1F 4F FF FF F3 FF FF
 (000.101858)  can0  18FEDF00   [8]  84 A0 28 7D 7D FF FF F1
 (000.102507)  can0  10FCFD00   [8]  FF FF FF FF 00 32 FF FF
 (000.106453)  can0  0CF00300   [8]  D1 00 0A FF FF 0F 61 7E
 (000.109240)  can0  0CF00203   [8]  C0 00 00 FF F7 5B 16 03
 (000.111696)  can0  18F00100   [8]  FF FF FF FF FF FF FF FF
 (000.113215)  can0  0CF00400   [8]  50 7D 82 BB 16 00 0F 83
 (000.116282)  can0  18FEF600   [8]  FF 01 68 FF FF FF FF FF
 (000.118761)  can0  0CF00203   [8]  C0 00 00 FF F7 5B 16 03
 (000.119361)  can0  0CF00C03   [8]  EA 03 81 16 FF FF FF FF
 (000.120761)  can0  18F0010B   [8]  CF FF F0 FF FF CD FF FF
 (000.121777)  can0  18FEDF00   [8]  84 A0 28 7D 7D FF FF F1
 (000.126485)  can0  0CF00300   [8]  D1 00 0A FF FF 0F 60 7E
 (000.126906)  can0  0CF00A00   [8]  00 03 0A 06 FF FF FF FF
 (000.127532)  can0  18FEF000   [8]  FF FF FF BA 16 FF FF FF
 (000.128066)  can0  18F00E00   [8]  B6 26 FF FF D5 9F FF FF
 (000.128801)  can0  0CF00203   [8]  C0 00 00 FF F7 5E 16 03
 (000.131227)  can0  18FEBF0B   [8]  00 00 7D 7D 7D 7D FF FF
 (000.131376)  can0  18F03300   [8]  FF FF FF FF FF FF FF FF
 (000.133262)  can0  0CF00400   [8]  40 7D 82 C8 16 00 0F 83
 (000.133662)  can0  1CEBFF00   [8]  02 00 09 08 ED 14 1F 01
 (000.134316)  can0  0C010305   [8]  FF FF FF FF FF F3 FF FF
 (000.136373)  can0  18FCF200   [8]  E1 FF FF FF FF FF FF FF
 (000.139340)  can0  0CF00203   [8]  C0 00 00 FF F7 5E 16 03
 (000.139391)  can0  0CF00C03   [8]  EF 03 E1 16 FF FF FF FF
 (000.142299)  can0  18FEDF00   [8]  84 A0 28 7D 7D FF FF F1
 (000.142349)  can0  18FDC600   [8]  FC 04 FF FF FF FF FF FF
 (000.142955)  can0  18F00F00   [8]  FF FF FF FF FF FF FF FF
 (000.146870)  can0  0CF00300   [8]  D1 00 0A FF FF 0F 61 7E
 (000.146880)  can0  18F00131   [8]  FF FF FF 3F 00 FF FF FF
 (000.147433)  can0  18FEF100   [8]  FF 00 00 FC FF 68 00 CF
 (000.147998)  can0  18FEF131   [8]  F3 FF FF C3 CC FF FF F0
 (000.148597)  can0  18FEF031   [8]  FF FF FF FF FF FC CC FF
 (000.149144)  can0  0CF00203   [8]  C0 00 00 FF F7 64 16 03
 (000.149749)  can0  18FF4831   [8]  00 00 FF FF 00 00 00 00
 (000.150328)  can0  18FEF231   [8]  FF FF FF FF FF FF FF FF
 (000.150945)  can0  0CF00331   [8]  FF FF FF FF FF FF FF FF
 (000.153234)  can0  0CF00400   [8]  50 7D 82 B9 16 00 0F 83
 (000.156367)  can0  10FDA300   [8]  FF FF 15 FF FF FF FF FF
 (000.156877)  can0  18F00029   [8]  F0 7D 7D F3 29 FF FF 3C
 (000.158959)  can0  0CF00203   [8]  C0 00 00 FF F7 64 16 03
 (000.159379)  can0  0CF00C03   [8]  EC 03 E0 16 FF FF FF FF
 (000.161751)  can0  18FEDF00   [8]  84 A0 28 7D 7D FF FF F1
 (000.166817)  can0  18FCDC00   [8]  9F FF FF FF 50 68 00 00
 (000.166904)  can0  0CF00300   [8]  D1 00 0A FF FF 0F 61 7E
 (000.167575)  can0  1CFE9200   [8]  FF BC 8D FF FF FF 00 00
 (000.169217)  can0  0CF00203   [8]  C0 00 00 FF F7 6B 16 03
 (000.173047)  can0  0CF00400   [8]  60 7D 82 AE 16 00 0F 83
 (000.176326)  can0  0CF00A00   [8]  00 03 F8 05 FF FF FF FF
 (000.176858)  can0  18FD9400   [8]  30 12 FF FF FF FF FF FF
 (000.177490)  can0  18F00E00   [8]  B6 26 FF FF D5 9F FF FF
 (000.178939)  can0  0CF00203   [8]  C0 00 00 FF F7 6B 16 03
 (000.179356)  can0  0CF00C03   [8]  E9 03 73 16 FF FF FF FF
 (000.181730)  can0  18F03300   [8]  FF FF FF FF FF FF FF FF
 (000.182268)  can0  18FEDF00   [8]  84 A0 28 7D 7D FF FF F1
 (000.183798)  can0  0C010305   [8]  FF FF FF FF FF F3 FF FF
 (000.186285)  can0  18FEE000   [8]  18 00 00 00 2E 96 35 00
 (000.186857)  can0  0CF00300   [8]  D1 00 0A FF FF 0F 61 7E
 (000.188800)  can0  0CF00203   [8]  C0 00 00 FF F7 6C 16 03
 (000.191487)  can0  18FEF200   [8]  0D 00 00 00 E1 06 E1 FF
 (000.191891)  can0  18F00F00   [8]  FF FF FF FF FF FF FF FF
 (000.193104)  can0  0CF00400   [8]  00 7D 83 9A 16 00 0F 83
 (000.196786)  can0  0CF00331   [8]  FF FF FF FF FF FF FF FF
 (000.198816)  can0  0CF00203   [8]  C0 00 00 FF F7 6C 16 03
 (000.199461)  can0  0CF00C03   [8]  EB 03 80 16 FF FF FF FF
 (000.199998)  can0  18F00503   [8]  7D 00 00 7D 4E 20 4E 43
 (000.200673)  can0  18FE4A03   [8]  03 1F 4F FF FF F3 FF FF
 (000.202191)  can0  18FEDF00   [8]  84 A0 28 7D 7D FF FF F1
 (000.202404)  can0  10FCFD00   [8]  FF FF FF FF 00 32 FF FF
 (000.206447)  can0  0CF00300   [8]  D1 00 0A FF FF 0F 61 7E
 (000.209233)  can0  0CF00203   [8]  C0 00 00 FF F7 6B 16 03
 (000.211697)  can0  18F00100   [8]  FF FF FF FF FF FF FF FF
 (000.213296)  can0  0CF00400   [8]  10 7D 83 9A 16 00 0F 83
 (000.218767)  can0  0CF00203   [8]  C0 00 00 FF F7 6B 16 03
 (000.219339)  can0  0CF00C03   [8]  EC 03 D6 16 FF FF FF FF
 (000.220937)  can0  18F0010B   [8]  CF FF F0 FF FF CD FF FF
 (000.221810)  can0  18FEDF00   [8]  84 A0 28 7D 7D FF FF F1
 (000.226448)  can0  0CF00300   [8]  D1 00 0B FF FF 0F 62 7E
 (000.226934)  can0  0CF00A00   [8]  00 03 EE 05 FF FF FF FF
 (000.227562)  can0  18FEF000   [8]  FF FF FF 91 16 FF FF FF
 (000.228052)  can0  18F00E00   [8]  C2 26 FF FF D5 9F FF FF
 (000.228777)  can0  0CF00203   [8]  C0 00 00 FF F7 67 16 03
 (000.231624)  can0  18FEBF0B   [8]  00 00 7D 7D 7D 7D FF FF
 (000.231632)  can0  18F03300   [8]  FF FF FF FF FF FF FF FF
 (000.233379)  can0  0CF00400   [8]  70 7D 82 A6 16 00 0F 83
 (000.233792)  can0  0C010305   [8]  FF FF FF FF FF F3 FF FF
 (000.236372)  can0  18FCF200   [8]  E1 FF FF FF FF FF FF FF
 (000.239502)  can0  0CF00203   [8]  C0 00 00 FF F7 67 16 03
 (000.239512)  can0  0CF00C03   [8]  E9 03 C0 16 FF FF FF FF
 (000.242440)  can0  18FEDF00   [8]  84 A0 28 7D 7D FF FF F1
 (000.242451)  can0  18F00F00   [8]  FF FF FF FF FF FF FF FF
 (000.246784)  can0  0CF00300   [8]  D1 00 0A FF FF 0F 63 7E
 (000.246931)  can0  18F00131   [8]  FF FF FF 3F 00 FF FF FF
 (000.247477)  can0  18FEF100   [8]  FF 00 00 FC FF 68 00 CF
 (000.248048)  can0  18FEF131   [8]  F3 FF FF C3 CC FF FF F0
 (000.248621)  can0  18FEF031   [8]  FF FF FF FF FF FC CC FF
 (000.249193)  can0  0CF00203   [8]  C0 00 00 FF F7 62 16 03
 (000.249799)  can0  18FF4831   [8]  00 00 FF FF 00 00 00 00
 (000.250376)  can0  18FEF231   [8]  FF FF FF FF FF FF FF FF
 (000.250970)  can0  0CF00331   [8]  FF FF FF FF FF FF FF FF
 (000.253251)  can0  0CF00400   [8]  70 7D 82 B6 16 00 0F 83
 (000.256356)  can0  10FDA300   [8]  FF FF 15 FF FF FF FF FF
 (000.256912)  can0  18F00029   [8]  F0 7D 7D F3 29 FF FF 3C
 (000.258954)  can0  0CF00203   [8]  C0 00 00 FF F7 62 16 03
 (000.259353)  can0  0CF00C03   [8]  EA 03 85 16 FF FF FF FF
 (000.261802)  can0  18FEDF00   [8]  84 A0 28 7D 7D FF FF F1
 (000.266941)  can0  18FCDC00   [8]  9F FF FF FF 50 68 00 00
 (000.266951)  can0  0CF00300   [8]  D1 00 0A FF FF 0F 61 7E
 (000.267483)  can0  1CFE9200   [8]  FF 78 8D FF FF FF 00 00
 (000.268783)  can0  0CF00203   [8]  C0 00 00 FF F7 62 16 03
 (000.273070)  can0  0CF00400   [8]  50 7D 82 C3 16 00 0F 83
 (000.276471)  can0  0CF00A00   [8]  00 03 01 06 FF FF FF FF
 (000.276906)  can0  18FD9400   [8]  30 12 FF FF FF FF FF FF
 (000.277594)  can0  18F00E00   [8]  C2 26 FF FF D5 9F FF FF
 (000.279167)  can0  0CF00203   [8]  C0 00 00 FF F7 62 16 03
 (000.279405)  can0  0CF00C03   [8]  EE 03 EA 16 FF FF FF FF
 (000.281761)  can0  18F03300   [8]  FF FF FF FF FF FF FF FF
 (000.282308)  can0  18FEDF00   [8]  84 A0 28 7D 7D FF FF F1
 (000.283812)  can0  0C010305   [8]  FF FF FF FF FF F3 FF FF
 (000.286382)  can0  18FEE000   [8]  18 00 00 00 2E 96 35 00
 (000.286955)  can0  0CF00300   [8]  D1 00 0A FF FF 0F 60 7E
 (000.289367)  can0  0CF00203   [8]  C0 00 00 FF F7 61 16 03
 (000.291555)  can0  18FEF200   [8]  11 00 00 00 E2 06 E1 FF
 (000.291926)  can0  18F00F00   [8]  FF FF FF FF FF FF FF FF
 (000.293108)  can0  0CF00400   [8]  40 7D 82 CE 16 00 0F 82
 (000.296785)  can0  0CF00331   [8]  FF FF FF FF FF FF FF FF
 (000.298849)  can0  0CF00203   [8]  C0 00 00 FF F7 61 16 03
 (000.299439)  can0  0CF00C03   [8]  EF 03 01 17 FF FF FF FF
 (000.299973)  can0  18F00503   [8]  7D 00 00 7D 4E 20 4E 43
 (000.301511)  can0  18FE4A03   [8]  03 1F 4F FF FF F3 FF FF
 (000.301868)  can0  18FEDF00   [8]  84 A0 28 7D 7D FF FF F1
 (000.302596)  can0  10FCFD00   [8]  FF FF FF FF 00 32 FF FF
 (000.303070)  can0  0CFD9200   [8]  F4 FF FA FF FF FF FF FF
 (000.306381)  can0  0CF00300   [8]  D1 00 0A FF FF 0F 61 7E
 (000.309281)  can0  0CF00203   [8]  C0 00 00 FF F7 67 16 03
 (000.311653)  can0  18F00100   [8]  FF FF FF FF FF FF FF FF
 (000.313103)  can0  0CF00400   [8]  50 7D 82 B9 16 00 0F 83
 (000.318808)  can0  0CF00203   [8]  C0 00 00 FF F7 67 16 03
 (000.319436)  can0  0CF00C03   [8]  E9 03 9E 16 FF FF FF FF
 (000.321313)  can0  18F0010B   [8]  CF FF F0 FF FF CD FF FF
 (000.321824)  can0  18FEDF00   [8]  84 A0 28 7D 7D FF FF F1
 (000.326386)  can0  0CF00300   [8]  D1 00 0A FF FF 0F 61 7E
 (000.326913)  can0  0CF00A00   [8]  F7 02 F8 05 FF FF FF FF
 (000.327554)  can0  18FEF000   [8]  FF FF FF C7 16 FF FF FF
 (000.328100)  can0  18F00E00   [8]  C2 26 FF FF D5 9F FF FF
 (000.328775)  can0  0CF00203   [8]  C0 00 00 FF F7 6D 16 03
 (000.331197)  can0  18FEBF0B   [8]  00 00 7D 7D 7D 7D FF FF
 (000.331808)  can0  18F03300   [8]  FF FF FF FF FF FF FF FF
 (000.333408)  can0  0CF00400   [8]  70 7D 82 AB 16 00 0F 83
 (000.333851)  can0  0C010305   [8]  FF FF FF FF FF F3 FF FF
 (000.336369)  can0  18FCF200   [8]  E1 FF FF FF FF FF FF FF
 (000.338831)  can0  0CF00203   [8]  C0 00 00 FF F7 6D 16 03
 (000.339440)  can0  0CF00C03   [8]  E9 03 6A 16 FF FF FF FF
 (000.342375)  can0  18FEDF00   [8]  84 A0 28 7D 7D FF FF F1
 (000.342384)  can0  18F00F00   [8]  FF FF FF FF FF FF FF FF
 (000.346353)  can0  18FD0700   [8]  43 0C FC FF FF FF FF FF
 (000.346922)  can0  18F00131   [8]  FF FF FF 3F 00 FF FF FF
 (000.347462)  can0  0CF00300   [8]  D1 00 0A FF FF 0F 61 7E
 (000.348008)  can0  18FEF131   [8]  F3 FF FF C3 CC FF FF F0
 (000.348585)  can0  18FEF100   [8]  FF 00 00 FC FF 68 00 CF
 (000.349198)  can0  0CF00203   [8]  C0 00 00 FF F7 73 16 03
 (000.349782)  can0  18FEF031   [8]  FF FF FF FF FF FC CC FF
 (000.350390)  can0  18FF4831   [8]  00 00 FF FF 00 00 00 00
 (000.350981)  can0  18FEF231   [8]  FF FF FF FF FF FF FF FF
 (000.351642)  can0  0CF00331   [8]  FF FF FF FF FF FF FF FF
 (000.353783)  can0  0CF00400   [8]  00 7D 83 98 16 00 0F 83
 (000.356449)  can0  10FDA300   [8]  FF FF 14 FF FF FF FF FF
 (000.357004)  can0  18F00029   [8]  F0 7D 7D F3 29 FF FF 3C
 (000.358906)  can0  0CF00203   [8]  C0 00 00 FF F7 73 16 03
 (000.359404)  can0  0CF00C03   [8]  ED 03 C6 16 FF FF FF FF
 (000.361780)  can0  18FEDF00   [8]  84 A0 28 7D 7D FF FF F1
 (000.366881)  can0  18FCDC00   [8]  9F FF FF FF 50 68 00 00
 (000.366950)  can0  0CF00300   [8]  D1 00 0A FF FF 0F 61 7E
 (000.367620)  can0  1CFE9200   [8]  FF 24 8E FF FF FF 00 00
 (000.368783)  can0  0CF00203   [8]  C0 00 00 FF F7 6E 16 03
 (000.373118)  can0  0CF00400   [8]  30 7D 83 85 16 00 0F 83
 (000.376336)  can0  14FC9800   [8]  FF 00 00 00 00 00 00 FF
 (000.376924)  can0  0CF00A00   [8]  F7 02 01 06 FF FF FF FF
 (000.377482)  can0  18FD9400   [8]  30 12 FF FF FF FF FF FF
 (000.378056)  can0  18F00E00   [8]  C2 26 FF FF D5 9F FF FF
 (000.378775)  can0  0CF00203   [8]  C0 00 00 FF F7 6E 16 03
 (000.379398)  can0  0CF00C03   [8]  E9 03 BB 16 FF FF FF FF
 (000.381740)  can0  18F03300   [8]  FF FF FF FF FF FF FF FF
 (000.382363)  can0  18FEDF00   [8]  84 A0 28 7D 7D FF FF F1
 (000.383880)  can0  0C010305   [8]  FF FF FF FF FF F3 FF FF
 (000.386341)  can0  18FEE000   [8]  18 00 00 00 2E 96 35 00
 (000.386961)  can0  0CF00300   [8]  D1 00 0B FF FF 0F 62 7E
 (000.389315)  can0  0CF00203   [8]  C0 00 00 FF F7 67 16 03
 (000.391539)  can0  18FDB400   [8]  39 37 B3 38 FF FF FF FF
 (000.391961)  can0  18FEF200   [8]  11 00 00 00 E1 06 E1 FF
 (000.392551)  can0  18F00F00   [8]  FF FF FF FF FF FF FF FF
 (000.393208)  can0  0CF00400   [8]  20 7D 83 9D 16 00 0F 83
 (000.397194)  can0  0CF00331   [8]  FF FF FF FF FF FF FF FF
 (000.399150)  can0  0CF00203   [8]  C0 00 00 FF F7 67 16 03
 (000.399410)  can0  0CF00C03   [8]  EA 03 57 16 FF FF FF FF
 (000.399964)  can0  18F00503   [8]  7D 00 00 7D 4E 20 4E 43
 (000.401399)  can0  18FE4A03   [8]  03 1F 4F FF FF F3 FF FF
 (000.401865)  can0  18FEDF00   [8]  84 A0 28 7D 7D FF FF F1
 (000.402574)  can0  10FCFD00   [8]  FF FF FF FF 00 32 FF FF
 (000.406436)  can0  0CF00300   [8]  D1 00 0B FF FF 0F 62 7E
 (000.408843)  can0  0CF00203   [8]  C0 00 00 FF F7 5F 16 03
 (000.411402)  can0  18F00100   [8]  FF FF FF FF FF FF FF FF
 (000.413113)  can0  0CF00400   [8]  00 7D 83 A9 16 00 0F 83
 (000.416287)  can0  18FDB300   [8]  FF FF D3 3D FF FF FF FF
 (000.418806)  can0  0CF00203   [8]  C0 00 00 FF F7 5F 16 03
 (000.419361)  can0  0CF00C03   [8]  EA 03 95 16 FF FF FF FF
 (000.422072)  can0  18F0010B   [8]  CF FF F0 FF FF CD FF FF
 (000.422082)  can0  18FEDF00   [8]  84 A0 28 7D 7D FF FF F1
 (000.426417)  can0  0CF00300   [8]  D1 00 0A FF FF 0F 62 7E
 (000.426952)  can0  0CF00A00   [8]  F7 02 EE 05 FF FF FF FF
 (000.427594)  can0  18FEF000   [8]  FF FF FF A2 16 FF FF FF
 (000.428111)  can0  18F00E00   [8]  C2 26 FF FF D5 9F FF FF
 (000.428803)  can0  0CF00203   [8]  C0 00 00 FF F7 5D 16 03
 (000.432169)  can0  18F03300   [8]  FF FF FF FF FF FF FF FF
 (000.432180)  can0  18FEBF0B   [8]  00 00 7D 7D 7D 7D FF FF
 (000.433824)  can0  0CF00400   [8]  00 7D 83 B3 16 00 0F 83
 (000.433836)  can0  0C010305   [8]  FF FF FF FF FF F3 FF FF
 (000.437294)  can0  18FDB200   [8]  FF FF FF FF 01 00 FF FF
 (000.437305)  can0  18FCF200   [8]  E1 FF FF FF FF FF FF FF
 (000.439043)  can0  0CF00203   [8]  C0 00 00 FF F7 5D 16 03
 (000.439400)  can0  0CF00C03   [8]  ED 03 08 17 FF FF FF FF
 (000.441875)  can0  18FEDF00   [8]  84 A0 28 7D 7D FF FF F1
 (000.442410)  can0  18F00F00   [8]  FF FF FF FF FF FF FF FF
 (000.446370)  can0  0CF00300   [8]  D1 00 0A FF FF 0F 60 7E
 (000.446962)  can0  18F00131   [8]  FF FF FF 3F 00 FF FF FF
 (000.447513)  can0  18FEF100   [8]  FF 00 00 FC FF 68 00 CF
 (000.448085)  can0  18E0FF31   [8]  00 FF FF FF FF F0 FF FF
 (000.448738)  can0  18FEF131   [8]  F3 FF FF C3 CC FF FF F0
 (000.449276)  can0  0CF00203   [8]  C0 00 00 FF F7 5A 16 03
 (000.449813)  can0  18FEF031   [8]  FF FF FF FF FF FC CC FF
 (000.450457)  can0  18FEFC31   [8]  FF 78 FF FF FF FF 00 FF
 (000.450990)  can0  18FEAE31   [8]  FF FF 5C 5C FF FF FF FF
 (000.451603)  can0  18FEF731   [8]  FF FF FF FF 1A 01 FF FF
 (000.452207)  can0  18FF4831   [8]  00 00 FF FF 00 00 00 00
 (000.452812)  can0  18FD8331   [8]  F8 FF FF FF FF FF FF FF
 (000.453389)  can0  0CF00400   [8]  60 7D 82 C8 16 00 0F 83
 (000.453955)  can0  18FEF831   [8]  FF FF FF FF FF FF FF FF
 (000.454591)  can0  18FEF231   [8]  FF FF FF FF FF FF FF FF
 (000.455138)  can0  18FEFA31   [8]  FF B8 B9 FF FF FF FF FF
 (000.455780)  can0  18FEC131   [8]  9D 44 67 06 FF FF FF FF
 (000.456329)  can0  0CF00331   [8]  FF FF FF FF FF FF FF FF
 (000.456916)  can0  10FDA300   [8]  FF FF 15 FF FF FF FF FF
 (000.457466)  can0  18F00029   [8]  F0 7D 7D F3 29 FF FF 3C
 (000.458815)  can0  0CF00203   [8]  C0 00 00 FF F7 5A 16 03
 (000.459449)  can0  0CF00C03   [8]  EB 03 CB 16 FF FF FF FF
 (000.462076)  can0  18FD8C00   [8]  FF FF 00 00 FF FF FF FF
 (000.462387)  can0  18FEDF00   [8]  84 A0 28 7D 7D FF FF F1
 (000.466880)  can0  18FCDC00   [8]  9F FF FF FF 50 68 00 00
 (000.466949)  can0  0CF00300   [8]  D1 00 0A FF FF 0F 60 7E
 (000.467975)  can0  1CFE9200   [8]  FF 84 8E FF FF FF 00 00
 (000.469596)  can0  0CF00203   [8]  C0 00 00 FF F7 59 16 03
 (000.473078)  can0  0CF00400   [8]  50 7D 82 BD 16 00 0F 83
 (000.476407)  can0  0CF00A00   [8]  00 03 F8 05 FF FF FF FF
 (000.476979)  can0  18FD9400   [8]  96 0F FF FF FF FF FF FF
 (000.477554)  can0  18F00E00   [8]  CE 26 FF FF D5 9F FF FF
 (000.478782)  can0  0CF00203   [8]  C0 00 00 FF F7 59 16 03
 (000.479364)  can0  0CF00C03   [8]  EA 03 56 16 FF FF FF FF
 (000.481829)  can0  18FD2000   [8]  39 37 FF FF FF FF FF FF
 (000.482427)  can0  18F03300   [8]  FF FF FF FF FF FF FF FF
 (000.482976)  can0  18FEDF00   [8]  84 A0 28 7D 7D FF FF F1
 (000.483882)  can0  0C010305   [8]  FF FF FF FF FF F3 FF FF
 (000.486384)  can0  18FEE000   [8]  18 00 00 00 2E 96 35 00
 (000.486967)  can0  0CF00300   [8]  D1 00 0A FF FF 0F 61 7E
 (000.489251)  can0  0CF00203   [8]  C0 00 00 FF F7 60 16 03
 (000.491400)  can0  18FEF200   [8]  0C 00 00 00 E1 06 E1 FF
 (000.491965)  can0  18F00F00   [8]  FF FF FF FF FF FF FF FF
 (000.493181)  can0  0CF00400   [8]  00 7D 83 A7 16 00 0F 83
 (000.497317)  can0  0CF00331   [8]  FF FF FF FF FF FF FF FF
 (000.499443)  can0  0CF00203   [8]  C0 00 00 FF F7 60 16 03
 (000.499453)  can0  0CF00C03   [8]  ED 03 B3 16 FF FF FF FF
 (000.499974)  can0  18F00503   [8]  7D 00 00 7D 4E 20 4E 43
 (000.501467)  can0  18FE4A03   [8]  03 1F 4F FF FF F3 FF FF
 (000.501476)  can0  18FD9503   [8]  CC FF FF AF FF FF FF FF
 (000.501848)  can0  18FEF803   [8]  FF FF FF FF 3C 2C FF FF
 (000.502460)  can0  18FEDF00   [8]  84 A0 28 7D 7D FF FF F1
 (000.503047)  can0  10FCFD00   [8]  FF FF FF FF 00 32 FF FF
 (000.506460)  can0  18FD3E00   [8]  E9 3E FF 16 3F FF FF FF
 (000.507005)  can0  0CF00300   [8]  D1 00 0A FF FF 0F 61 7E
 (000.508805)  can0  0CF00203   [8]  C0 00 00 FF F7 67 16 03
 (000.511313)  can0  18F00100   [8]  FF FF FF FF FF FF FF FF
 (000.513035)  can0  0CF00400   [8]  00 7D 83 9D 16 00 0F 83
 (000.519395)  can0  0CF00203   [8]  C0 00 00 FF F7 67 16 03
 (000.519405)  can0  0CF00C03   [8]  EB 03 D1 16 FF FF FF FF
 (000.521913)  can0  18F0010B   [8]  CF FF F0 FF FF CD FF FF
 (000.522256)  can0  18FEDF00   [8]  84 A0 28 7D 7D FF FF F1
 (000.526473)  can0  18FD4000   [8]  FF 3F 00 FF FF FF FF FF
 (000.527033)  can0  0CF00300   [8]  D1 00 0B FF FF 0F 60 7E
 (000.527676)  can0  0CF00A00   [8]  00 03 F8 05 FF FF FF FF
 (000.528195)  can0  18FEF000   [8]  FF FF FF A5 16 FF FF FF
 (000.528780)  can0  18F00E00   [8]  CE 26 FF FF D5 9F FF FF
 (000.529326)  can0  0CF00203   [8]  C0 00 00 FF F7 63 16 03
 (000.530062)  can0  18FECA03   [8]  00 FF 00 00 00 00 FF FF
 (000.531565)  can0  18F03300   [8]  FF FF FF FF FF FF FF FF
 (000.531944)  can0  18FEBF0B   [8]  00 00 7D 7D 7D 7D FF FF
 (000.533407)  can0  0CF00400   [8]  20 7D 83 82 16 00 0F 83
 (000.533866)  can0  0C010305   [8]  FF FF FF FF FF F3 FF FF
 (000.536499)  can0  18FCF200   [8]  E1 FF FF FF FF FF FF FF
 (000.538968)  can0  0CF00203   [8]  C0 00 00 FF F7 63 16 03
 (000.539379)  can0  0CF00C03   [8]  EA 03 76 16 FF FF FF FF
 (000.541858)  can0  18FEDF00   [8]  84 A0 28 7D 7D FF FF F1
 (000.542431)  can0  18F00F00   [8]  FF FF FF FF FF FF FF FF
 (000.546379)  can0  0CF00300   [8]  D1 00 0B FF FF 0F 61 7E
 (000.546977)  can0  18F00131   [8]  FF FF FF 3F 00 FF FF FF
 (000.547537)  can0  18FEF100   [8]  FF 00 00 FC FF 68 00 CF
 (000.548064)  can0  18FEF131   [8]  F3 FF FF C3 CC FF FF F0
 (000.548663)  can0  18FEF031   [8]  FF FF FF FF FF FC CC FF
 (000.549259)  can0  0CF00203   [8]  C0 00 00 FF F7 5D 16 03
 (000.549857)  can0  18FF4831   [8]  00 00 FF FF 00 00 00 00
 (000.550493)  can0  18FEF231   [8]  FF FF FF FF FF FF FF FF
 (000.551084)  can0  0CF00331   [8]  FF FF FF FF FF FF FF FF
 (000.551661)  can0  18FCC500   [8]  E9 3E FF FF FF FF FF FF
 (000.552191)  can0  0CFD9200   [8]  F4 FF FA FF FF FF FF FF
 (000.553360)  can0  0CF00400   [8]  30 7D 83 91 16 00 0F 83
 (000.556416)  can0  10FDA300   [8]  FF FF 14 FF FF FF FF FF
 (000.556986)  can0  18F00029   [8]  F0 7D 7D F3 29 FF FF 3C
 (000.559289)  can0  0CF00203   [8]  C0 00 00 FF F7 5D 16 03
 (000.559351)  can0  0CF00C03   [8]  E9 03 50 16 FF FF FF FF
 (000.561940)  can0  18FEDF00   [8]  84 A0 28 7D 7D FF FF F1
 (000.566926)  can0  18FCDC00   [8]  9F FF FF FF 50 68 00 00
 (000.567006)  can0  0CF00300   [8]  D1 00 0B FF FF 0F 62 7E
 (000.567586)  can0  1CFE9200   [8]  FF 74 8E FF FF FF 00 00
 (000.569247)  can0  0CF00203   [8]  C0 00 00 FF F7 59 16 03
 (000.573170)  can0  0CF00400   [8]  20 7D 83 9D 16 00 0F 83
 (000.576343)  can0  0CF00A00   [8]  00 03 DC 05 FF FF FF FF
 (000.576937)  can0  18FD9400   [8]  96 0F FF FF FF FF FF FF
 (000.577514)  can0  18FEEF00   [8]  FF FF FF 1E 3A 7D FF FA
 (000.578084)  can0  18F00E00   [8]  CE 26 FF FF D5 9F FF FF
 (000.578775)  can0  0CF00203   [8]  C0 00 00 FF F7 59 16 03
 (000.579377)  can0  0CF00C03   [8]  ED 03 CE 16 FF FF FF FF
 (000.581836)  can0  18F03300   [8]  FF FF FF FF FF FF FF FF
 (000.582385)  can0  18FEDF00   [8]  84 A0 28 7D 7D FF FF F1
 (000.583992)  can0  0C010305   [8]  FF FF FF FF FF F3 FF FF
 (000.586380)  can0  18FEE000   [8]  18 00 00 00 2E 96 35 00
 (000.586987)  can0  0CF00300   [8]  D1 00 0B FF FF 0F 62 7E
 (000.587557)  can0  18FECA31   [8]  00 FF 00 00 00 00 FF FF
 (000.589309)  can0  0CF00203   [8]  C0 00 00 FF F7 56 16 03
 (000.591981)  can0  18FEF200   [8]  12 00 00 00 E1 06 E1 FF
 (000.592038)  can0  18F00F00   [8]  FF FF FF FF FF FF FF FF
 (000.593536)  can0  0CF00400   [8]  00 7D 83 AC 16 00 0F 83
 (000.596532)  can0  18FEDB00   [8]  FF FF 14 31 FF FF FF FF
 (000.596981)  can0  0CF00331   [8]  FF FF FF FF FF FF FF FF
 (000.599357)  can0  0CF00203   [8]  C0 00 00 FF F7 56 16 03
 (000.599368)  can0  0CF00C03   [8]  E9 03 C8 16 FF FF FF FF
 (000.599967)  can0  18F00503   [8]  7D 00 00 7D 4E 20 4E 43
 (000.600750)  can0  18FE4A03   [8]  03 1F 4F FF FF F3 FF FF
 (000.602375)  can0  18FEDF00   [8]  84 A0 28 7D 7D FF FF F1
 (000.602452)  can0  10FCFD00   [8]  FF FF FF FF 00 32 FF FF
 (000.606468)  can0  0CF00300   [8]  D1 00 0B FF FF 0F 61 7E
 (000.608784)  can0  0CF00203   [8]  C0 00 00 FF F7 51 16 03
 (000.610711)  can0  18F11031   [8]  00 00 FF FF FF FF FF FF
 (000.611366)  can0  18F00100   [8]  FF FF FF FF FF FF FF FF
 (000.613168)  can0  0CF00400   [8]  70 7D 82 BA 16 00 0F 83
 (000.616528)  can0  18FEF600   [8]  FF 01 68 FF FF FF FF FF
 (000.619056)  can0  0CF00203   [8]  C0 00 00 FF F7 51 16 03
 (000.619400)  can0  0CF00C03   [8]  E9 03 72 16 FF FF FF FF
 (000.621860)  can0  18FEDF00   [8]  84 A0 28 7D 7D FF FF F1
 (000.622425)  can0  18F0010B   [8]  CF FF F0 FF FF CD FF FF
 (000.626873)  can0  0CF00300   [8]  D1 00 0A FF FF 0F 60 7E
 (000.626957)  can0  0CF00A00   [8]  C8 02 39 06 FF FF FF FF
 (000.627627)  can0  18FEF000   [8]  FF FF FF B1 16 FF FF FF
 (000.628144)  can0  18F00E00   [8]  CE 26 FF FF D5 9F FF FF
 (000.628905)  can0  0CF00203   [8]  C0 00 00 FF F7 50 16 03
 (000.632164)  can0  18F03300   [8]  FF FF FF FF FF FF FF FF
 (000.632175)  can0  18FEBF0B   [8]  00 00 7D 7D 7D 7D FF FF
 (000.633905)  can0  0CF00400   [8]  60 7D 82 BD 16 00 0F 83
 (000.633916)  can0  0C010305   [8]  FF FF FF FF FF F3 FF FF
 (000.637197)  can0  18FCF200   [8]  E1 FF FF FF FF FF FF FF
 (000.638783)  can0  0CF00203   [8]  C0 00 00 FF F7 50 16 03
 (000.639383)  can0  0CF00C03   [8]  EE 03 C3 16 FF FF FF FF
 (000.641769)  can0  18FEDF00   [8]  84 A0 28 7D 7D FF FF F1
 (000.642338)  can0  18FDC600   [8]  FC 04 FF FF FF FF FF FF
 (000.642938)  can0  18F00F00   [8]  FF FF FF FF FF FF FF FF
 (000.646456)  can0  0CF00300   [8]  D1 00 0A FF FF 0F 61 7E
 (000.646949)  can0  18F00131   [8]  FF FF FF 3F 00 FF FF FF
 (000.647584)  can0  18FEF100   [8]  FF 00 00 FC FF 68 00 CF
 (000.648155)  can0  18FEF131   [8]  F3 FF FF C3 CC FF FF F0
 (000.648742)  can0  18FEF031   [8]  FF FF FF FF FF FC CC FF
 (000.649308)  can0  0CF00203   [8]  C0 00 00 FF F7 58 16 03
 (000.649903)  can0  18FF4831   [8]  00 00 FF FF 00 00 00 00
 (000.650476)  can0  18FEF231   [8]  FF FF FF FF FF FF FF FF
 (000.651146)  can0  0CF00331   [8]  FF FF FF FF FF FF FF FF
 (000.653309)  can0  0CF00400   [8]  00 7D 83 AA 16 00 0F 83
 (000.656362)  can0  10FDA300   [8]  FF FF 14 FF FF FF FF FF
 (000.656946)  can0  18F00029   [8]  F0 7D 7D F3 29 FF FF 3C
 (000.659348)  can0  0CF00203   [8]  C0 00 00 FF F7 58 16 03
 (000.659359)  can0  0CF00C03   [8]  F0 03 D7 16 FF FF FF FF
 (000.661987)  can0  18FEDF00   [8]  84 A0 28 7D 7D FF FF F1
 (000.666857)  can0  18FCDC00   [8]  9F FF FF FF 50 68 00 00
 (000.666944)  can0  0CF00300   [8]  D1 00 0A FF FF 0F 62 7E
 (000.667614)  can0  1CFE9200   [8]  FF 0C 8F FF FF FF 00 00
 (000.669331)  can0  0CF00203   [8]  C0 00 00 FF F7 5E 16 03
 (000.673136)  can0  0CF00400   [8]  10 7D 83 9E 16 00 0F 83
 (000.676355)  can0  0CF00A00   [8]  C8 02 27 06 FF FF FF FF
 (000.676942)  can0  18FD9400   [8]  96 0F FF FF FF FF FF FF
 (000.677530)  can0  18F00E00   [8]  CE 26 FF FF D5 9F FF FF
 (000.678786)  can0  0CF00203   [8]  C0 00 00 FF F7 5E 16 03
 (000.679408)  can0  0CF00C03   [8]  E9 03 7F 16 FF FF FF FF
 (000.682134)  can0  18F03300   [8]  FF FF FF FF FF FF FF FF
 (000.682421)  can0  18FEDF00   [8]  84 A0 28 7D 7D FF FF F1
 (000.684091)  can0  0C010305   [8]  FF FF FF FF FF F3 FF FF
 (000.686462)  can0  18FEF700   [8]  FF FF FF FF 19 01 FF FF
 (000.687026)  can0  18FEE000   [8]  18 00 00 00 2E 96 35 00
 (000.687598)  can0  0CF00300   [8]  D1 00 0B FF FF 0F 61 7E
 (000.689166)  can0  0CF00203   [8]  C0 00 00 FF F7 60 16 03
 (000.692016)  can0  18FEF200   [8]  12 00 00 00 E1 06 E1 FF
 (000.692025)  can0  18F00F00   [8]  FF FF FF FF FF FF FF FF
 (000.693597)  can0  0CF00400   [8]  20 7D 83 8C 16 00 0F 83
 (000.697227)  can0  0CF00331   [8]  FF FF FF FF FF FF FF FF
 (000.698950)  can0  0CF00203   [8]  C0 00 00 FF F7 60 16 03
 (000.699422)  can0  0CF00C03   [8]  E9 03 53 16 FF FF FF FF
 (000.699970)  can0  18F00503   [8]  7D 00 00 7D 4E 20 4E 43
 (000.700640)  can0  18FE4A03   [8]  03 1F 4F FF FF F3 FF FF
 (000.702185)  can0  18FEDF00   [8]  84 A0 28 7D 7D FF FF F1
 (000.702532)  can0  10FCFD00   [8]  FF FF FF FF 00 32 FF FF
 (000.706342)  can0  18FEC100   [8]  85 AA 3B 05 6F 02 00 00
 (000.706910)  can0  0CF00300   [8]  D1 00 0B FF FF 0F 61 7E
 (000.708812)  can0  0CF00203   [8]  C0 00 00 FF F7 5C 16 03
 (000.711434)  can0  18F00100   [8]  FF FF FF FF FF FF FF FF
 (000.713194)  can0  0CF00400   [8]  30 7D 83 94 16 00 0F 83
 (000.718823)  can0  0CF00203   [8]  C0 00 00 FF F7 5C 16 03
 (000.719406)  can0  0CF00C03   [8]  EC 03 CB 16 FF FF FF FF
 (000.722037)  can0  18FEDF00   [8]  84 A0 28 7D 7D FF FF F1
 (000.722384)  can0  18F0010B   [8]  CF FF F0 FF FF CD FF FF
 (000.726780)  can0  0CF00300   [8]  D1 00 0B FF FF 0F 62 7E
 (000.727052)  can0  0CF00A00   [8]  C8 02 1D 06 FF FF FF FF
 (000.727660)  can0  18FEF000   [8]  FF FF FF 8A 16 FF FF FF
 (000.728261)  can0  18F00E00   [8]  CE 26 FF FF D5 9F FF FF
 (000.728784)  can0  0CF00203   [8]  C0 00 00 FF F7 5A 16 03
 (000.732016)  can0  18FE5600   [8]  96 45 FF FF 1F 1F 00 FF
 (000.732031)  can0  18F03300   [8]  FF FF FF FF FF FF FF FF
 (000.732559)  can0  18FEBF0B   [8]  00 00 7D 7D 7D 7D FF FF
 (000.733306)  can0  0CF00400   [8]  10 7D 83 9F 16 00 0F 83
 (000.733883)  can0  0C010305   [8]  FF FF FF FF FF F3 FF FF
 (000.736432)  can0  18FCF200   [8]  E1 FF FF FF FF FF FF FF
 (000.738741)  can0  0CF00203   [8]  C0 00 00 FF F7 5A 16 03
 (000.739338)  can0  0CF00C03   [8]  EB 03 D3 16 FF FF FF FF
 (000.741884)  can0  18FEDF00   [8]  84 A0 28 7D 7D FF FF F1
 (000.742457)  can0  18F00F00   [8]  FF FF FF FF FF FF FF FF
 (000.746424)  can0  0CF00300   [8]  D1 00 0B FF FF 0F 63 7E
 (000.746982)  can0  18F00131   [8]  FF FF FF 3F 00 FF FF FF
 (000.747581)  can0  18FEF100   [8]  FF 00 00 FC FF 68 00 CF
 (000.748108)  can0  18FEF131   [8]  F3 FF FF C3 CC FF FF F0
 (000.748703)  can0  18FEF031   [8]  FF FF FF FF FF FC CC FF
 (000.749304)  can0  0CF00203   [8]  C0 00 00 FF F7 56 16 03
 (000.749878)  can0  18FF4831   [8]  00 00 FF FF 00 00 00 00
 (000.750513)  can0  18FEF231   [8]  FF FF FF FF FF FF FF FF
 (000.751208)  can0  0CF00331   [8]  FF FF FF FF FF FF FF FF
 (000.751623)  can0  18FD7B00   [8]  00 FF 11 BE 00 00 FE 57
 (000.753357)  can0  0CF00400   [8]  10 7D 83 AA 16 00 0F 83
 (000.756397)  can0  10FDA300   [8]  FF FF 14 FF FF FF FF FF
 (000.756961)  can0  18F00029   [8]  F0 7D 7D F3 29 FF FF 3C
 (000.759253)  can0  0CF00203   [8]  C0 00 00 FF F7 56 16 03
 (000.759343)  can0  0CF00C03   [8]  EA 03 84 16 FF FF FF FF
 (000.761989)  can0  18FEDF00   [8]  84 A0 28 7D 7D FF FF F1
 (000.766765)  can0  18FCDC00   [8]  9F FF FF FF 50 68 00 00
 (000.767054)  can0  0CF00300   [8]  D1 00 0B FF FF 0F 61 7E
 (000.767659)  can0  1CFE9200   [8]  FF D0 8E FF FF FF 00 00
 (000.768793)  can0  0CF00203   [8]  C0 00 00 FF F7 56 16 03
 (000.773087)  can0  0CF00400   [8]  70 7D 82 B5 16 00 0F 83
 (000.776337)  can0  0CF00A00   [8]  C8 02 39 06 FF FF FF FF
 (000.776973)  can0  18FD9400   [8]  30 12 FF FF FF FF FF FF
 (000.777546)  can0  18FEDD00   [8]  FF F2 0E FF FF FF FF FF
 (000.778099)  can0  18F00E00   [8]  C2 26 FF FF D5 9F FF FF
 (000.778780)  can0  0CF00203   [8]  C0 00 00 FF F7 56 16 03
 (000.779381)  can0  0CF00C03   [8]  EB 03 95 16 FF FF FF FF
 (000.781904)  can0  18F03300   [8]  FF FF FF FF FF FF FF FF
 (000.782398)  can0  18FEDF00   [8]  84 A0 28 7D 7D FF FF F1
 (000.783987)  can0  0C010305   [8]  FF FF FF FF FF F3 FF FF
 (000.786408)  can0  18FEE000   [8]  18 00 00 00 2E 96 35 00
 (000.787055)  can0  0CF00300   [8]  D1 00 0A FF FF 0F 61 7E
 (000.789310)  can0  0CF00203   [8]  C0 00 00 FF F7 56 16 03
 (000.791998)  can0  18FEF200   [8]  0D 00 00 00 E2 06 E1 FF
 (000.792007)  can0  18F00F00   [8]  FF FF FF FF FF FF FF FF
 (000.793518)  can0  0CF00400   [8]  60 7D 82 C0 16 00 0F 83
 (000.796525)  can0  18FEE400   [8]  FF 3F FC FC 00 7F FF FF
 (000.797000)  can0  0CF00331   [8]  FF FF FF FF FF FF FF FF
 (000.799183)  can0  0CF00203   [8]  C0 00 00 FF F7 56 16 03
 (000.799393)  can0  0CF00C03   [8]  F0 03 ED 16 FF FF FF FF
 (000.799972)  can0  18F00503   [8]  7D 00 00 7D 4E 20 4E 43
 (000.800625)  can0  18FE4A03   [8]  03 1F 4F FF FF F3 FF FF
 (000.801949)  can0  18FEDF00   [8]  84 A0 28 7D 7D FF FF F1
 (000.802524)  can0  10FCFD00   [8]  FF FF FF FF 00 32 FF FF
 (000.803086)  can0  0CFD9200   [8]  F4 FF FA FF FF FF FF FF
 (000.806460)  can0  0CF00300   [8]  D1 00 0A FF FF 0F 61 7E
 (000.808814)  can0  0CF00203   [8]  C0 00 00 FF F7 5B 16 03
 (000.811385)  can0  18F00100   [8]  FF FF FF FF FF FF FF FF
 (000.813205)  can0  0CF00400   [8]  70 7D 82 A7 16 00 0F 83
 (000.818990)  can0  0CF00203   [8]  C0 00 00 FF F7 5B 16 03
 (000.819404)  can0  0CF00C03   [8]  EB 03 BC 16 FF FF FF FF
 (000.822702)  can0  18FEDF00   [8]  84 A0 28 7D 7D FF FF F1
 (000.822711)  can0  18F0010B   [8]  CF FF F0 FF FF CD FF FF
 (000.826927)  can0  0CF00300   [8]  D1 00 0A FF FF 0F 62 7E
 (000.827008)  can0  0CF00A00   [8]  BF 02 27 06 FF FF FF FF
 (000.827652)  can0  18FEF000   [8]  FF FF FF B7 16 FF FF FF
 (000.828207)  can0  18FEBD00   [8]  00 F0 FF FF FF FF FF FF
 (000.828814)  can0  18F00E00   [8]  CE 26 FF FF D5 9F FF FF
 (000.829331)  can0  0CF00203   [8]  C0 00 00 FF F7 5E 16 03
 (000.831538)  can0  18F03300   [8]  FF FF FF FF FF FF FF FF
 (000.832421)  can0  18FEBF0B   [8]  00 00 7D 7D 7D 7D FF FF
 (000.833267)  can0  0CF00400   [8]  10 7D 83 97 16 00 0F 83
 (000.833906)  can0  0C010305   [8]  FF FF FF FF FF F3 FF FF
 (000.836392)  can0  18FCF200   [8]  E1 FF FF FF FF FF FF FF
 (000.838784)  can0  0CF00203   [8]  C0 00 00 FF F7 5E 16 03
 (000.839381)  can0  0CF00C03   [8]  E9 03 4B 16 FF FF FF FF
 (000.841982)  can0  18FEDF00   [8]  84 A0 28 7D 7D FF FF F1
 (000.842429)  can0  18E0FF00   [8]  00 FF FF FF FF FF FF FF
 (000.843135)  can0  18F00F00   [8]  FF FF FF FF FF FF FF FF
 (000.846489)  can0  0CF00300   [8]  D1 00 0B FF FF 0F 61 7E
 (000.847093)  can0  18F00131   [8]  FF FF FF 3F 00 FF FF FF
 (000.847667)  can0  18FEF100   [8]  FF 00 00 FC FF 68 00 CF
 (000.848191)  can0  18FEF131   [8]  F3 FF FF C3 CC FF FF F0
 (000.848791)  can0  18FEF031   [8]  FF FF FF FF FF FC CC FF
 (000.849339)  can0  0CF00203   [8]  C0 00 00 FF F7 62 16 03
 (000.850683)  can0  18FF4831   [8]  00 00 FF FF 00 00 00 00
 (000.850692)  can0  18FEF231   [8]  FF FF FF FF FF FF FF FF
 (000.851135)  can0  0CF00331   [8]  FF FF FF FF FF FF FF FF
 (000.851999)  can0  18FEEE00   [8]  82 FF FF FF FF FF FF FF
 (000.853456)  can0  0CF00400   [8]  30 7D 83 83 16 00 0F 83
 (000.856402)  can0  10FDA300   [8]  FF FF 14 FF FF FF FF FF
 (000.856966)  can0  18F00029   [8]  F0 7D 7D F3 29 FF FF 3C
 (000.859279)  can0  0CF00203   [8]  C0 00 00 FF F7 62 16 03
 (000.859345)  can0  0CF00C03   [8]  EC 03 99 16 FF FF FF FF
 (000.862684)  can0  18FEDF00   [8]  84 A0 28 7D 7D FF FF F1
 (000.866458)  can0  18FCDC00   [8]  9F FF FF FF 50 68 00 00
 (000.867046)  can0  0CF00300   [8]  D1 00 0B FF FF 0F 61 7E
 (000.867624)  can0  1CFE9200   [8]  FF 04 8F FF FF FF 00 00
 (000.868132)  can0  18FEF500   [8]  A8 FF FF 89 26 FF FF FF
 (000.868738)  can0  0CF00203   [8]  C0 00 00 FF F7 5E 16 03
 (000.873165)  can0  0CF00400   [8]  50 7D 83 80 16 00 0F 84
 (000.876416)  can0  14FC9800   [8]  FF 00 00 00 00 00 00 FF
 (000.876975)  can0  0CF00A00   [8]  BF 02 30 06 FF FF FF FF
 (000.877554)  can0  18FD9400   [8]  30 12 FF FF FF FF FF FF
 (000.878124)  can0  18F00E00   [8]  CE 26 FF FF D5 9F FF FF
 (000.878742)  can0  0CF00203   [8]  C0 00 00 FF F7 5E 16 03
 (000.879389)  can0  0CF00C03   [8]  EB 03 D4 16 FF FF FF FF
 (000.882081)  can0  18F03300   [8]  FF FF FF FF FF FF FF FF
 (000.882406)  can0  18FEDF00   [8]  84 A0 28 7D 7D FF FF F1
 (000.884011)  can0  0C010305   [8]  FF FF FF FF FF F3 FF FF
 (000.886477)  can0  18FEE000   [8]  18 00 00 00 2E 96 35 00
 (000.887027)  can0  0CF00300   [8]  D1 00 0C FF FF 0F 62 7E
 (000.887661)  can0  18FEA400   [8]  FF FF C0 2A FF FF 01 2D
 (000.889200)  can0  0CF00203   [8]  C0 00 00 FF F7 58 16 03
 (000.891532)  can0  18FDB400   [8]  36 37 B0 38 FF FF FF FF
 (000.891973)  can0  18FEF200   [8]  12 00 00 00 E1 06 E1 FF
 (000.892723)  can0  18F00F00   [8]  FF FF FF FF FF FF FF FF
 (000.893255)  can0  0CF00400   [8]  20 7D 83 9D 16 00 0F 83
 (000.896784)  can0  0CF00331   [8]  FF FF FF FF FF FF FF FF
 (000.898781)  can0  0CF00203   [8]  C0 00 00 FF F7 58 16 03
 (000.899404)  can0  0CF00C03   [8]  EA 03 86 16 FF FF FF FF
 (000.899978)  can0  18F00503   [8]  7D 00 00 7D 4E 20 4E 43
 (000.900606)  can0  18FE4A03   [8]  03 1F 4F FF FF F3 FF FF
 (000.901915)  can0  18FEDF00   [8]  84 A0 28 7D 7D FF FF F1
 (000.902509)  can0  10FCFD00   [8]  FF FF FF FF 00 32 FF FF
 (000.906444)  can0  0CF00300   [8]  D1 00 0B FF FF 0F 63 7E
 (000.908830)  can0  0CF00203   [8]  C0 00 00 FF F7 4E 16 03
 (000.911461)  can0  18FD7C00   [8]  F8 83 00 00 C3 0F 03 FF
 (000.912010)  can0  18F00100   [8]  FF FF FF FF FF FF FF FF
 (000.913260)  can0  0CF00400   [8]  10 7D 83 A8 16 00 0F 83
 (000.916562)  can0  18FDB300   [8]  FF FF D0 3D FF FF FF FF
 (000.919071)  can0  0CF00203   [8]  C0 00 00 FF F7 4E 16 03
 (000.919382)  can0  0CF00C03   [8]  E9 03 79 16 FF FF FF FF
 (000.922680)  can0  18FEDF00   [8]  84 A0 28 7D 7D FF FF F1
 (000.922691)  can0  18F0010B   [8]  CF FF F0 FF FF CD FF FF
 (000.926502)  can0  0CF00300   [8]  D1 00 0B FF FF 0F 61 7E
 (000.927082)  can0  0CF00A00   [8]  BF 02 27 06 FF FF FF FF
 (000.927737)  can0  18FEF000   [8]  FF FF FF A1 16 FF FF FF
 (000.928290)  can0  18F00E00   [8]  CE 26 FF FF D5 9F FF FF
 (000.928818)  can0  0CF00203   [8]  C0 00 00 FF F7 50 16 03
 (000.931432)  can0  18F03300   [8]  FF FF FF FF FF FF FF FF
 (000.931964)  can0  18FE9A00   [8]  D5 27 FF FF FF FF FF FF
 (000.932654)  can0  18FEBF0B   [8]  00 00 7D 7D 7D 7D FF FF
 (000.933304)  can0  0CF00400   [8]  00 7D 83 B3 16 00 0F 83
 (000.933865)  can0  0C010305   [8]  FF FF FF FF FF F3 FF FF
 (000.936471)  can0  18FDB200   [8]  FF FF FF FF 01 00 FF FF
 (000.937061)  can0  18FCF200   [8]  E1 FF FF FF FF FF FF FF
 (000.939250)  can0  0CF00203   [8]  C0 00 00 FF F7 50 16 03
 (000.939336)  can0  0CF00C03   [8]  EF 03 FF 16 FF FF FF FF
 (000.942067)  can0  18FEDF00   [8]  84 A0 28 7D 7D FF FF F1
 (000.942469)  can0  18F00F00   [8]  FF FF FF FF FF FF FF FF
 (000.946433)  can0  0CF00300   [8]  D1 00 0A FF FF 0F 60 7E
 (000.947037)  can0  18F00131   [8]  FF FF FF 3F 00 FF FF FF
 (000.947623)  can0  18FEF100   [8]  FF 00 00 FC FF 68 00 CF
 (000.948185)  can0  18FEF131   [8]  F3 FF FF C3 CC FF FF F0
 (000.948762)  can0  18FEF031   [8]  FF FF FF FF FF FC CC FF
 (000.949304)  can0  0CF00203   [8]  C0 00 00 FF F7 50 16 03
 (000.950024)  can0  18FF4831   [8]  00 00 FF FF 00 00 00 00
 (000.950484)  can0  18FEF231   [8]  FF FF FF FF FF FF FF FF
 (000.951219)  can0  0CF00331   [8]  FF FF FF FF FF FF FF FF
 (000.953987)  can0  0CF00400   [8]  70 7D 82 C9 16 00 0F 83
 (000.956575)  can0  10FDA300   [8]  FF FF 15 FF FF FF FF FF
 (000.957034)  can0  18FE9900   [8]  FF FF FF FF FF FF FF FF
 (000.957608)  can0  18F00029   [8]  F0 7D 7D F3 29 FF FF 3C
 (000.959416)  can0  0CF00203   [8]  C0 00 00 FF F7 50 16 03
 (000.959425)  can0  0CF00C03   [8]  EE 03 E5 16 FF FF FF FF
 (000.961934)  can0  18FD8C00   [8]  FF FF 00 00 FF FF FF FF
 (000.962377)  can0  18FEDF00   [8]  84 A0 28 7D 7D FF FF F1
 (000.966463)  can0  18FCDC00   [8]  9F FF FF FF 50 68 00 00
 (000.967033)  can0  0CF00300   [8]  D1 00 0A FF FF 0F 61 7E
 (000.967619)  can0  1CFE9200   [8]  FF 3C 8F FF FF FF 00 00
 (000.968786)  can0  0CF00203   [8]  C0 00 00 FF F7 53 16 03
 (000.973305)  can0  0CF00400   [8]  60 7D 82 B6 16 00 0F 83
 (000.976421)  can0  0CF00A00   [8]  DB 02 1D 06 FF FF FF FF
 (000.977025)  can0  18FD9400   [8]  30 12 FF FF FF FF FF FF
 (000.977602)  can0  18FEFC00   [8]  FF FF FF FF FF FF FF FF
 (000.978202)  can0  18F00E00   [8]  CE 26 FF FF D5 9F FF FF
 (000.978743)  can0  0CF00203   [8]  C0 00 00 FF F7 53 16 03
 (000.979359)  can0  0CF00C03   [8]  E9 03 66 16 FF FF FF FF
 (000.982099)  can0  18FD2000   [8]  36 37 FF FF FF FF FF FF
 (000.982476)  can0  18F03300   [8]  FF FF FF FF FF FF FF FF
 (000.983029)  can0  18FEDF00   [8]  84 A0 28 7D 7D FF FF F1
 (000.984011)  can0  0C010305   [8]  FF FF FF FF FF F3 FF FF
 (000.986456)  can0  18FEE000   [8]  18 00 00 00 2E 96 35 00
 (000.987035)  can0  0CF00300   [8]  D1 00 0A FF FF 0F 61 7E
 (000.989171)  can0  0CF00203   [8]  C0 00 00 FF F7 5A 16 03
 (000.992019)  can0  18FEF200   [8]  0D 00 00 00 E1 06 E1 FF
 (000.992030)  can0  18F00F00   [8]  FF FF FF FF FF FF FF FF
 (000.993438)  can0  0CF00400   [8]  10 7D 83 A4 16 00 0F 83
 (000.996756)  can0  0CF00331   [8]  FF FF FF FF FF FF FF FF
 (000.998768)  can0  0CF00203   [8]  C0 00 00 FF F7 5A 16 03
 (000.999363)  can0  0CF00C03   [8]  EB 03 88 16 FF FF FF FF
 (000.999959)  can0  18F00503   [8]  7D 00 00 7D 4E 20 4E 43
 (001.000583)  can0  18FE4A03   [8]  03 1F 4F FF FF F3 FF FF
 (001.001933)  can0  18FEDF00   [8]  84 A0 28 7D 7D FF FF F1
 (001.002531)  can0  10FCFD00   [8]  FF FF FF FF 00 32 FF FF
 (001.006483)  can0  18FD3E00   [8]  E3 3E FF 16 3F FF FF FF
 (001.007056)  can0  0CF00300   [8]  D1 00 0B FF FF 0F 62 7E
 (001.008914)  can0  0CF00203   [8]  C0 00 00 FF F7 63 16 03
 (001.011444)  can0  18F00100   [8]  FF FF FF FF FF FF FF FF
 (001.013136)  can0  0CF00400   [8]  10 7D 83 96 16 00 0F 83
 (001.018965)  can0  0CF00203   [8]  C0 00 00 FF F7 63 16 03
 (001.019379)  can0  0CF00C03   [8]  EC 03 D2 16 FF FF FF FF
 (001.021910)  can0  18FEDF00   [8]  84 A0 28 7D 7D FF FF F1
 (001.023007)  can0  18F0010B   [8]  CF FF F0 FF FF CD FF FF
 (001.026738)  can0  18FD4000   [8]  FF 3F 00 FF FF FF FF FF
 (001.027068)  can0  0CF00300   [8]  D1 00 0B FF FF 0F 62 7E
 (001.027632)  can0  0CF00A00   [8]  DB 02 1D 06 FF FF FF FF
 (001.028255)  can0  18FEF000   [8]  FF FF FF A1 16 FF FF FF
 (001.028778)  can0  0CF00203   [8]  C0 00 00 FF F7 63 16 03
 (001.029330)  can0  18F00E00   [8]  CE 26 FF FF D5 9F FF FF
 (001.029955)  can0  1CECFF00   [8]  20 0E 00 02 FF CA FE 00
 (001.031418)  can0  18F03300   [8]  FF FF FF FF FF FF FF FF
 (001.032808)  can0  18FEBF0B   [8]  00 00 7D 7D 7D 7D FF FF
 (001.033411)  can0  0CF00400   [8]  30 7D 83 81 16 00 0F 83
 (001.034033)  can0  0C010305   [8]  FF FF FF FF FF F3 FF FF
 (001.037289)  can0  18FCF200   [8]  E1 FF FF FF FF FF FF FF
 (001.038963)  can0  0CF00203   [8]  C0 00 00 FF F7 63 16 03
 (001.039388)  can0  0CF00C03   [8]  E9 03 9A 16 FF FF FF FF
 (001.042034)  can0  18FEDF00   [8]  84 A0 28 7D 7D FF FF F1
 (001.042454)  can0  18F00F00   [8]  FF FF FF FF FF FF FF FF
 (001.046893)  can0  0CF00300   [8]  D1 00 0B FF FF 0F 62 7E
 (001.047011)  can0  18F00131   [8]  FF FF FF 3F 00 FF FF FF
 (001.047997)  can0  18FEF100   [8]  FF 00 00 FC FF 68 00 CF
 (001.048201)  can0  18FEF131   [8]  F3 FF FF C3 CC FF FF F0
 (001.048811)  can0  18FEF031   [8]  FF FF FF FF FF FC CC FF
 (001.049354)  can0  0CF00203   [8]  C0 00 00 FF F7 5D 16 03
 (001.049928)  can0  18FF4831   [8]  00 00 FF FF 00 00 00 00
 (001.050535)  can0  18FEF231   [8]  FF FF FF FF FF FF FF FF
 (001.051135)  can0  0CF00331   [8]  FF FF FF FF FF FF FF FF
 (001.051711)  can0  18FCC500   [8]  E3 3E FF FF FF FF FF FF
 (001.052308)  can0  0CFD9200   [8]  F4 FF FA FF FF FF FF FF
 (001.053460)  can0  0CF00400   [8]  30 7D 83 93 16 00 0F 83
 (001.056479)  can0  10FDA300   [8]  FF FF 14 FF FF FF FF FF
 (001.057068)  can0  18F00029   [8]  F0 7D 7D F3 29 FF FF 3C
 (001.059301)  can0  0CF00203   [8]  C0 00 00 FF F7 5D 16 03
 (001.059353)  can0  0CF00C03   [8]  EA 03 38 16 FF FF FF FF
 (001.061875)  can0  18FEDF00   [8]  84 A0 28 7D 7D FF FF F1
 (001.066477)  can0  18FCDC00   [8]  9F FF FF FF 50 68 00 00
 (001.066997)  can0  0CF00300   [8]  D1 00 0B FF FF 0F 63 7E
 (001.067566)  can0  1CFE9200   [8]  FF 6C 8E FF FF FF 00 00
 (001.068878)  can0  0CF00203   [8]  C0 00 00 FF F7 59 16 03
 (001.073148)  can0  0CF00400   [8]  20 7D 83 9F 16 00 0F 83
 (001.076443)  can0  0CF00A00   [8]  DB 02 0A 06 FF FF FF FF
 (001.076999)  can0  18FD9400   [8]  30 12 FF FF FF FF FF FF
 (001.077583)  can0  18FEEF00   [8]  FF FF FF 1E 3D 7D FF FA
 (001.078163)  can0  18F00E00   [8]  CE 26 FF FF D5 9F FF FF
 (001.078749)  can0  1CEBFF00   [8]  01 43 FF BF 00 09 08 54
 (001.079282)  can0  0CF00203   [8]  C0 00 00 FF F7 59 16 03
 (001.079902)  can0  0CF00C03   [8]  EC 03 B7 16 FF FF FF FF
 (001.082301)  can0  18F03300   [8]  FF FF FF FF FF FF FF FF
 (001.082456)  can0  18FEDF00   [8]  84 A0 28 7D 7D FF FF F1
 (001.084089)  can0  0C010305   [8]  FF FF FF FF FF F3 FF FF
 (001.086643)  can0  18FEE000   [8]  18 00 00 00 2E 96 35 00
 (001.087030)  can0  0CF00300   [8]  D1 00 0B FF FF 0F 62 7E
 (001.089189)  can0  0CF00203   [8]  C0 00 00 FF F7 57 16 03
 (001.091649)  can0  18FEF200   [8]  12 00 00 00 E1 06 E1 FF
 (001.092058)  can0  18F00F00   [8]  FF FF FF FF FF FF FF FF
 (001.093257)  can0  0CF00400   [8]  00 7D 83 AD 16 00 0F 83
 (001.096415)  can0  18FEDB00   [8]  FF FF 30 31 FF FF FF FF
 (001.096984)  can0  0CF00331   [8]  FF FF FF FF FF FF FF FF
 (001.098728)  can0  0CF00203   [8]  C0 00 00 FF F7 57 16 03
 (001.099319)  can0  0CF00C03   [8]  EB 03 F7 16 FF FF FF FF
 (001.099950)  can0  18F00503   [8]  7D 00 00 7D 4E 20 4E 43
 (001.100589)  can0  18FE4A03   [8]  03 1F 4F FF FF F3 FF FF
 (001.101977)  can0  18FEDF00   [8]  84 A0 28 7D 7D FF FF F1
 (001.102591)  can0  10FCFD00   [8]  FF FF FF FF 00 32 FF FF
 (001.106441)  can0  0CF00300   [8]  D1 00 0B FF FF 0F 61 7E
 (001.108787)  can0  0CF00203   [8]  C0 00 00 FF F7 57 16 03
 (001.111566)  can0  18F00100   [8]  FF FF FF FF FF FF FF FF
 (001.114065)  can0  0CF00400   [8]  00 7D 83 BD 16 00 0F 83
 (001.117285)  can0  18FEF600   [8]  FF 01 68 FF FF FF FF FF
 (001.118964)  can0  0CF00203   [8]  C0 00 00 FF F7 57 16 03
 (001.119383)  can0  0CF00C03   [8]  E9 03 A1 16 FF FF FF FF
 (001.122683)  can0  18FEDF00   [8]  84 A0 28 7D 7D FF FF F1
 (001.123056)  can0  18F0010B   [8]  CF FF F0 FF FF CD FF FF
 (001.126562)  can0  0CF00300   [8]  D1 00 0A FF FF 0F 61 7E
 (001.127142)  can0  0CF00A00   [8]  EE 02 0A 06 FF FF FF FF
 (001.127688)  can0  18FEF000   [8]  FF FF FF B0 16 FF FF FF
 (001.128260)  can0  18F00E00   [8]  CE 26 FF FF D5 9F FF FF
 (001.128794)  can0  0CF00203   [8]  C0 00 00 FF F7 55 16 03
 (001.131413)  can0  18F03300   [8]  FF FF FF FF FF FF FF FF
 (001.133128)  can0  18FEBF0B   [8]  00 00 7D 7D 7D 7D FF FF
 (001.133614)  can0  0CF00400   [8]  60 7D 82 BE 16 00 0F 83
 (001.134259)  can0  0C010305   [8]  FF FF FF FF FF F3 FF FF
 (001.134808)  can0  1CEBFF00   [8]  02 00 09 08 ED 14 1F 01
 (001.136499)  can0  18FCF200   [8]  E1 FF FF FF FF FF FF FF
 (001.139582)  can0  0CF00203   [8]  C0 00 00 FF F7 55 16 03
 (001.139593)  can0  0CF00C03   [8]  EC 03 71 16 FF FF FF FF
 (001.142437)  can0  18FEDF00   [8]  84 A0 28 7D 7D FF FF F1
 (001.142447)  can0  18FDC600   [8]  FC 04 FF FF FF FF FF FF
 (001.143097)  can0  18F00F00   [8]  FF FF FF FF FF FF FF FF
 (001.146877)  can0  0CF00300   [8]  D1 00 0A FF FF 0F 62 7E
 (001.146981)  can0  18F00131   [8]  FF FF FF 3F 00 FF FF FF
 (001.147648)  can0  18FEF100   [8]  FF 00 00 FC FF 68 00 CF
 (001.148167)  can0  18FEF131   [8]  F3 FF FF C3 CC FF FF F0
 (001.148922)  can0  18FEF031   [8]  FF FF FF FF FF FC CC FF
 (001.149336)  can0  0CF00203   [8]  C0 00 00 FF F7 5C 16 03
 (001.149962)  can0  18FF4831   [8]  00 00 FF FF 00 00 00 00
 (001.150532)  can0  18FEF231   [8]  FF FF FF FF FF FF FF FF
 (001.151165)  can0  0CF00331   [8]  FF FF FF FF FF FF FF FF
 (001.153967)  can0  0CF00400   [8]  70 7D 82 AF 16 00 0F 83
 (001.156515)  can0  10FDA300   [8]  FF FF 14 FF FF FF FF FF
 (001.157039)  can0  18F00029   [8]  F0 7D 7D F3 29 FF FF 3C
 (001.158783)  can0  0CF00203   [8]  C0 00 00 FF F7 5C 16 03
 (001.159406)  can0  0CF00C03   [8]  EF 03 D2 16 FF FF FF FF
 (001.161816)  can0  18FEDF00   [8]  84 A0 28 7D 7D FF FF F1
 (001.162385)  can0  1CECFF00   [8]  20 22 00 05 FF E3 FE 00
 (001.166538)  can0  18FCDC00   [8]  9F FF FF FF 50 68 00 00
 (001.167106)  can0  0CF00300   [8]  D1 00 0A FF FF 0F 62 7E
 (001.167675)  can0  1CFE9200   [8]  FF 44 8E FF FF FF 00 00
 (001.169406)  can0  0CF00203   [8]  C0 00 00 FF F7 61 16 03
 (001.173150)  can0  0CF00400   [8]  00 7D 83 A2 16 00 0F 83
 (001.177227)  can0  0CF00A00   [8]  EE 02 01 06 FF FF FF FF
 (001.177238)  can0  18FD9400   [8]  30 12 FF FF FF FF FF FF
 (001.177624)  can0  18F00E00   [8]  CE 26 FF FF D5 9F FF FF
 (001.179294)  can0  0CF00203   [8]  C0 00 00 FF F7 61 16 03
 (001.179353)  can0  0CF00C03   [8]  EA 03 C4 16 FF FF FF FF
 (001.182718)  can0  18F03300   [8]  FF FF FF FF FF FF FF FF
 (001.182728)  can0  18FEDF00   [8]  84 A0 28 7D 7D FF FF F1
 (001.183985)  can0  0C010305   [8]  FF FF FF FF FF F3 FF FF
 (001.187136)  can0  18FEE000   [8]  18 00 00 00 2E 96 35 00
 (001.187148)  can0  0CF00300   [8]  D1 00 0A FF FF 0F 61 7E
 (001.188818)  can0  0CF00203   [8]  C0 00 00 FF F7 64 16 03
 (001.191509)  can0  18FEF200   [8]  12 00 00 00 E1 06 E1 FF
 (001.192106)  can0  18F00F00   [8]  FF FF FF FF FF FF FF FF
 (001.193281)  can0  0CF00400   [8]  20 7D 83 8B 16 00 0F 83
 (001.196745)  can0  0CF00331   [8]  FF FF FF FF FF FF FF FF
 (001.198786)  can0  0CF00203   [8]  C0 00 00 FF F7 64 16 03
 (001.199409)  can0  0CF00C03   [8]  EA 03 50 16 FF FF FF FF
 (001.199969)  can0  18F00503   [8]  7D 00 00 7D 4E 20 4E 43
 (001.201012)  can0  18FE4A03   [8]  03 1F 4F FF FF F3 FF FF
 (001.202627)  can0  18FEDF00   [8]  84 A0 28 7D 7D FF FF F1
 (001.202638)  can0  10FCFD00   [8]  FF FF FF FF 00 32 FF FF
 (001.206466)  can0  0CF00300   [8]  D1 00 0B FF FF 0F 61 7E
 (001.209168)  can0  0CF00203   [8]  C0 00 00 FF F7 5E 16 03
 (001.211669)  can0  18F00100   [8]  FF FF FF FF FF FF FF FF
 (001.213356)  can0  0CF00400   [8]  20 7D 83 98 16 00 0F 83
 (001.213774)  can0  1CEBFF00   [8]  01 A8 16 B1 40 51 C2 E8
 (001.218959)  can0  0CF00203   [8]  C0 00 00 FF F7 5E 16 03
 (001.219374)  can0  0CF00C03   [8]  EB 03 97 16 FF FF FF FF
 (001.221940)  can0  18FEDF00   [8]  84 A0 28 7D 7D FF FF F1
 (001.223257)  can0  18F0010B   [8]  CF FF F0 FF FF CD FF FF
 (001.226486)  can0  0CF00300   [8]  D1 00 0B FF FF 0F 62 7E
 (001.227059)  can0  0CF00A00   [8]  EE 02 EE 05 FF FF FF FF
 (001.227630)  can0  18FEF000   [8]  FF FF FF 90 16 FF FF FF
 (001.228202)  can0  18F00E00   [8]  CE 26 FF FF D5 9F FF FF
 (001.228764)  can0  0CF00203   [8]  C0 00 00 FF F7 5F 16 03
 (001.231510)  can0  18F03300   [8]  FF FF FF FF FF FF FF FF
 (001.234060)  can0  0CF00400   [8]  00 7D 83 A5 16 00 0F 83
 (001.234071)  can0  18FEBF0B   [8]  00 00 7D 7D 7D 7D FF FF
 (001.234407)  can0  0C010305   [8]  FF FF FF FF FF F3 FF FF
 (001.236494)  can0  18FCF200   [8]  E1 FF FF FF FF FF FF FF
 (001.238800)  can0  0CF00203   [8]  C0 00 00 FF F7 5F 16 03
 (001.239408)  can0  0CF00C03   [8]  ED 03 E3 16 FF FF FF FF
 (001.241881)  can0  18FEDF00   [8]  84 A0 28 7D 7D FF FF F1
 (001.242483)  can0  18F00F00   [8]  FF FF FF FF FF FF FF FF
 (001.246843)  can0  0CF00300   [8]  D1 00 0A FF FF 0F 62 7E
 (001.247090)  can0  18F00131   [8]  FF FF FF 3F 00 FF FF FF
 (001.247695)  can0  18FEF100   [8]  FF 00 00 FC FF 68 00 CF
 (001.248259)  can0  18FEF131   [8]  F3 FF FF C3 CC FF FF F0
 (001.248807)  can0  18FEF031   [8]  FF FF FF FF FF FC CC FF
 (001.249386)  can0  0CF00203   [8]  C0 00 00 FF F7 5C 16 03
 (001.249979)  can0  18FF4831   [8]  00 00 FF FF 00 00 00 00
 (001.250594)  can0  18FEF231   [8]  FF FF FF FF FF FF FF FF
 (001.251205)  can0  0CF00331   [8]  FF FF FF FF FF FF FF FF
 (001.253766)  can0  0CF00400   [8]  70 7D 82 B9 16 00 0F 83
 (001.256524)  can0  10FDA300   [8]  FF FF 14 FF FF FF FF FF
 (001.257069)  can0  18F00029   [8]  F0 7D 7D F3 29 FF FF 3C
 (001.258746)  can0  0CF00203   [8]  C0 00 00 FF F7 5C 16 03
 (001.259370)  can0  0CF00C03   [8]  E9 03 B2 16 FF FF FF FF
 (001.261885)  can0  18FEDF00   [8]  84 A0 28 7D 7D FF FF F1
 (001.267072)  can0  18FCDC00   [8]  9F FF FF FF 50 68 00 00
 (001.267115)  can0  0CF00300   [8]  D1 00 0A FF FF 0F 61 7E
 (001.267653)  can0  1CFE9200   [8]  FF AC 8D FF FF FF 00 00
 (001.268756)  can0  0CF00203   [8]  C0 00 00 FF F7 5B 16 03
 (001.269330)  can0  1CEBFF00   [8]  02 1C B9 60 22 C6 C0 44
 (001.273241)  can0  0CF00400   [8]  50 7D 82 C5 16 00 0F 83
 (001.276562)  can0  0CF00A00   [8]  0A 03 0A 06 FF FF FF FF
 (001.277045)  can0  18FD9400   [8]  30 12 FF FF FF FF FF FF
 (001.277606)  can0  18F00E00   [8]  C2 26 FF FF D5 9F FF FF
 (001.279157)  can0  0CF00203   [8]  C0 00 00 FF F7 5B 16 03
 (001.279356)  can0  0CF00C03   [8]  E9 03 8E 16 FF FF FF FF
 (001.282747)  can0  18F03300   [8]  FF FF FF FF FF FF FF FF
 (001.282759)  can0  18FEDF00   [8]  84 A0 28 7D 7D FF FF F1
 (001.283979)  can0  0C010305   [8]  FF FF FF FF FF F3 FF FF
 (001.286541)  can0  18FEE000   [8]  18 00 00 00 2E 96 35 00
 (001.287094)  can0  0CF00300   [8]  D1 00 0A FF FF 0F 60 7E
 (001.288761)  can0  0CF00203   [8]  C0 00 00 FF F7 5E 16 03
 (001.291481)  can0  18FEF200   [8]  0D 00 00 00 E2 06 E1 FF
 (001.292079)  can0  18F00F00   [8]  FF FF FF FF FF FF FF FF
 (001.293237)  can0  0CF00400   [8]  40 7D 82 CB 16 00 0F 83
 (001.296759)  can0  0CF00331   [8]  FF FF FF FF FF FF FF FF
 (001.299587)  can0  0CF00203   [8]  C0 00 00 FF F7 5E 16 03
 (001.299597)  can0  0CF00C03   [8]  F0 03 DE 16 FF FF FF FF
 (001.299989)  can0  18F00503   [8]  7D 00 00 7D 4E 20 4E 43
 (001.300608)  can0  18FE4A03   [8]  03 1F 4F FF FF F3 FF FF
 (001.302008)  can0  18FEDF00   [8]  84 A0 28 7D 7D FF FF F1
 (001.302643)  can0  10FCFD00   [8]  FF FF FF FF 00 32 FF FF
 (001.303190)  can0  0CFD9200   [8]  F4 FF FA FF FF FF FF FF
 (001.306443)  can0  0CF00300   [8]  D1 00 0A FF FF 0F 60 7E
 (001.309252)  can0  0CF00203   [8]  C0 00 00 FF F7 67 16 03
 (001.311747)  can0  18F00100   [8]  FF FF FF FF FF FF FF FF
 (001.313889)  can0  0CF00400   [8]  60 7D 82 B7 16 00 0F 83
 (001.318955)  can0  0CF00203   [8]  C0 00 00 FF F7 67 16 03
 (001.319374)  can0  0CF00C03   [8]  EE 03 DB 16 FF FF FF FF
 (001.321959)  can0  18FEDF00   [8]  84 A0 28 7D 7D FF FF F1
 (001.323440)  can0  18F0010B   [8]  CF FF F0 FF FF CD FF FF
 (001.324431)  can0  1CEBFF00   [8]  03 CB 40 51 FF FF 55 04
 (001.326560)  can0  0CF00300   [8]  D1 00 0A FF FF 0F 60 7E
 (001.327087)  can0  0CF00A00   [8]  13 03 DC 05 FF FF FF FF
 (001.327660)  can0  18FEF000   [8]  FF FF FF C1 16 FF FF FF
 (001.328233)  can0  18F00E00   [8]  C2 26 FF FF D5 9F FF FF
 (001.328814)  can0  0CF00203   [8]  C0 00 00 FF F7 6B 16 03
 (001.331460)  can0  18F03300   [8]  FF FF FF FF FF FF FF FF
 (001.333262)  can0  0CF00400   [8]  70 7D 82 AB 16 00 0F 83
 (001.333856)  can0  18FEBF0B   [8]  00 00 7D 7D 7D 7D FF FF
 (001.334445)  can0  0C010305   [8]  FF FF FF FF FF F3 FF FF
 (001.336622)  can0  18FCF200   [8]  E1 FF FF FF FF FF FF FF
 (001.339047)  can0  0CF00203   [8]  C0 00 00 FF F7 6B 16 03
 (001.339374)  can0  0CF00C03   [8]  E9 03 79 16 FF FF FF FF
 (001.342373)  can0  18FEDF00   [8]  84 A0 28 7D 7D FF FF F1
 (001.342547)  can0  18F00F00   [8]  FF FF FF FF FF FF FF FF
 (001.346969)  can0  18FD0700   [8]  43 0C FC FF FF FF FF FF
 (001.347026)  can0  18F00131   [8]  FF FF FF 3F 00 FF FF FF
 (001.347635)  can0  0CF00300   [8]  D1 00 0A FF FF 0F 60 7E
 (001.348199)  can0  18FEF131   [8]  F3 FF FF C3 CC FF FF F0
 (001.348780)  can0  18FEF100   [8]  FF 00 00 FC FF 68 00 CF
 (001.349360)  can0  0CF00203   [8]  C0 00 00 FF F7 6F 16 03
 (001.349929)  can0  18FEF031   [8]  FF FF FF FF FF FC CC FF
 (001.350564)  can0  18FF4831   [8]  00 00 FF FF 00 00 00 00
 (001.351126)  can0  18FEF231   [8]  FF FF FF FF FF FF FF FF
 (001.351742)  can0  0CF00331   [8]  FF FF FF FF FF FF FF FF
 (001.353383)  can0  0CF00400   [8]  00 7D 83 95 16 00 0F 83
 (001.356529)  can0  10FDA300   [8]  FF FF 14 FF FF FF FF FF
 (001.357118)  can0  18F00029   [8]  F0 7D 7D F3 29 FF FF 3C
 (001.358793)  can0  0CF00203   [8]  C0 00 00 FF F7 6F 16 03
 (001.359418)  can0  0CF00C03   [8]  E9 03 66 16 FF FF FF FF
 (001.361836)  can0  18FEDF00   [8]  84 A0 28 7D 7D FF FF F1
 (001.366563)  can0  18FCDC00   [8]  9F FF FF FF 50 68 00 00
 (001.367125)  can0  0CF00300   [8]  D1 00 0B FF FF 0F 60 7E
 (001.367996)  can0  1CFE9200   [8]  FF D8 8D FF FF FF 00 00
 (001.369587)  can0  0CF00203   [8]  C0 00 00 FF F7 6E 16 03
 (001.373235)  can0  0CF00400   [8]  20 7D 83 94 16 00 0F 83
 (001.376571)  can0  14FC9800   [8]  FF 00 00 00 00 00 00 FF
 (001.377059)  can0  0CF00A00   [8]  13 03 E5 05 FF FF FF FF
 (001.377633)  can0  18FD9400   [8]  30 12 FF FF FF FF FF FF
 (001.378181)  can0  18F00E00   [8]  C2 26 FF FF D5 9F FF FF
 (001.378755)  can0  1CEBFF00   [8]  04 38 5E 14 46 FA 7D C6
 (001.379307)  can0  0CF00203   [8]  C0 00 00 FF F7 6E 16 03
 (001.379934)  can0  0CF00C03   [8]  EC 03 E0 16 FF FF FF FF
 (001.382340)  can0  18F03300   [8]  FF FF FF FF FF FF FF FF
 (001.382426)  can0  18FEDF00   [8]  84 A0 28 7D 7D FF FF F1
 (001.384006)  can0  0C010305   [8]  FF FF FF FF FF F3 FF FF
 (001.386502)  can0  18FEE000   [8]  18 00 00 00 2E 96 35 00
 (001.387072)  can0  0CF00300   [8]  D1 00 0B FF FF 0F 61 7E
 (001.388748)  can0  0CF00203   [8]  C0 00 00 FF F7 68 16 03
 (001.391544)  can0  18FDB400   [8]  36 37 AC 38 FF FF FF FF
 (001.392094)  can0  18FEF200   [8]  12 00 00 00 E1 06 E1 FF
 (001.392731)  can0  18F00F00   [8]  FF FF FF FF FF FF FF FF
 (001.393285)  can0  0CF00400   [8]  00 7D 83 AA 16 00 0F 83
 (001.396785)  can0  0CF00331   [8]  FF FF FF FF FF FF FF FF
 (001.399403)  can0  0CF00203   [8]  C0 00 00 FF F7 68 16 03
 (001.399412)  can0  0CF00C03   [8]  E9 03 CD 16 FF FF FF FF
 (001.399981)  can0  18F00503   [8]  7D 00 00 7D 4E 20 4E 43
 (001.401363)  can0  18FE4A03   [8]  03 1F 4F FF FF F3 FF FF
 (001.402840)  can0  18FEDF00   [8]  84 A0 28 7D 7D FF FF F1
 (001.402850)  can0  10FCFD00   [8]  FF FF FF FF 00 32 FF FF
 (001.406489)  can0  0CF00300   [8]  D1 00 0A FF FF 0F 62 7E
 (001.409497)  can0  0CF00203   [8]  C0 00 00 FF F7 60 16 03
 (001.411974)  can0  18F00100   [8]  FF FF FF FF FF FF FF FF
 (001.413327)  can0  0CF00400   [8]  70 7D 82 B8 16 00 0F 83
 (001.416892)  can0  18FDB300   [8]  FF FF C9 3D FF FF FF FF
 (001.418785)  can0  0CF00203   [8]  C0 00 00 FF F7 60 16 03
 (001.419382)  can0  0CF00C03   [8]  EA 03 79 16 FF FF FF FF
 (001.421940)  can0  18FEDF00   [8]  84 A0 28 7D 7D FF FF F1
 (001.423708)  can0  18F0010B   [8]  CF FF F0 FF FF CD FF FF
 (001.426534)  can0  0CF00300   [8]  D1 00 0A FF FF 0F 60 7E
 (001.427083)  can0  0CF00A00   [8]  13 03 E5 05 FF FF FF FF
 (001.427656)  can0  18FEF000   [8]  FF FF FF B1 16 FF FF FF
 (001.428237)  can0  18F00E00   [8]  C2 26 FF FF D5 9F FF FF
 (001.428851)  can0  0CF00203   [8]  C0 00 00 FF F7 62 16 03
 (001.431993)  can0  18F03300   [8]  FF FF FF FF FF FF FF FF
 (001.433254)  can0  0CF00400   [8]  50 7D 82 C5 16 00 0F 83
 (001.433803)  can0  18FEBF0B   [8]  00 00 7D 7D 7D 7D FF FF
 (001.434406)  can0  0C010305   [8]  FF FF FF FF FF F3 FF FF
 (001.434978)  can0  1CEBFF00   [8]  05 40 51 86 00 F7 02 FF
 (001.437375)  can0  18FDB200   [8]  FF FF FF FF 01 00 FF FF
 (001.437384)  can0  18FCF200   [8]  E1 FF FF FF FF FF FF FF
 (001.438925)  can0  0CF00203   [8]  C0 00 00 FF F7 62 16 03
 (001.439349)  can0  0CF00C03   [8]  EC 03 D1 16 FF FF FF FF
 (001.442318)  can0  18FEDF00   [8]  84 A0 28 7D 7D FF FF F1
 (001.442446)  can0  18F00F00   [8]  FF FF FF FF FF FF FF FF
 (001.446805)  can0  0CF00300   [8]  D1 00 0A FF FF 0F 5F 7E
 (001.447104)  can0  18F00131   [8]  FF FF FF 3F 00 FF FF FF
 (001.447981)  can0  18FEF100   [8]  FF 00 00 FC FF 68 00 CF
 (001.448233)  can0  18E0FF31   [8]  00 FF FF FF FF F0 FF FF
 (001.449518)  can0  0CF00203   [8]  C0 00 00 FF F7 64 16 03
 (001.449527)  can0  18FEF131   [8]  F3 FF FF C3 CC FF FF F0
 (001.450000)  can0  18FEF031   [8]  FF FF FF FF FF FC CC FF
 (001.450558)  can0  18FEFC31   [8]  FF 78 FF FF FF FF 00 FF
 (001.451152)  can0  18FEAE31   [8]  FF FF 5C 5C FF FF FF FF
 (001.451729)  can0  18FEF731   [8]  FF FF FF FF 1A 01 FF FF
 (001.452329)  can0  18FF4831   [8]  00 00 FF FF 00 00 00 00
 (001.452928)  can0  18FD8331   [8]  F8 FF FF FF FF FF FF FF
 (001.453471)  can0  0CF00400   [8]  30 7D 82 D5 16 00 0F 82
 (001.454086)  can0  18FEF831   [8]  FF FF FF FF FF FF FF FF
 (001.454644)  can0  18FEF231   [8]  FF FF FF FF FF FF FF FF
 (001.455211)  can0  18FEFA31   [8]  FF B8 B9 FF FF FF FF FF
 (001.455805)  can0  18FEC131   [8]  9D 44 67 06 FF FF FF FF
 (001.456434)  can0  0CF00331   [8]  FF FF FF FF FF FF FF FF
 (001.457036)  can0  10FDA300   [8]  FF FF 15 FF FF FF FF FF
 (001.457617)  can0  18F00029   [8]  F0 7D 7D F3 29 FF FF 3C
 (001.458927)  can0  0CF00203   [8]  C0 00 00 FF F7 64 16 03
 (001.459400)  can0  0CF00C03   [8]  EF 03 09 17 FF FF FF FF
 (001.461960)  can0  18FD8C00   [8]  FF FF 00 00 FF FF FF FF
 (001.462517)  can0  18FEDF00   [8]  84 A0 28 7D 7D FF FF F1
 (001.466549)  can0  18FCDC00   [8]  9F FF FF FF 50 68 00 00
 (001.467880)  can0  0CF00300   [8]  D1 00 09 FF FF 0F 60 7E
 (001.467888)  can0  1CFE9200   [8]  FF 04 8E FF FF FF 00 00
 (001.469346)  can0  0CF00203   [8]  C0 00 00 FF F7 68 16 03
 (001.473173)  can0  0CF00400   [8]  40 7D 82 C0 16 00 0F 82
 (001.477368)  can0  0CF00A00   [8]  00 03 F8 05 FF FF FF FF
 (001.477380)  can0  18FD9400   [8]  30 12 FF FF FF FF FF FF
 (001.477680)  can0  18F00E00   [8]  C2 26 FF FF D5 9F FF FF
 (001.479061)  can0  0CF00203   [8]  C0 00 00 FF F7 68 16 03
 (001.479382)  can0  0CF00C03   [8]  EA 03 B5 16 FF FF FF FF
 (001.481941)  can0  18FD2000   [8]  36 37 FF FF FF FF FF FF
 (001.482531)  can0  18F03300   [8]  FF FF FF FF FF FF FF FF
 (001.483099)  can0  18FEDF00   [8]  84 A0 28 7D 7D FF FF F1
 (001.483931)  can0  0C010305   [8]  FF FF FF FF FF F3 FF FF
 (001.486496)  can0  18FEE000   [8]  18 00 00 00 2E 96 35 00
 (001.487060)  can0  0CF00300   [8]  D1 00 0A FF FF 0F 60 7E
 (001.488747)  can0  0CF00203   [8]  C0 00 00 FF F7 6E 16 03
 (001.491730)  can0  18FEF200   [8]  11 00 00 00 E1 06 E1 FF
 (001.492140)  can0  18F00F00   [8]  FF FF FF FF FF FF FF FF
 (001.493262)  can0  0CF00400   [8]  60 7D 82 AF 16 00 0F 83
 (001.496768)  can0  0CF00331   [8]  FF FF FF FF FF FF FF FF
 (001.498945)  can0  0CF00203   [8]  C0 00 00 FF F7 6E 16 03
 (001.499376)  can0  0CF00C03   [8]  E9 03 56 16 FF FF FF FF
 (001.499977)  can0  18F00503   [8]  7D 00 00 7D 4E 20 4E 43
 (001.500747)  can0  18FE4A03   [8]  03 1F 4F FF FF F3 FF FF
 (001.501257)  can0  18FD9503   [8]  CC FF FF AF FF FF FF FF
 (001.501849)  can0  18FEF803   [8]  FF FF FF FF 2F 2C FF FF
 (001.502440)  can0  18FEDF00   [8]  84 A0 28 7D 7D FF FF F1
 (001.503074)  can0  10FCFD00   [8]  FF FF FF FF 00 32 FF FF
 (001.506560)  can0  18FD3E00   [8]  E0 3E FF 13 3F FF FF FF
 (001.507177)  can0  0CF00300   [8]  D1 00 0A FF FF 0F 60 7E
 (001.508769)  can0  0CF00203   [8]  C0 00 00 FF F7 75 16 03
 (001.512130)  can0  18F00100   [8]  FF FF FF FF FF FF FF FF
 (001.513766)  can0  0CF00400   [8]  70 7D 82 A0 16 00 0F 83
 (001.518791)  can0  0CF00203   [8]  C0 00 00 FF F7 75 16 03
 (001.519311)  can0  0CF00C03   [8]  EC 03 B7 16 FF FF FF FF
 (001.521961)  can0  18FEDF00   [8]  84 A0 28 7D 7D FF FF F1
 (001.523978)  can0  18F0010B   [8]  CF FF F0 FF FF CD FF FF
 (001.526555)  can0  18FD4000   [8]  FF 3F 00 FF FF FF FF FF
 (001.527114)  can0  0CF00300   [8]  D1 00 0A FF FF 0F 60 7E
 (001.527713)  can0  0CF00A00   [8]  00 03 01 06 FF FF FF FF
 (001.528278)  can0  18FEF000   [8]  FF FF FF AA 16 FF FF FF
 (001.528860)  can0  0CF00203   [8]  C0 00 00 FF F7 74 16 03
 (001.529460)  can0  18F00E00   [8]  B6 26 FF FF D5 9F FF FF
 (001.529982)  can0  18FECA03   [8]  00 FF 00 00 00 00 FF FF
 (001.531992)  can0  18F03300   [8]  FF FF FF FF FF FF FF FF
 (001.533566)  can0  0CF00400   [8]  20 7D 83 91 16 00 0F 83
 (001.533921)  can0  0C010305   [8]  FF FF FF FF FF F3 FF FF
 (001.534538)  can0  18FEBF0B   [8]  00 00 7D 7D 7D 7D FF FF
 (001.536529)  can0  18FCF200   [8]  E1 FF FF FF FF FF FF FF
 (001.539462)  can0  0CF00203   [8]  C0 00 00 FF F7 74 16 03
 (001.539474)  can0  0CF00C03   [8]  E9 03 BD 16 FF FF FF FF
 (001.542467)  can0  18FEDF00   [8]  84 A0 28 7D 7D FF FF F1
 (001.542540)  can0  18F00F00   [8]  FF FF FF FF FF FF FF FF
 (001.546926)  can0  0CF00300   [8]  D1 00 0B FF FF 0F 61 7E
 (001.547033)  can0  18F00131   [8]  FF FF FF 3F 00 FF FF FF
 (001.547682)  can0  18FEF100   [8]  FF 00 00 FC FF 68 00 CF
 (001.548256)  can0  18FEF131   [8]  F3 FF FF C3 CC FF FF F0
 (001.548827)  can0  18FEF031   [8]  FF FF FF FF FF FC CC FF
 (001.549384)  can0  0CF00203   [8]  C0 00 00 FF F7 6C 16 03
 (001.549979)  can0  18FF4831   [8]  00 00 FF FF 00 00 00 00
 (001.550579)  can0  18FEF231   [8]  FF FF FF FF FF FF FF FF
 (001.551172)  can0  0CF00331   [8]  FF FF FF FF FF FF FF FF
 (001.551753)  can0  18FCC500   [8]  E0 3E FF FF FF FF FF FF
 (001.552322)  can0  0CFD9200   [8]  F4 FF FA FF FF FF FF FF
 (001.553410)  can0  0CF00400   [8]  00 7D 83 A3 16 00 0F 83
 (001.556708)  can0  10FDA300   [8]  FF FF 14 FF FF FF FF FF
 (001.557155)  can0  18F00029   [8]  F0 7D 7D F3 29 FF FF 3C
 (001.558821)  can0  0CF00203   [8]  C0 00 00 FF F7 6C 16 03
 (001.559415)  can0  0CF00C03   [8]  EA 03 78 16 FF FF FF FF
 (001.561932)  can0  18FEDF00   [8]  84 A0 28 7D 7D FF FF F1
 (001.566858)  can0  18FCDC00   [8]  9F FF FF FF 50 68 00 00
 (001.567066)  can0  0CF00300   [8]  D1 00 0B FF FF 0F 62 7E
 (001.568026)  can0  1CFE9200   [8]  FF 68 8D FF FF FF 00 00
 (001.568757)  can0  0CF00203   [8]  C0 00 00 FF F7 66 16 03
 (001.573219)  can0  0CF00400   [8]  70 7D 82 B0 16 00 0F 83
 (001.577337)  can0  0CF00A00   [8]  00 03 DC 05 FF FF FF FF
 (001.577348)  can0  18FD9400   [8]  30 12 FF FF FF FF FF FF
 (001.577655)  can0  18FEEF00   [8]  FF FF FF 1E 40 7D FF FA
 (001.578270)  can0  18F00E00   [8]  B6 26 FF FF D5 9F FF FF
 (001.578807)  can0  0CF00203   [8]  C0 00 00 FF F7 66 16 03
 (001.579382)  can0  0CF00C03   [8]  E9 03 8A 16 FF FF FF FF
 (001.581955)  can0  18F03300   [8]  FF FF FF FF FF FF FF FF
 (001.582538)  can0  18FEDF00   [8]  84 A0 28 7D 7D FF FF F1
 (001.583941)  can0  0C010305   [8]  FF FF FF FF FF F3 FF FF
 (001.586543)  can0  18FEE000   [8]  18 00 00 00 2E 96 35 00
 (001.587108)  can0  18FECA31   [8]  00 FF 00 00 00 00 FF FF
 (001.587645)  can0  0CF00300   [8]  D1 00 0A FF FF 0F 61 7E
 (001.589395)  can0  0CF00203   [8]  C0 00 00 FF F7 63 16 03
 (001.591701)  can0  18FEF200   [8]  0C 00 00 00 E1 06 E1 FF
 (001.592097)  can0  18F00F00   [8]  FF FF FF FF FF FF FF FF
 (001.593298)  can0  0CF00400   [8]  60 7D 82 BD 16 00 0F 83
 (001.596450)  can0  18FEDB00   [8]  FF FF C4 31 FF FF FF FF
 (001.597042)  can0  0CF00331   [8]  FF FF FF FF FF FF FF FF
 (001.598707)  can0  0CF00203   [8]  C0 00 00 FF F7 63 16 03
 (001.599318)  can0  0CF00C03   [8]  ED 03 FE 16 FF FF FF FF
 (001.599930)  can0  18F00503   [8]  7D 00 00 7D 4E 20 4E 43
 (001.600545)  can0  18FE4A03   [8]  03 1F 4F FF FF F3 FF FF
 (001.601996)  can0  18FEDF00   [8]  84 A0 28 7D 7D FF FF F1
 (001.602658)  can0  10FCFD00   [8]  FF FF FF FF 00 32 FF FF
 (001.606485)  can0  0CF00300   [8]  D1 00 0A FF FF 0F 60 7E
 (001.608812)  can0  0CF00203   [8]  C0 00 00 FF F7 65 16 03
 (001.610927)  can0  18F11031   [8]  00 00 FF FF FF FF FF FF
 (001.611551)  can0  18F00100   [8]  FF FF FF FF FF FF FF FF
 (001.613273)  can0  0CF00400   [8]  50 7D 82 CF 16 00 0F 83
 (001.616536)  can0  18FEF600   [8]  FF 01 68 FF FF FF FF FF
 (001.618933)  can0  0CF00203   [8]  C0 00 00 FF F7 65 16 03
 (001.619372)  can0  0CF00C03   [8]  EA 03 EB 16 FF FF FF FF
 (001.622156)  can0  18FEDF00   [8]  84 A0 28 7D 7D FF FF F1
 (001.624126)  can0  18F0010B   [8]  CF FF F0 FF FF CD FF FF
 (001.626566)  can0  0CF00300   [8]  D1 00 0A FF FF 0F 60 7E
 (001.627130)  can0  0CF00A00   [8]  00 03 01 06 FF FF FF FF
 (001.627764)  can0  18FEF000   [8]  FF FF FF C2 16 FF FF FF
 (001.628311)  can0  18F00E00   [8]  B6 26 FF FF D5 9F FF FF
 (001.628904)  can0  0CF00203   [8]  C0 00 00 FF F7 64 16 03
 (001.631568)  can0  18F03300   [8]  FF FF FF FF FF FF FF FF
 (001.633437)  can0  0CF00400   [8]  40 7D 82 C8 16 00 0F 82
 (001.633913)  can0  0C010305   [8]  FF FF FF FF FF F3 FF FF
 (001.634558)  can0  18FEBF0B   [8]  00 00 7D 7D 7D 7D FF FF
 (001.636571)  can0  18FCF200   [8]  E1 FF FF FF FF FF FF FF
 (001.638742)  can0  0CF00203   [8]  C0 00 00 FF F7 64 16 03
 (001.639408)  can0  0CF00C03   [8]  E9 03 81 16 FF FF FF FF
 (001.642174)  can0  18FEDF00   [8]  84 A0 28 7D 7D FF FF F1
 (001.642556)  can0  18FDC600   [8]  FC 04 FF FF FF FF FF FF
 (001.643211)  can0  18F00F00   [8]  FF FF FF FF FF FF FF FF
 (001.646486)  can0  0CF00300   [8]  D1 00 0A FF FF 0F 61 7E
 (001.647118)  can0  18F00131   [8]  FF FF FF 3F 00 FF FF FF
 (001.647645)  can0  18FEF100   [8]  FF 00 00 FC FF 68 00 CF
 (001.648247)  can0  18FEF131   [8]  F3 FF FF C3 CC FF FF F0
 (001.648827)  can0  18FEF031   [8]  FF FF FF FF FF FC CC FF
 (001.649382)  can0  0CF00203   [8]  C0 00 00 FF F7 6A 16 03
 (001.650018)  can0  18FF4831   [8]  00 00 FF FF 00 00 00 00
 (001.650601)  can0  18FEF231   [8]  FF FF FF FF FF FF FF FF
 (001.651214)  can0  0CF00331   [8]  FF FF FF FF FF FF FF FF
 (001.653644)  can0  0CF00400   [8]  60 7D 82 B6 16 00 0F 83
 (001.656520)  can0  10FDA300   [8]  FF FF 15 FF FF FF FF FF
 (001.657104)  can0  18F00029   [8]  F0 7D 7D F3 29 FF FF 3C
 (001.658889)  can0  0CF00203   [8]  C0 00 00 FF F7 6A 16 03
 (001.659337)  can0  0CF00C03   [8]  EE 03 B3 16 FF FF FF FF
 (001.661943)  can0  18FEDF00   [8]  84 A0 28 7D 7D FF FF F1
 (001.666817)  can0  18FCDC00   [8]  9F FF FF FF 50 68 00 00
 (001.667164)  can0  0CF00300   [8]  D1 00 0A FF FF 0F 61 7E
 (001.667831)  can0  1CFE9200   [8]  FF E4 8D FF FF FF 00 00
 (001.668755)  can0  0CF00203   [8]  C0 00 00 FF F7 71 16 03
 (001.673275)  can0  0CF00400   [8]  70 7D 82 A5 16 00 0F 83
 (001.676507)  can0  0CF00A00   [8]  00 03 F8 05 FF FF FF FF
 (001.677057)  can0  18FD9400   [8]  30 12 FF FF FF FF FF FF
 (001.677627)  can0  18F00E00   [8]  B6 26 FF FF D5 9F FF FF
 (001.678711)  can0  0CF00203   [8]  C0 00 00 FF F7 71 16 03
 (001.679331)  can0  0CF00C03   [8]  ED 03 D7 16 FF FF FF FF
 (001.681979)  can0  18F03300   [8]  FF FF FF FF FF FF FF FF
 (001.682555)  can0  18FEDF00   [8]  84 A0 28 7D 7D FF FF F1
 (001.684011)  can0  0C010305   [8]  FF FF FF FF FF F3 FF FF
 (001.686614)  can0  18FEF700   [8]  FF FF FF FF 19 01 FF FF
 (001.687082)  can0  18FEE000   [8]  18 00 00 00 2E 96 35 00
 (001.687741)  can0  0CF00300   [8]  D1 00 0A FF FF 0F 61 7E
 (001.688987)  can0  0CF00203   [8]  C0 00 00 FF F7 73 16 03
 (001.691608)  can0  18FEF200   [8]  11 00 00 00 E2 06 E1 FF
 (001.692171)  can0  18F00F00   [8]  FF FF FF FF FF FF FF FF
 (001.693326)  can0  0CF00400   [8]  10 7D 83 96 16 00 0F 83
 (001.696757)  can0  0CF00331   [8]  FF FF FF FF FF FF FF FF
 (001.698811)  can0  0CF00203   [8]  C0 00 00 FF F7 73 16 03
 (001.699416)  can0  0CF00C03   [8]  EA 03 9F 16 FF FF FF FF
 (001.699922)  can0  18F00503   [8]  7D 00 00 7D 4E 20 4E 43
 (001.700721)  can0  18FE4A03   [8]  03 1F 4F FF FF F3 FF FF
 (001.702289)  can0  18FEDF00   [8]  84 A0 28 7D 7D FF FF F1
 (001.702608)  can0  10FCFD00   [8]  FF FF FF FF 00 32 FF FF
 (001.706556)  can0  18FEC100   [8]  85 AA 3B 05 6F 02 00 00
 (001.707094)  can0  0CF00300   [8]  D1 00 0B FF FF 0F 61 7E
 (001.708712)  can0  0CF00203   [8]  C0 00 00 FF F7 69 16 03
 (001.711484)  can0  18F00100   [8]  FF FF FF FF FF FF FF FF
 (001.713301)  can0  0CF00400   [8]  00 7D 83 AB 16 00 0F 83
 (001.719454)  can0  0CF00203   [8]  C0 00 00 FF F7 69 16 03
 (001.719463)  can0  0CF00C03   [8]  EA 03 69 16 FF FF FF FF
 (001.722156)  can0  18FEDF00   [8]  84 A0 28 7D 7D FF FF F1
 (001.724311)  can0  18F0010B   [8]  CF FF F0 FF FF CD FF FF
 (001.726560)  can0  0CF00300   [8]  D1 00 0A FF FF 0F 62 7E
 (001.727148)  can0  0CF00A00   [8]  00 03 E5 05 FF FF FF FF
 (001.727787)  can0  18FEF000   [8]  FF FF FF A1 16 FF FF FF
 (001.728297)  can0  18F00E00   [8]  B6 26 FF FF D5 9F FF FF
 (001.728851)  can0  0CF00203   [8]  C0 00 00 FF F7 67 16 03
 (001.731868)  can0  18FE5600   [8]  96 45 FF FF 1F 1F 00 FF
 (001.732174)  can0  18F03300   [8]  FF FF FF FF FF FF FF FF
 (001.733592)  can0  0CF00400   [8]  70 7D 82 B0 16 00 0F 83
 (001.733945)  can0  0C010305   [8]  FF FF FF FF FF F3 FF FF
 (001.734520)  can0  18FEBF0B   [8]  00 00 7D 7D 7D 7D FF FF
 (001.737004)  can0  18FCF200   [8]  E1 FF FF FF FF FF FF FF
 (001.739243)  can0  0CF00203   [8]  C0 00 00 FF F7 67 16 03
 (001.739378)  can0  0CF00C03   [8]  EE 03 E6 16 FF FF FF FF
 (001.741961)  can0  18FEDF00   [8]  84 A0 28 7D 7D FF FF F1
 (001.742555)  can0  18F00F00   [8]  FF FF FF FF FF FF FF FF
 (001.746535)  can0  0CF00300   [8]  D1 00 0A FF FF 0F 62 7E
 (001.747147)  can0  18F00131   [8]  FF FF FF 3F 00 FF FF FF
 (001.747655)  can0  18FEF100   [8]  FF 00 00 FC FF 68 00 CF
 (001.748256)  can0  18FEF131   [8]  F3 FF FF C3 CC FF FF F0
 (001.748803)  can0  0CF00203   [8]  C0 00 00 FF F7 65 16 03
 (001.749429)  can0  18FEF031   [8]  FF FF FF FF FF FC CC FF
 (001.749976)  can0  18FF4831   [8]  00 00 FF FF 00 00 00 00
 (001.750574)  can0  18FEF231   [8]  FF FF FF FF FF FF FF FF
 (001.751248)  can0  0CF00331   [8]  FF FF FF FF FF FF FF FF
 (001.751731)  can0  18FD7B00   [8]  00 FF 12 BE 00 00 FE 57
 (001.753938)  can0  0CF00400   [8]  60 7D 82 BD 16 00 0F 83
 (001.756512)  can0  10FDA300   [8]  FF FF 15 FF FF FF FF FF
 (001.757102)  can0  18F00029   [8]  F0 7D 7D F3 29 FF FF 3C
 (001.759367)  can0  0CF00203   [8]  C0 00 00 FF F7 65 16 03
 (001.759374)  can0  0CF00C03   [8]  EC 03 F8 16 FF FF FF FF
 (001.761980)  can0  18FEDF00   [8]  84 A0 28 7D 7D FF FF F1
 (001.766942)  can0  18FCDC00   [8]  9F FF FF FF 50 68 00 00
 (001.767147)  can0  0CF00300   [8]  D1 00 0A FF FF 0F 61 7E
 (001.767766)  can0  1CFE9200   [8]  FF A4 8D FF FF FF 00 00
 (001.769395)  can0  0CF00203   [8]  C0 00 00 FF F7 66 16 03
 (001.773927)  can0  0CF00400   [8]  50 7D 82 CE 16 00 0F 83
 (001.776551)  can0  0CF00A00   [8]  00 03 0A 06 FF FF FF FF
 (001.777154)  can0  18FD9400   [8]  30 12 FF FF FF FF FF FF
 (001.777722)  can0  18FEDD00   [8]  FF F0 0E FF FF FF FF FF
 (001.778296)  can0  18F00E00   [8]  B6 26 FF FF D5 9F FF FF
 (001.778875)  can0  0CF00203   [8]  C0 00 00 FF F7 66 16 03
 (001.779478)  can0  0CF00C03   [8]  E9 03 7E 16 FF FF FF FF
 (001.781974)  can0  18F03300   [8]  FF FF FF FF FF FF FF FF
 (001.782571)  can0  18FEDF00   [8]  84 A0 28 7D 7D FF FF F1
 (001.783971)  can0  0C010305   [8]  FF FF FF FF FF F3 FF FF
 (001.787242)  can0  18FEE000   [8]  18 00 00 00 2E 96 35 00
 (001.787252)  can0  0CF00300   [8]  D1 00 0A FF FF 0F 60 7E
 (001.788755)  can0  0CF00203   [8]  C0 00 00 FF F7 67 16 03
 (001.791624)  can0  18FEF200   [8]  0C 00 00 00 E1 06 E1 FF
 (001.792172)  can0  18F00F00   [8]  FF FF FF FF FF FF FF FF
 (001.793358)  can0  0CF00400   [8]  40 7D 82 C6 16 00 0F 83
 (001.797363)  can0  18FEE400   [8]  FF 3F FC FC 00 7F FF FF
 (001.797373)  can0  0CF00331   [8]  FF FF FF FF FF FF FF FF
 (001.798921)  can0  0CF00203   [8]  C0 00 00 FF F7 67 16 03
 (001.799374)  can0  0CF00C03   [8]  EC 03 90 16 FF FF FF FF
 (001.799964)  can0  18F00503   [8]  7D 00 00 7D 4E 20 4E 43
 (001.800720)  can0  18FE4A03   [8]  03 1F 4F FF FF F3 FF FF
 (001.802234)  can0  18FEDF00   [8]  84 A0 28 7D 7D FF FF F1
 (001.802670)  can0  10FCFD00   [8]  FF FF FF FF 00 32 FF FF
 (001.803284)  can0  0CFD9200   [8]  F4 FF FA FF FF FF FF FF
 (001.806646)  can0  0CF00300   [8]  D1 00 0A FF FF 0F 61 7E
 (001.808750)  can0  0CF00203   [8]  C0 00 00 FF F7 6B 16 03
 (001.811549)  can0  18F00100   [8]  FF FF FF FF FF FF FF FF
 (001.813296)  can0  0CF00400   [8]  70 7D 82 AB 16 00 0F 83
 (001.819525)  can0  0CF00203   [8]  C0 00 00 FF F7 6B 16 03
 (001.819534)  can0  0CF00C03   [8]  EF 03 E2 16 FF FF FF FF
 (001.822005)  can0  18FEDF00   [8]  84 A0 28 7D 7D FF FF F1
 (001.825065)  can0  18F0010B   [8]  CF FF F0 FF FF CD FF FF
 (001.827483)  can0  0CF00300   [8]  D1 00 0A FF FF 0F 61 7E
 (001.827493)  can0  0CF00A00   [8]  00 03 EE 05 FF FF FF FF
 (001.827758)  can0  18FEF000   [8]  FF FF FF B4 16 FF FF FF
 (001.829193)  can0  18FEBD00   [8]  00 F0 FF FF FF FF FF FF
 (001.829205)  can0  0CF00203   [8]  C0 00 00 FF F7 6E 16 03
 (001.829465)  can0  18F00E00   [8]  B6 26 FF FF D5 9F FF FF
 (001.831731)  can0  18F03300   [8]  FF FF FF FF FF FF FF FF
 (001.833488)  can0  0CF00400   [8]  00 7D 83 9C 16 00 0F 83
 (001.833980)  can0  0C010305   [8]  FF FF FF FF FF F3 FF FF
 (001.834612)  can0  18FEBF0B   [8]  00 00 7D 7D 7D 7D FF FF
 (001.837230)  can0  18FCF200   [8]  E1 FF FF FF FF FF FF FF
 (001.838798)  can0  0CF00203   [8]  C0 00 00 FF F7 6E 16 03
 (001.839363)  can0  0CF00C03   [8]  E9 03 AB 16 FF FF FF FF
 (001.842033)  can0  18FEDF00   [8]  84 A0 28 7D 7D FF FF F1
 (001.842660)  can0  18E0FF00   [8]  00 FF FF FF FF FF FF FF
 (001.843248)  can0  18F00F00   [8]  FF FF FF FF FF FF FF FF
 (001.846543)  can0  0CF00300   [8]  D1 00 0A FF FF 0F 61 7E
 (001.847116)  can0  18F00131   [8]  FF FF FF 3F 00 FF FF FF
 (001.847701)  can0  18FEF100   [8]  FF 00 00 FC FF 68 00 CF
 (001.848273)  can0  18FEF131   [8]  F3 FF FF C3 CC FF FF F0
 (001.848826)  can0  0CF00203   [8]  C0 00 00 FF F7 6E 16 03
 (001.849426)  can0  18FEF031   [8]  FF FF FF FF FF FC CC FF
 (001.850021)  can0  18FF4831   [8]  00 00 FF FF 00 00 00 00
 (001.850614)  can0  18FEF231   [8]  FF FF FF FF FF FF FF FF
 (001.851262)  can0  0CF00331   [8]  FF FF FF FF FF FF FF FF
 (001.851869)  can0  18FEEE00   [8]  82 FF FF FF FF FF FF FF
 (001.854169)  can0  0CF00400   [8]  20 7D 83 85 16 00 0F 83
 (001.856547)  can0  10FDA300   [8]  FF FF 14 FF FF FF FF FF
 (001.857129)  can0  18F00029   [8]  F0 7D 7D F3 29 FF FF 3C
 (001.858806)  can0  0CF00203   [8]  C0 00 00 FF F7 6E 16 03
 (001.859987)  can0  0CF00C03   [8]  EA 03 3B 16 FF FF FF FF
 (001.862369)  can0  18FEDF00   [8]  84 A0 28 7D 7D FF FF F1
 (001.866877)  can0  18FCDC00   [8]  9F FF FF FF 50 68 00 00
 (001.867247)  can0  0CF00300   [8]  D1 00 0B FF FF 0F 61 7E
 (001.867970)  can0  1CFE9200   [8]  FF 58 8E FF FF FF 00 00
 (001.868347)  can0  18FEF500   [8]  A8 FF FF 89 26 FF FF FF
 (001.869752)  can0  0CF00203   [8]  C0 00 00 FF F7 68 16 03
 (001.873314)  can0  0CF00400   [8]  30 7D 83 92 16 00 0F 83
 (001.876523)  can0  14FC9800   [8]  FF 00 00 00 00 00 00 FF
 (001.877099)  can0  0CF00A00   [8]  00 03 EE 05 FF FF FF FF
 (001.877696)  can0  18FD9400   [8]  96 0F FF FF FF FF FF FF
 (001.878252)  can0  18F00E00   [8]  B6 26 FF FF D5 9F FF FF
 (001.878826)  can0  0CF00203   [8]  C0 00 00 FF F7 68 16 03
 (001.879423)  can0  0CF00C03   [8]  EA 03 A1 16 FF FF FF FF
 (001.882006)  can0  18F03300   [8]  FF FF FF FF FF FF FF FF
 (001.882558)  can0  18FEDF00   [8]  84 A0 28 7D 7D FF FF F1
 (001.883981)  can0  0C010305   [8]  FF FF FF FF FF F3 FF FF
 (001.887203)  can0  18FEE000   [8]  18 00 00 00 2E 96 35 00
 (001.887213)  can0  0CF00300   [8]  D1 00 0B FF FF 0F 62 7E
 (001.887693)  can0  18FEA400   [8]  FF FF BF 2A FF FF 00 2D
 (001.888758)  can0  0CF00203   [8]  C0 00 00 FF F7 5F 16 03
 (001.891628)  can0  18FDB400   [8]  33 37 AC 38 FF FF FF FF
 (001.892154)  can0  18FEF200   [8]  11 00 00 00 E1 06 E1 FF
 (001.893610)  can0  18F00F00   [8]  FF FF FF FF FF FF FF FF
 (001.893620)  can0  0CF00400   [8]  00 7D 83 A5 16 00 0F 83
 (001.897349)  can0  0CF00331   [8]  FF FF FF FF FF FF FF FF
 (001.898927)  can0  0CF00203   [8]  C0 00 00 FF F7 5F 16 03
 (001.899379)  can0  0CF00C03   [8]  EB 03 E6 16 FF FF FF FF
 (001.899983)  can0  18F00503   [8]  7D 00 00 7D 4E 20 4E 43
 (001.900742)  can0  18FE4A03   [8]  03 1F 4F FF FF F3 FF FF
 (001.902379)  can0  18FEDF00   [8]  84 A0 28 7D 7D FF FF F1
 (001.902640)  can0  10FCFD00   [8]  FF FF FF FF 00 32 FF FF
 (001.906607)  can0  0CF00300   [8]  D1 00 0B FF FF 0F 62 7E
 (001.908761)  can0  0CF00203   [8]  C0 00 00 FF F7 57 16 03
 (001.911555)  can0  18FD7C00   [8]  F8 83 00 00 C3 0F 03 FF
 (001.912136)  can0  18F00100   [8]  FF FF FF FF FF FF FF FF
 (001.913350)  can0  0CF00400   [8]  00 7D 83 AC 16 00 0F 83
 (001.916562)  can0  18FDB300   [8]  FF FF C3 3D FF FF FF FF
 (001.919176)  can0  0CF00203   [8]  C0 00 00 FF F7 57 16 03
 (001.919293)  can0  0CF00C03   [8]  E9 03 AE 16 FF FF FF FF
 (001.922870)  can0  18FEDF00   [8]  84 A0 28 7D 7D FF FF F1
 (001.924763)  can0  18F0010B   [8]  CF FF F0 FF FF CD FF FF
 (001.926609)  can0  0CF00300   [8]  D1 00 0A FF FF 0F 60 7E
 (001.927962)  can0  0CF00A00   [8]  00 03 F8 05 FF FF FF FF
 (001.927971)  can0  18FEF000   [8]  FF FF FF AD 16 FF FF FF
 (001.928352)  can0  18F00E00   [8]  B6 26 FF FF D5 9F FF FF
 (001.928911)  can0  0CF00203   [8]  C0 00 00 FF F7 56 16 03
 (001.932125)  can0  18F03300   [8]  FF FF FF FF FF FF FF FF
 (001.932140)  can0  18FE9A00   [8]  D6 27 FF FF FF FF FF FF
 (001.933725)  can0  0CF00400   [8]  70 7D 82 B6 16 00 0F 83
 (001.933923)  can0  0C010305   [8]  FF FF FF FF FF F3 FF FF
 (001.935246)  can0  18FEBF0B   [8]  00 00 7D 7D 7D 7D FF FF
 (001.937191)  can0  18FDB200   [8]  FF FF FF FF 01 00 FF FF
 (001.937201)  can0  18FCF200   [8]  E1 FF FF FF FF FF FF FF
 (001.938781)  can0  0CF00203   [8]  C0 00 00 FF F7 56 16 03
 (001.939356)  can0  0CF00C03   [8]  EA 03 7C 16 FF FF FF FF
 (001.941984)  can0  18FEDF00   [8]  84 A0 28 7D 7D FF FF F1
 (001.942548)  can0  18F00F00   [8]  FF FF FF FF FF FF FF FF
 (001.946601)  can0  0CF00300   [8]  D1 00 0A FF FF 0F 60 7E
 (001.947208)  can0  18F00131   [8]  FF FF FF 3F 00 FF FF FF
 (001.947758)  can0  18FEF100   [8]  FF 00 00 FC FF 68 00 CF
 (001.948329)  can0  18FEF131   [8]  F3 FF FF C3 CC FF FF F0
 (001.948961)  can0  0CF00203   [8]  C0 00 00 FF F7 59 16 03
 (001.949478)  can0  18FEF031   [8]  FF FF FF FF FF FC CC FF
 (001.950923)  can0  18FF4831   [8]  00 00 FF FF 00 00 00 00
 (001.950934)  can0  18FEF231   [8]  FF FF FF FF FF FF FF FF
 (001.951241)  can0  0CF00331   [8]  FF FF FF FF FF FF FF FF
 (001.953509)  can0  0CF00400   [8]  60 7D 82 C1 16 00 0F 83
 (001.956603)  can0  10FDA300   [8]  FF FF 15 FF FF FF FF FF
 (001.957188)  can0  18FE9900   [8]  FF FF FF FF FF FF FF FF
 (001.957751)  can0  18F00029   [8]  F0 7D 7D F3 29 FF FF 3C
 (001.959462)  can0  0CF00203   [8]  C0 00 00 FF F7 59 16 03
 (001.959473)  can0  0CF00C03   [8]  F0 03 D4 16 FF FF FF FF
 (001.962734)  can0  18FD8C00   [8]  FF FF 00 00 FF FF FF FF
 (001.962745)  can0  18FEDF00   [8]  84 A0 28 7D 7D FF FF F1
 (001.966822)  can0  18FCDC00   [8]  9F FF FF FF 50 68 00 00
 (001.967109)  can0  0CF00300   [8]  D1 00 0A FF FF 0F 61 7E
 (001.967991)  can0  1CFE9200   [8]  FF 88 8F FF FF FF 00 00
 (001.969444)  can0  0CF00203   [8]  C0 00 00 FF F7 5B 16 03
 (001.973306)  can0  0CF00400   [8]  00 7D 83 A9 16 00 0F 83
 (001.976528)  can0  0CF00A00   [8]  C8 02 1D 06 FF FF FF FF
 (001.977152)  can0  18FD9400   [8]  96 0F FF FF FF FF FF FF
 (001.977750)  can0  18FEFC00   [8]  FF FF FF FF FF FF FF FF
 (001.978324)  can0  18F00E00   [8]  B6 26 FF FF D5 9F FF FF
 (001.978889)  can0  0CF00203   [8]  C0 00 00 FF F7 5B 16 03
 (001.979450)  can0  0CF00C03   [8]  EC 03 D1 16 FF FF FF FF
 (001.982015)  can0  18FD2000   [8]  33 37 FF FF FF FF FF FF
 (001.982606)  can0  18F03300   [8]  FF FF FF FF FF FF FF FF
 (001.983183)  can0  18FEDF00   [8]  84 A0 28 7D 7D FF FF F1
 (001.984010)  can0  0C010305   [8]  FF FF FF FF FF F3 FF FF
 (001.986630)  can0  18FEE000   [8]  18 00 00 00 2E 96 35 00
 (001.987178)  can0  0CF00300   [8]  D1 00 0A FF FF 0F 61 7E
 (001.989297)  can0  0CF00203   [8]  C0 00 00 FF F7 5E 16 03
 (001.992003)  can0  18FEF200   [8]  11 00 00 00 E1 06 E1 FF
 (001.992169)  can0  18F00F00   [8]  FF FF FF FF FF FF FF FF
 (001.993637)  can0  0CF00400   [8]  10 7D 83 A0 16 00 0F 83
 (001.997171)  can0  0CF00331   [8]  FF FF FF FF FF FF FF FF
 (001.998936)  can0  0CF00203   [8]  C0 00 00 FF F7 5E 16 03
 (001.999314)  can0  0CF00C03   [8]  EA 03 65 16 FF FF FF FF
 (001.999995)  can0  18F00503   [8]  7D 00 00 7D 4E 20 4E 43
 (002.000584)  can0  18FE4A03   [8]  03 1F 4F FF FF F3 FF FF
 (002.002248)  can0  18FEDF00   [8]  84 A0 28 7D 7D FF FF F1
 (002.002663)  can0  10FCFD00   [8]  FF FF FF FF 00 32 FF FF
 (002.006579)  can0  18FD3E00   [8]  D9 3E FF 13 3F FF FF FF
 (002.007103)  can0  0CF00300   [8]  D1 00 0B FF FF 0F 61 7E
 (002.008762)  can0  0CF00203   [8]  C0 00 00 FF F7 60 16 03
 (002.011559)  can0  18F00100   [8]  FF FF FF FF FF FF FF FF
 (002.013338)  can0  0CF00400   [8]  30 7D 83 87 16 00 0F 83
 (002.018748)  can0  0CF00203   [8]  C0 00 00 FF F7 60 16 03
 (002.019923)  can0  0CF00C03   [8]  EB 03 65 16 FF FF FF FF
 (002.022304)  can0  18FEDF00   [8]  84 A0 28 7D 7D FF FF F1
 (002.025175)  can0  18F0010B   [8]  CF FF F0 FF FF CD FF FF
 (002.026850)  can0  18FD4000   [8]  FF 3F 00 FF FF FF FF FF
 (002.027207)  can0  0CF00300   [8]  D1 00 0B FF FF 0F 61 7E
 (002.027904)  can0  0CF00A00   [8]  C8 02 27 06 FF FF FF FF
 (002.028416)  can0  18FEF000   [8]  FF FF FF 95 16 FF FF FF
 (002.028979)  can0  0CF00203   [8]  C0 00 00 FF F7 61 16 03
 (002.029536)  can0  18F00E00   [8]  B6 26 FF FF D5 9F FF FF
 (002.030121)  can0  1CECFF00   [8]  20 0E 00 02 FF CA FE 00
 (002.031733)  can0  18F03300   [8]  FF FF FF FF FF FF FF FF
 (002.033527)  can0  0CF00400   [8]  50 7D 83 7D 16 00 0F 84
 (002.033938)  can0  0C010305   [8]  FF FF FF FF FF F3 FF FF
 (002.035384)  can0  18FEBF0B   [8]  00 00 7D 7D 7D 7D FF FF
 (002.036632)  can0  18FCF200   [8]  E1 FF FF FF FF FF FF FF
 (002.038752)  can0  0CF00203   [8]  C0 00 00 FF F7 61 16 03
 (002.039354)  can0  0CF00C03   [8]  EC 03 BB 16 FF FF FF FF
 (002.042042)  can0  18FEDF00   [8]  84 A0 28 7D 7D FF FF F1
 (002.042634)  can0  18F00F00   [8]  FF FF FF FF FF FF FF FF
 (002.046581)  can0  0CF00300   [8]  D1 00 0C FF FF 0F 62 7E
 (002.047152)  can0  18F00131   [8]  FF FF FF 3F 00 FF FF FF
 (002.047721)  can0  18FEF100   [8]  FF 00 00 FC FF 68 00 CF
 (002.048302)  can0  18FEF131   [8]  F3 FF FF C3 CC FF FF F0
 (002.048851)  can0  0CF00203   [8]  C0 00 00 FF F7 57 16 03
 (002.049431)  can0  18FEF031   [8]  FF FF FF FF FF FC CC FF
 (002.050003)  can0  1CECFF29   [8]  20 13 00 03 FF E1 FE 00
 (002.050566)  can0  18FF4831   [8]  00 00 FF FF 00 00 00 00
 (002.051207)  can0  18FEF231   [8]  FF FF FF FF FF FF FF FF
 (002.051804)  can0  0CF00331   [8]  FF FF FF FF FF FF FF FF
 (002.052346)  can0  18FCC500   [8]  D9 3E FF FF FF FF FF FF
 (002.052932)  can0  0CFD9200   [8]  F4 FF FA FF FF FF FF FF
 (002.054372)  can0  0CF00400   [8]  40 7D 83 8C 16 00 0F 83
 (002.056644)  can0  10FDA300   [8]  FF FF 14 FF FF FF FF FF
 (002.057247)  can0  18F00029   [8]  F0 7D 7D F3 29 FF FF 3C
 (002.058884)  can0  0CF00203   [8]  C0 00 00 FF F7 57 16 03
 (002.059373)  can0  0CF00C03   [8]  EA 03 82 16 FF FF FF FF
 (002.062802)  can0  18FEDF00   [8]  84 A0 28 7D 7D FF FF F1
 (002.066897)  can0  18FCDC00   [8]  9F FF FF FF 50 68 00 00
 (002.067209)  can0  0CF00300   [8]  D1 00 0C FF FF 0F 63 7E
 (002.067797)  can0  1CFE9200   [8]  FF 30 8F FF FF FF 00 00
 (002.068746)  can0  0CF00203   [8]  C0 00 00 FF F7 4E 16 03
 (002.073304)  can0  0CF00400   [8]  30 7D 83 99 16 00 0F 83
 (002.076609)  can0  0CF00A00   [8]  C8 02 0A 06 FF FF FF FF
 (002.077167)  can0  18FD9400   [8]  96 0F FF FF FF FF FF FF
 (002.077761)  can0  18FEEF00   [8]  FF FF FF 1E 42 7D FF FA
 (002.078338)  can0  18F00E00   [8]  B6 26 FF FF D5 9F FF FF
 (002.078881)  can0  0CF00203   [8]  C0 00 00 FF F7 4E 16 03
 (002.079464)  can0  1CEBFF00   [8]  01 43 FF BF 00 09 08 54
 (002.080060)  can0  0CF00C03   [8]  EA 03 62 16 FF FF FF FF
 (002.082033)  can0  18F03300   [8]  FF FF FF FF FF FF FF FF
 (002.082596)  can0  18FEDF00   [8]  84 A0 28 7D 7D FF FF F1
 (002.084005)  can0  0C010305   [8]  FF FF FF FF FF F3 FF FF
 (002.087262)  can0  18FEE000   [8]  18 00 00 00 2E 96 35 00
 (002.087272)  can0  0CF00300   [8]  D1 00 0B FF FF 0F 61 7E
 (002.089139)  can0  0CF00203   [8]  C0 00 00 FF F7 49 16 03
 (002.091977)  can0  18FEF200   [8]  0D 00 00 00 E1 06 E1 FF
 (002.092211)  can0  18F00F00   [8]  FF FF FF FF FF FF FF FF
 (002.093780)  can0  0CF00400   [8]  20 7D 83 A4 16 00 0F 83
 (002.097266)  can0  18FEDB00   [8]  FF FF 97 31 FF FF FF FF
 (002.097277)  can0  0CF00331   [8]  FF FF FF FF FF FF FF FF
 (002.097639)  can0  1CEBFF29   [8]  01 14 01 A8 16 3C 40 51
 (002.099233)  can0  0CF00203   [8]  C0 00 00 FF F7 49 16 03
 (002.099410)  can0  0CF00C03   [8]  ED 03 DD 16 FF FF FF FF
 (002.100034)  can0  18F00503   [8]  7D 00 00 7D 4E 20 4E 43
 (002.100631)  can0  18FE4A03   [8]  03 1F 4F FF FF F3 FF FF
 (002.102103)  can0  18FEDF00   [8]  84 A0 28 7D 7D FF FF F1
 (002.102702)  can0  10FCFD00   [8]  FF FF FF FF 00 32 FF FF
 (002.106585)  can0  0CF00300   [8]  D1 00 0B FF FF 0F 60 7E
 (002.108873)  can0  0CF00203   [8]  C0 00 00 FF F7 4B 16 03
 (002.111572)  can0  18F00100   [8]  FF FF FF FF FF FF FF FF
 (002.113297)  can0  0CF00400   [8]  00 7D 83 B3 16 00 0F 83
 (002.117289)  can0  18FEF600   [8]  FF 01 68 FF FF FF FF FF
 (002.118923)  can0  0CF00203   [8]  C0 00 00 FF F7 4B 16 03
 (002.119312)  can0  0CF00C03   [8]  EE 03 EE 16 FF FF FF FF
 (002.122059)  can0  18FEDF00   [8]  84 A0 28 7D 7D FF FF F1
 (002.125928)  can0  18F0010B   [8]  CF FF F0 FF FF CD FF FF
 (002.126602)  can0  0CF00300   [8]  D1 00 0A FF FF 0F 61 7E
 (002.127176)  can0  0CF00A00   [8]  C8 02 30 06 FF FF FF FF
 (002.127782)  can0  18FEF000   [8]  FF FF FF B1 16 FF FF FF
 (002.128326)  can0  18F00E00   [8]  B6 26 FF FF D5 9F FF FF
 (002.128905)  can0  0CF00203   [8]  C0 00 00 FF F7 4B 16 03
 (002.131983)  can0  18F03300   [8]  FF FF FF FF FF FF FF FF
 (002.133356)  can0  0CF00400   [8]  00 7D 83 A7 16 00 0F 83
 (002.133924)  can0  1CEBFF00   [8]  02 00 09 08 ED 14 1F 01
 (002.134530)  can0  0C010305   [8]  FF FF FF FF FF F3 FF FF
 (002.135200)  can0  18FEBF0B   [8]  00 00 7D 7D 7D 7D FF FF
 (002.136599)  can0  18FCF200   [8]  E1 FF FF FF FF FF FF FF
 (002.138757)  can0  0CF00203   [8]  C0 00 00 FF F7 4B 16 03
 (002.139359)  can0  0CF00C03   [8]  E9 03 75 16 FF FF FF FF
 (002.142238)  can0  18FEDF00   [8]  84 A0 28 7D 7D FF FF F1
 (002.142639)  can0  18FDC600   [8]  FC 04 FF FF FF FF FF FF
 (002.143259)  can0  18F00F00   [8]  FF FF FF FF FF FF FF FF
 (002.146659)  can0  0CF00300   [8]  D1 00 0A FF FF 0F 61 7E
 (002.147208)  can0  18F00131   [8]  FF FF FF 3F 00 FF FF FF
 (002.148018)  can0  18FEF100   [8]  FF 00 00 FC FF 68 00 CF
 (002.148363)  can0  18FEF131   [8]  F3 FF FF C3 CC FF FF F0
 (002.148932)  can0  0CF00203   [8]  C0 00 00 FF F7 4E 16 03
 (002.149510)  can0  18FEF031   [8]  FF FF FF FF FF FC CC FF
 (002.150105)  can0  18FF4831   [8]  00 00 FF FF 00 00 00 00
 (002.150712)  can0  18FEF231   [8]  FF FF FF FF FF FF FF FF
 (002.151434)  can0  0CF00331   [8]  FF FF FF FF FF FF FF FF
 (002.153986)  can0  0CF00400   [8]  20 7D 83 97 16 00 0F 83
 (002.153997)  can0  1CEBFF29   [8]  02 2A D0 3A 33 80 4C 2C
 (002.156633)  can0  10FDA300   [8]  FF FF 14 FF FF FF FF FF
 (002.157237)  can0  18F00029   [8]  F0 7D 7D F3 29 FF FF 3C
 (002.158915)  can0  0CF00203   [8]  C0 00 00 FF F7 4E 16 03
 (002.159357)  can0  0CF00C03   [8]  EA 03 5F 16 FF FF FF FF
 (002.162731)  can0  18FEDF00   [8]  84 A0 28 7D 7D FF FF F1
 (002.166692)  can0  18FCDC00   [8]  9F FF FF FF 50 68 00 00
 (002.167251)  can0  0CF00300   [8]  D1 00 0B FF FF 0F 61 7E
 (002.167828)  can0  1CFE9200   [8]  FF 8C 8F FF FF FF 00 00
 (002.168751)  can0  0CF00203   [8]  C0 00 00 FF F7 53 16 03
 (002.173912)  can0  0CF00400   [8]  30 7D 83 8A 16 00 0F 83
 (002.176635)  can0  0CF00A00   [8]  C8 02 27 06 FF FF FF FF
 (002.177150)  can0  18FD9400   [8]  30 12 FF FF FF FF FF FF
 (002.177742)  can0  18F00E00   [8]  B6 26 FF FF D5 9F FF FF
 (002.178759)  can0  0CF00203   [8]  C0 00 00 FF F7 53 16 03
 (002.179349)  can0  0CF00C03   [8]  ED 03 B8 16 FF FF FF FF
 (002.182173)  can0  18F03300   [8]  FF FF FF FF FF FF FF FF
 (002.182605)  can0  18FEDF00   [8]  84 A0 28 7D 7D FF FF F1
 (002.184111)  can0  0C010305   [8]  FF FF FF FF FF F3 FF FF
 (002.187357)  can0  18FEE000   [8]  18 00 00 00 2E 96 35 00
 (002.187368)  can0  0CF00300   [8]  D1 00 0B FF FF 0F 61 7E
 (002.188737)  can0  0CF00203   [8]  C0 00 00 FF F7 55 16 03
 (002.191798)  can0  18FEF200   [8]  12 00 00 00 E2 06 E1 FF
 (002.192258)  can0  18F00F00   [8]  FF FF FF FF FF FF FF FF
 (002.193752)  can0  0CF00400   [8]  50 7D 83 7D 16 00 0F 84
 (002.197299)  can0  0CF00331   [8]  FF FF FF FF FF FF FF FF
 (002.198756)  can0  0CF00203   [8]  C0 00 00 FF F7 55 16 03
 (002.199351)  can0  0CF00C03   [8]  E9 03 AB 16 FF FF FF FF
 (002.199971)  can0  18F00503   [8]  7D 00 00 7D 4E 20 4E 43
 (002.200576)  can0  18FE4A03   [8]  03 1F 4F FF FF F3 FF FF
 (002.202135)  can0  18FEDF00   [8]  84 A0 28 7D 7D FF FF F1
 (002.202737)  can0  10FCFD00   [8]  FF FF FF FF 00 32 FF FF
 (002.207248)  can0  0CF00300   [8]  D1 00 0C FF FF 0F 61 7E
 (002.208896)  can0  0CF00203   [8]  C0 00 00 FF F7 4F 16 03
 (002.209308)  can0  1CEBFF29   [8]  03 40 51 C2 01 2A FF FF
 (002.211584)  can0  18F00100   [8]  FF FF FF FF FF FF FF FF
 (002.213347)  can0  0CF00400   [8]  40 7D 83 91 16 00 0F 83
 (002.219003)  can0  0CF00203   [8]  C0 00 00 FF F7 4F 16 03
 (002.219308)  can0  0CF00C03   [8]  EA 03 4F 16 FF FF FF FF
 (002.222059)  can0  18FEDF00   [8]  84 A0 28 7D 7D FF FF F1
 (002.225991)  can0  18F0010B   [8]  CF FF F0 FF FF CD FF FF
 (002.226631)  can0  0CF00300   [8]  D1 00 0C FF FF 0F 62 7E
 (002.227200)  can0  0CF00A00   [8]  C8 02 14 06 FF FF FF FF
 (002.227987)  can0  18FEF000   [8]  FF FF FF 88 16 FF FF FF
 (002.228381)  can0  18F00E00   [8]  B6 26 FF FF D5 9F FF FF
 (002.229004)  can0  0CF00203   [8]  C0 00 00 FF F7 4A 16 03
 (002.231583)  can0  18F03300   [8]  FF FF FF FF FF FF FF FF
 (002.233329)  can0  0CF00400   [8]  30 7D 83 9B 16 00 0F 83
 (002.233975)  can0  0C010305   [8]  FF FF FF FF FF F3 FF FF
 (002.235405)  can0  18FEBF0B   [8]  00 00 7D 7D 7D 7D FF FF
 (002.236643)  can0  18FCF200   [8]  E1 FF FF FF FF FF FF FF
 (002.239317)  can0  0CF00203   [8]  C0 00 00 FF F7 4A 16 03
 (002.239329)  can0  0CF00C03   [8]  ED 03 AB 16 FF FF FF FF
 (002.242204)  can0  18FEDF00   [8]  84 A0 28 7D 7D FF FF F1
 (002.242613)  can0  18F00F00   [8]  FF FF FF FF FF FF FF FF
 (002.246657)  can0  0CF00300   [8]  D1 00 0B FF FF 0F 61 7E
 (002.247255)  can0  18F00131   [8]  FF FF FF 3F 00 FF FF FF
 (002.247811)  can0  18FEF100   [8]  FF 00 00 FC FF 68 00 CF
 (002.248384)  can0  18FEF131   [8]  F3 FF FF C3 CC FF FF F0
 (002.248939)  can0  0CF00203   [8]  C0 00 00 FF F7 47 16 03
 (002.249508)  can0  18FEF031   [8]  FF FF FF FF FF FC CC FF
 (002.250876)  can0  18FF4831   [8]  00 00 FF FF 00 00 00 00
 (002.250885)  can0  18FEF231   [8]  FF FF FF FF FF FF FF FF
 (002.251298)  can0  0CF00331   [8]  FF FF FF FF FF FF FF FF
 (002.254034)  can0  0CF00400   [8]  10 7D 83 B0 16 00 0F 83
 (002.256628)  can0  10FDA300   [8]  FF FF 14 FF FF FF FF FF
 (002.257182)  can0  18F00029   [8]  F0 7D 7D F3 29 FF FF 3C
 (002.258868)  can0  0CF00203   [8]  C0 00 00 FF F7 47 16 03
 (002.259356)  can0  0CF00C03   [8]  EE 03 F7 16 FF FF FF FF
 (002.262691)  can0  18FEDF00   [8]  84 A0 28 7D 7D FF FF F1
 (002.266656)  can0  18FCDC00   [8]  9F FF FF FF 50 68 00 00
 (002.267198)  can0  0CF00300   [8]  D1 00 0B FF FF 0F 60 7E
 (002.267790)  can0  1CFE9200   [8]  FF 54 8F FF FF FF 00 00
 (002.268747)  can0  0CF00203   [8]  C0 00 00 FF F7 4B 16 03
 (002.273906)  can0  0CF00400   [8]  00 7D 83 C4 16 00 0F 83
 (002.276631)  can0  0CF00A00   [8]  D1 02 30 06 FF FF FF FF
 (002.277195)  can0  18FD9400   [8]  30 12 FF FF FF FF FF FF
 (002.277768)  can0  18F00E00   [8]  B6 26 FF FF D5 9F FF FF
 (002.278759)  can0  0CF00203   [8]  C0 00 00 FF F7 4B 16 03
 (002.279348)  can0  0CF00C03   [8]  E9 03 B2 16 FF FF FF FF
 (002.282898)  can0  18F03300   [8]  FF FF FF FF FF FF FF FF
 (002.282909)  can0  18FEDF00   [8]  84 A0 28 7D 7D FF FF F1
 (002.283989)  can0  0C010305   [8]  FF FF FF FF FF F3 FF FF
 (002.286658)  can0  18FEE000   [8]  18 00 00 00 2E 96 35 00
 (002.287355)  can0  0CF00300   [8]  D1 00 0A FF FF 0F 60 7E
 (002.289067)  can0  0CF00203   [8]  C0 00 00 FF F7 4D 16 03
 (002.292028)  can0  18FEF200   [8]  12 00 00 00 E1 06 E1 FF
 (002.292207)  can0  18F00F00   [8]  FF FF FF FF FF FF FF FF
 (002.293587)  can0  0CF00400   [8]  70 7D 82 B6 16 00 0F 83
 (002.296771)  can0  0CF00331   [8]  FF FF FF FF FF FF FF FF
 (002.298753)  can0  0CF00203   [8]  C0 00 00 FF F7 4D 16 03
 (002.299352)  can0  0CF00C03   [8]  EA 03 67 16 FF FF FF FF
 (002.299967)  can0  18F00503   [8]  7D 00 00 7D 4E 20 4E 43
 (002.300578)  can0  18FE4A03   [8]  03 1F 4F FF FF F3 FF FF
 (002.302129)  can0  18FEDF00   [8]  84 A0 28 7D 7D FF FF F1
 (002.302730)  can0  10FCFD00   [8]  FF FF FF FF 00 32 FF FF
 (002.303334)  can0  0CFD9200   [8]  F4 FF FA FF FF FF FF FF
 (002.307150)  can0  0CF00300   [8]  D1 00 0A FF FF 0F 61 7E
 (002.308759)  can0  0CF00203   [8]  C0 00 00 FF F7 55 16 03
 (002.311624)  can0  18F00100   [8]  FF FF FF FF FF FF FF FF
 (002.313310)  can0  0CF00400   [8]  20 7D 83 9D 16 00 0F 83
 (002.319647)  can0  0CF00203   [8]  C0 00 00 FF F7 55 16 03
 (002.319657)  can0  0CF00C03   [8]  EF 03 C5 16 FF FF FF FF
 (002.322055)  can0  18FEDF00   [8]  84 A0 28 7D 7D FF FF F1
 (002.324021)  can0  18EAFF31   [3]  E9 FE 00
 (002.325582)  can0  18F0010B   [8]  CF FF F0 FF FF CD FF FF
 (002.326473)  can0  18FEE900   [8]  02 00 00 00 C4 3F 03 00
 (002.327101)  can0  0CF00300   [8]  D1 00 0B FF FF 0F 61 7E
 (002.327681)  can0  0CF00A00   [8]  DB 02 0A 06 FF FF FF FF
 (002.328285)  can0  18FEF000   [8]  FF FF FF A5 16 FF FF FF
 (002.328822)  can0  0CF00203   [8]  C0 00 00 FF F7 5B 16 03
 (002.329329)  can0  18F00E00   [8]  B6 26 FF FF D5 9F FF FF
 (002.331596)  can0  18F03300   [8]  FF FF FF FF FF FF FF FF
 (002.333376)  can0  0CF00400   [8]  30 7D 83 90 16 00 0F 83
 (002.333989)  can0  0C010305   [8]  FF FF FF FF FF F3 FF FF
 (002.335605)  can0  18FEBF0B   [8]  00 00 7D 7D 7D 7D FF FF
 (002.337362)  can0  18FCF200   [8]  E1 FF FF FF FF FF FF FF
 (002.338934)  can0  0CF00203   [8]  C0 00 00 FF F7 5B 16 03
 (002.339320)  can0  0CF00C03   [8]  EB 03 B3 16 FF FF FF FF
 (002.342055)  can0  18FEDF00   [8]  84 A0 28 7D 7D FF FF F1
 (002.342702)  can0  18F00F00   [8]  FF FF FF FF FF FF FF FF
 (002.346630)  can0  18FD0700   [8]  43 0C FC FF FF FF FF FF
 (002.347205)  can0  18F00131   [8]  FF FF FF 3F 00 FF FF FF
 (002.347970)  can0  0CF00300   [8]  D1 00 0B FF FF 0F 61 7E
 (002.348319)  can0  18FEF100   [8]  FF 00 00 FC FF 68 00 CF
 (002.349012)  can0  0CF00203   [8]  C0 00 00 FF F7 5C 16 03
 (002.349471)  can0  18FEF131   [8]  F3 FF FF C3 CC FF FF F0
 (002.350752)  can0  18FEF031   [8]  FF FF FF FF FF FC CC FF
 (002.350759)  can0  18FF4831   [8]  00 00 FF FF 00 00 00 00
 (002.351307)  can0  18FEF231   [8]  FF FF FF FF FF FF FF FF
 (002.352015)  can0  0CF00331   [8]  FF FF FF FF FF FF FF FF
 (002.353528)  can0  0CF00400   [8]  50 7D 83 72 16 00 0F 84
 (002.356647)  can0  10FDA300   [8]  FF FF 14 FF FF FF FF FF
 (002.357359)  can0  18F00029   [8]  F0 7D 7D F3 29 FF FF 3C
 (002.358886)  can0  0CF00203   [8]  C0 00 00 FF F7 5C 16 03
 (002.359346)  can0  0CF00C03   [8]  EA 03 32 16 FF FF FF FF
