name,type,start_time,duration,"identifier","extended","num_data_bytes","data","crc","ack"
"CAN","identifier_field",0.00127775,0.00014,0x0000000018F03300,true,,,,
"CAN","control_field",0.00142175,1.2e-05,,,0x0000000000000008,,,
"CAN","data_field",0.00143775,3.2e-05,,,,0xFF,,
"CAN","data_field",0.00147375,3.6e-05,,,,0xFF,,
"CAN","data_field",0.00151375,3.2e-05,,,,0xFF,,
"CAN","data_field",0.00154975,3.6e-05,,,,0xFF,,
"CAN","data_field",0.00158975,3.2e-05,,,,0xFF,,
"CAN","data_field",0.00162975,3.2e-05,,,,0xFF,,
"CAN","data_field",0.00166575,3.6e-05,,,,0xFF,,
"CAN","data_field",0.00170575,3.2e-05,,,,0xFF,,
"CAN","crc_field",0.00174175,6.4e-05,,,,,0x000000000000480D,
"CAN","ack_field",0.00181375,4e-06,,,,,,true
"CAN","identifier_field",0.0030623125,0.000144,0x000000000CF00400,true,,,,
"CAN","control_field",0.0032103125,1.2e-05,,,0x0000000000000008,,,
"CAN","data_field",0.0032263125,2.8e-05,,,,0x70,,
"CAN","data_field",0.0032583125,3.6e-05,,,,0x7D,,
"CAN","data_field",0.0032983125,2.8e-05,,,,0x8A,,
"CAN","data_field",0.0033303125,2.8e-05,,,,0xE8,,
"CAN","data_field",0.0033623125,3.2e-05,,,,0x18,,
"CAN","data_field",0.0033983125,3.6e-05,,,,0x00,,
"CAN","data_field",0.0034383125,3.2e-05,,,,0x0F,,
"CAN","data_field",0.0034783125,2.8e-05,,,,0x8B,,
"CAN","crc_field",0.0035103125,5.6e-05,,,,,0x0000000000002C67,
"CAN","ack_field",0.0035743125,4e-06,,,,,,true
"CAN","identifier_field",0.0058704375,0.000136,0x0000000018F00131,true,,,,
"CAN","control_field",0.0060104375,1.2e-05,,,0x0000000000000008,,,
"CAN","data_field",0.0060264375,3.2e-05,,,,0xFF,,
"CAN","data_field",0.0060624375,3.6e-05,,,,0xFF,,
"CAN","data_field",0.0061024375,3.2e-05,,,,0xFF,,
"CAN","data_field",0.0061384375,3.2e-05,,,,0x3F,,
"CAN","data_field",0.0061744375,3.2e-05,,,,0xFA,,
"CAN","data_field",0.0062104375,3.2e-05,,,,0xFF,,
"CAN","data_field",0.0062464375,3.6e-05,,,,0xFF,,
"CAN","data_field",0.0062864375,3.2e-05,,,,0xFF,,
"CAN","crc_field",0.0063224375,5.6e-05,,,,,0x0000000000000B0F,
"CAN","ack_field",0.0063864375,4e-06,,,,,,true
"CAN","identifier_field",0.0064388125,0.000144,0x0000000018FCF200,true,,,,
"CAN","control_field",0.0065868125,1.2e-05,,,0x0000000000000008,,,
"CAN","data_field",0.0066028125,2.8e-05,,,,0xE1,,
"CAN","data_field",0.0066348125,3.2e-05,,,,0xFF,,
"CAN","data_field",0.0066708125,3.6e-05,,,,0xFF,,
"CAN","data_field",0.0067108125,3.2e-05,,,,0xFF,,
"CAN","data_field",0.0067508125,3.2e-05,,,,0xFF,,
"CAN","data_field",0.0067868125,3.6e-05,,,,0xFF,,
"CAN","data_field",0.0068268125,3.2e-05,,,,0xFF,,
"CAN","data_field",0.0068628125,3.6e-05,,,,0xFF,,
"CAN","crc_field",0.0069028125,5.6e-05,,,,,0x0000000000002DA6,
"CAN","ack_field",0.0069668125,4e-06,,,,,,true
"CAN","identifier_field",0.007019,0.000136,0x0000000018FEF131,true,,,,
"CAN","control_field",0.007159,1.2e-05,,,0x0000000000000008,,,
"CAN","data_field",0.007175,2.8e-05,,,,0xF7,,
"CAN","data_field",0.007207,3.6e-05,,,,0xFF,,
"CAN","data_field",0.007247,3.2e-05,,,,0xFF,,
"CAN","data_field",0.007283,3.2e-05,,,,0xC3,,
"CAN","data_field",0.007319,2.8e-05,,,,0xCC,,
"CAN","data_field",0.007351,3.2e-05,,,,0xFF,,
"CAN","data_field",0.007387,3.6e-05,,,,0xFF,,
"CAN","data_field",0.007427,3.2e-05,,,,0xF0,,
"CAN","crc_field",0.007467,6e-05,,,,,0x000000000000031F,
"CAN","ack_field",0.007539,4e-06,,,,,,true
"CAN","identifier_field",0.0076033125,0.00014,0x0000000018FEF031,true,,,,
"CAN","control_field",0.0077473125,1.2e-05,,,0x0000000000000008,,,
"CAN","data_field",0.0077633125,3.2e-05,,,,0xFF,,
"CAN","data_field",0.0077993125,3.6e-05,,,,0xFF,,
"CAN","data_field",0.0078393125,3.2e-05,,,,0xFF,,
"CAN","data_field",0.0078753125,3.6e-05,,,,0xFF,,
"CAN","data_field",0.0079153125,3.2e-05,,,,0xFF,,
"CAN","data_field",0.0079553125,3.2e-05,,,,0xFC,,
"CAN","data_field",0.0079913125,2.8e-05,,,,0xCC,,
"CAN","data_field",0.0080233125,3.2e-05,,,,0xFF,,
"CAN","crc_field",0.0080593125,6e-05,,,,,0x000000000000638F,
"CAN","ack_field",0.0081273125,4e-06,,,,,,true
"CAN","identifier_field",0.0081995625,0.000144,0x0000000018FF4831,true,,,,
"CAN","control_field",0.0083475625,1.2e-05,,,0x0000000000000008,,,
"CAN","data_field",0.0083635625,3.6e-05,,,,0x00,,
"CAN","data_field",0.0084035625,3.2e-05,,,,0x00,,
"CAN","data_field",0.0084395625,3.2e-05,,,,0xFF,,
"CAN","data_field",0.0084755625,3.6e-05,,,,0xFF,,
"CAN","data_field",0.0085155625,3.2e-05,,,,0x00,,
"CAN","data_field",0.0085515625,3.6e-05,,,,0x00,,
"CAN","data_field",0.0085915625,3.2e-05,,,,0x00,,
"CAN","data_field",0.0086275625,3.6e-05,,,,0x00,,
"CAN","crc_field",0.0086675625,6e-05,,,,,0x0000000000001F94,
"CAN","ack_field",0.0087355625,4e-06,,,,,,true
"CAN","identifier_field",0.008815875,0.000136,0x0000000018FEF231,true,,,,
"CAN","control_field",0.008955875,1.2e-05,,,0x0000000000000008,,,
"CAN","data_field",0.008971875,3.2e-05,,,,0xFF,,
"CAN","data_field",0.009007875,3.6e-05,,,,0xFF,,
"CAN","data_field",0.009047875,3.2e-05,,,,0xFF,,
"CAN","data_field",0.009083875,3.6e-05,,,,0xFF,,
"CAN","data_field",0.009123875,3.2e-05,,,,0xFF,,
"CAN","data_field",0.009163875,3.2e-05,,,,0xFF,,
"CAN","data_field",0.009199875,3.6e-05,,,,0xFF,,
"CAN","data_field",0.009239875,3.2e-05,,,,0xFF,,
"CAN","crc_field",0.009275875,5.6e-05,,,,,0x0000000000002496,
"CAN","ack_field",0.009339875,4e-06,,,,,,true
"CAN","identifier_field",0.009392125,0.00014,0x000000000CF00203,true,,,,
"CAN","control_field",0.009536125,1.2e-05,,,0x0000000000000008,,,
"CAN","data_field",0.009552125,3.2e-05,,,,0xC0,,
"CAN","data_field",0.009588125,3.2e-05,,,,0x00,,
"CAN","data_field",0.009624125,3.6e-05,,,,0x00,,
"CAN","data_field",0.009664125,3.2e-05,,,,0xFF,,
"CAN","data_field",0.009700125,3.2e-05,,,,0xF7,,
"CAN","data_field",0.009736125,2.8e-05,,,,0x50,,
"CAN","data_field",0.009768125,3.2e-05,,,,0x18,,
"CAN","data_field",0.009804125,3.2e-05,,,,0x03,,
"CAN","crc_field",0.009840125,6e-05,,,,,0x00000000000007D2,
"CAN","ack_field",0.009908125,4e-06,,,,,,true
"CAN","identifier_field",0.009960125,0.000136,0x000000000CF00331,true,,,,
"CAN","control_field",0.010100125,1.2e-05,,,0x0000000000000008,,,
"CAN","data_field",0.010116125,3.2e-05,,,,0xFF,,
"CAN","data_field",0.010152125,3.6e-05,,,,0xFF,,
"CAN","data_field",0.010192125,3.2e-05,,,,0xFF,,
"CAN","data_field",0.010228125,3.6e-05,,,,0xFF,,
"CAN","data_field",0.010268125,3.2e-05,,,,0xFF,,
"CAN","data_field",0.010308125,3.2e-05,,,,0xFF,,
"CAN","data_field",0.010344125,3.6e-05,,,,0xFF,,
"CAN","data_field",0.010384125,3.2e-05,,,,0xFF,,
"CAN","crc_field",0.010420125,5.6e-05,,,,,0x00000000000022DE,
"CAN","ack_field",0.010484125,4e-06,,,,,,true
"CAN","identifier_field",0.0105364375,0.00014,0x000000000CF00C03,true,,,,
"CAN","control_field",0.0106804375,1.2e-05,,,0x0000000000000008,,,
"CAN","data_field",0.0106964375,2.8e-05,,,,0xED,,
"CAN","data_field",0.0107284375,3.2e-05,,,,0x03,,
"CAN","data_field",0.0107644375,2.8e-05,,,,0xB0,,
"CAN","data_field",0.0107964375,3.2e-05,,,,0x18,,
"CAN","data_field",0.0108324375,3.2e-05,,,,0xFF,,
"CAN","data_field",0.0108684375,3.6e-05,,,,0xFF,,
"CAN","data_field",0.0109084375,3.2e-05,,,,0xFF,,
"CAN","data_field",0.0109444375,3.6e-05,,,,0xFF,,
"CAN","crc_field",0.0109844375,6.4e-05,,,,,0x000000000000700E,
"CAN","ack_field",0.0110564375,4e-06,,,,,,true
"CAN","identifier_field",0.0119046875,0.000148,0x0000000018FEDF00,true,,,,
"CAN","control_field",0.0120566875,1.2e-05,,,0x0000000000000008,,,
"CAN","data_field",0.0120726875,2.8e-05,,,,0x84,,
"CAN","data_field",0.0121046875,2.8e-05,,,,0xA0,,
"CAN","data_field",0.0121406875,2.8e-05,,,,0x28,,
"CAN","data_field",0.0121726875,3.2e-05,,,,0x7D,,
"CAN","data_field",0.0122086875,3.2e-05,,,,0x7D,,
"CAN","data_field",0.0122446875,3.2e-05,,,,0xFF,,
"CAN","data_field",0.0122806875,3.6e-05,,,,0xFF,,
"CAN","data_field",0.0123206875,3.2e-05,,,,0xF0,,
"CAN","crc_field",0.0123566875,5.6e-05,,,,,0x0000000000004B5B,
"CAN","ack_field",0.0124206875,4e-06,,,,,,true
"CAN","identifier_field",0.0124770625,0.000144,0x0000000018F00F00,true,,,,
"CAN","control_field",0.0126250625,1.2e-05,,,0x0000000000000008,,,
"CAN","data_field",0.0126410625,3.2e-05,,,,0xFF,,
"CAN","data_field",0.0126770625,3.6e-05,,,,0xFF,,
"CAN","data_field",0.0127170625,3.2e-05,,,,0xFF,,
"CAN","data_field",0.0127530625,3.6e-05,,,,0xFF,,
"CAN","data_field",0.0127930625,3.2e-05,,,,0xFF,,
"CAN","data_field",0.0128330625,3.2e-05,,,,0xFF,,
"CAN","data_field",0.0128690625,3.6e-05,,,,0xFF,,
"CAN","data_field",0.0129090625,3.2e-05,,,,0xFF,,
"CAN","crc_field",0.0129450625,6e-05,,,,,0x0000000000007AF3,
"CAN","ack_field",0.0130130625,4e-06,,,,,,true
"CAN","identifier_field",0.0163419375,0.000144,0x000000000CF00300,true,,,,
"CAN","control_field",0.0164899375,1.2e-05,,,0x0000000000000008,,,
"CAN","data_field",0.0165059375,2.8e-05,,,,0xD1,,
"CAN","data_field",0.0165379375,3.2e-05,,,,0x00,,
"CAN","data_field",0.0165739375,3.2e-05,,,,0x18,,
"CAN","data_field",0.0166099375,3.2e-05,,,,0xFF,,
"CAN","data_field",0.0166459375,3.6e-05,,,,0xFF,,
"CAN","data_field",0.0166859375,2.8e-05,,,,0x0F,,
"CAN","data_field",0.0167179375,3.2e-05,,,,0x8B,,
"CAN","data_field",0.0167539375,3.2e-05,,,,0x7E,,
"CAN","crc_field",0.0167899375,5.6e-05,,,,,0x0000000000000976,
"CAN","ack_field",0.0168539375,4e-06,,,,,,true
"CAN","identifier_field",0.01691025,0.000144,0x0000000018FEF100,true,,,,
"CAN","control_field",0.01705825,1.2e-05,,,0x0000000000000008,,,
"CAN","data_field",0.01707425,3.2e-05,,,,0xFF,,
"CAN","data_field",0.01711025,3.2e-05,,,,0x00,,
"CAN","data_field",0.01714625,3.6e-05,,,,0x00,,
"CAN","data_field",0.01718625,3.2e-05,,,,0xFC,,
"CAN","data_field",0.01722225,3.2e-05,,,,0xFF,,
"CAN","data_field",0.01725825,2.8e-05,,,,0x3D,,
"CAN","data_field",0.01729025,3.2e-05,,,,0x00,,
"CAN","data_field",0.01732625,2.8e-05,,,,0xCF,,
"CAN","crc_field",0.01735825,6.4e-05,,,,,0x000000000000497C,
"CAN","ack_field",0.01743025,4e-06,,,,,,true
"CAN","identifier_field",0.0190025,0.00014,0x000000000CF00203,true,,,,
"CAN","control_field",0.0191465,1.2e-05,,,0x0000000000000008,,,
"CAN","data_field",0.0191625,3.2e-05,,,,0xC0,,
"CAN","data_field",0.0191985,3.2e-05,,,,0x00,,
"CAN","data_field",0.0192345,3.6e-05,,,,0x00,,
"CAN","data_field",0.0192745,3.2e-05,,,,0xFF,,
"CAN","data_field",0.0193105,3.2e-05,,,,0xF7,,
"CAN","data_field",0.0193465,2.8e-05,,,,0x4D,,
"CAN","data_field",0.0193785,2.8e-05,,,,0x18,,
"CAN","data_field",0.0194105,3.2e-05,,,,0x03,,
"CAN","crc_field",0.0194465,5.6e-05,,,,,0x0000000000000CDA,
"CAN","ack_field",0.0195105,4e-06,,,,,,true
"CAN","identifier_field",0.02304725,0.000144,0x000000000CF00400,true,,,,
"CAN","control_field",0.02319525,1.2e-05,,,0x0000000000000008,,,
"CAN","data_field",0.02321125,2.8e-05,,,,0x50,,
"CAN","data_field",0.02324325,3.6e-05,,,,0x7D,,
"CAN","data_field",0.02328325,2.8e-05,,,,0x8A,,
"CAN","data_field",0.02331525,3.2e-05,,,,0xFA,,
"CAN","data_field",0.02335125,2.8e-05,,,,0x18,,
"CAN","data_field",0.02338325,3.6e-05,,,,0x00,,
"CAN","data_field",0.02342325,3.2e-05,,,,0x0F,,
"CAN","data_field",0.02346325,2.8e-05,,,,0x8B,,
"CAN","crc_field",0.02349525,5.6e-05,,,,,0x00000000000022A7,
"CAN","ack_field",0.02355925,4e-06,,,,,,true
"CAN","identifier_field",0.0258675,0.000144,0x000000000C010305,true,,,,
"CAN","control_field",0.0260155,1.2e-05,,,0x0000000000000008,,,
"CAN","data_field",0.0260315,3.2e-05,,,,0xFF,,
"CAN","data_field",0.0260675,3.6e-05,,,,0xFF,,
"CAN","data_field",0.0261075,3.2e-05,,,,0xFF,,
"CAN","data_field",0.0261435,3.6e-05,,,,0xFF,,
"CAN","data_field",0.0261835,3.2e-05,,,,0xFF,,
"CAN","data_field",0.0262235,2.8e-05,,,,0xF3,,
"CAN","data_field",0.0262555,3.2e-05,,,,0xFF,,
"CAN","data_field",0.0262955,3.2e-05,,,,0xFF,,
"CAN","crc_field",0.0263315,6.4e-05,,,,,0x000000000000007D,
"CAN","ack_field",0.0264035,4e-06,,,,,,true
"CAN","identifier_field",0.0264558125,0.000144,0x0000000010FDA300,true,,,,
"CAN","control_field",0.0266038125,1.2e-05,,,0x0000000000000008,,,
"CAN","data_field",0.0266198125,3.2e-05,,,,0xFF,,
"CAN","data_field",0.0266558125,3.6e-05,,,,0xFF,,
"CAN","data_field",0.0266958125,2.8e-05,,,,0x11,,
"CAN","data_field",0.0267278125,3.2e-05,,,,0xFF,,
"CAN","data_field",0.0267638125,3.6e-05,,,,0xFF,,
"CAN","data_field",0.0268038125,3.2e-05,,,,0xFF,,
"CAN","data_field",0.0268438125,3.2e-05,,,,0xFF,,
"CAN","data_field",0.0268798125,3.6e-05,,,,0xFF,,
"CAN","crc_field",0.0269198125,5.6e-05,,,,,0x00000000000076C5,
"CAN","ack_field",0.0269838125,4e-06,,,,,,true
"CAN","identifier_field",0.027040125,0.00014,0x0000000018F00029,true,,,,
"CAN","control_field",0.027184125,1.2e-05,,,0x0000000000000008,,,
"CAN","data_field",0.027200125,2.8e-05,,,,0xF0,,
"CAN","data_field",0.027232125,3.6e-05,,,,0x7D,,
"CAN","data_field",0.027272125,3.2e-05,,,,0x7D,,
"CAN","data_field",0.027308125,3.2e-05,,,,0xF3,,
"CAN","data_field",0.027344125,2.8e-05,,,,0x29,,
"CAN","data_field",0.027376125,3.2e-05,,,,0xFF,,
"CAN","data_field",0.027412125,3.6e-05,,,,0xFF,,
"CAN","data_field",0.027452125,2.8e-05,,,,0x3C,,
"CAN","crc_field",0.027484125,5.6e-05,,,,,0x000000000000684D,
"CAN","ack_field",0.027548125,4e-06,,,,,,true
"CAN","identifier_field",0.029004375,0.00014,0x000000000CF00203,true,,,,
"CAN","control_field",0.029148375,1.2e-05,,,0x0000000000000008,,,
"CAN","data_field",0.029164375,3.2e-05,,,,0xC0,,
"CAN","data_field",0.029200375,3.2e-05,,,,0x00,,
"CAN","data_field",0.029236375,3.6e-05,,,,0x00,,
"CAN","data_field",0.029276375,3.2e-05,,,,0xFF,,
"CAN","data_field",0.029312375,3.2e-05,,,,0xF7,,
"CAN","data_field",0.029348375,2.8e-05,,,,0x4D,,
"CAN","data_field",0.029380375,2.8e-05,,,,0x18,,
"CAN","data_field",0.029412375,3.2e-05,,,,0x03,,
"CAN","crc_field",0.029448375,5.6e-05,,,,,0x0000000000000CDA,
"CAN","ack_field",0.029512375,4e-06,,,,,,true
"CAN","identifier_field",0.029612625,0.00014,0x000000000CF00C03,true,,,,
"CAN","control_field",0.029756625,1.2e-05,,,0x0000000000000008,,,
"CAN","data_field",0.029772625,2.8e-05,,,,0xF0,,
"CAN","data_field",0.029804625,3.6e-05,,,,0x03,,
"CAN","data_field",0.029844625,3.2e-05,,,,0xF0,,
"CAN","data_field",0.029880625,3.2e-05,,,,0x18,,
"CAN","data_field",0.029916625,3.2e-05,,,,0xFF,,
"CAN","data_field",0.029952625,3.6e-05,,,,0xFF,,
"CAN","data_field",0.029992625,3.2e-05,,,,0xFF,,
"CAN","data_field",0.030028625,3.6e-05,,,,0xFF,,
"CAN","crc_field",0.030068625,6e-05,,,,,0x00000000000074D5,
"CAN","ack_field",0.030136625,4e-06,,,,,,true
"CAN","identifier_field",0.031757125,0.000148,0x0000000018FEDF00,true,,,,
"CAN","control_field",0.031909125,1.2e-05,,,0x0000000000000008,,,
"CAN","data_field",0.031925125,2.8e-05,,,,0x84,,
"CAN","data_field",0.031957125,2.8e-05,,,,0xA0,,
"CAN","data_field",0.031993125,2.8e-05,,,,0x28,,
"CAN","data_field",0.032025125,3.2e-05,,,,0x7D,,
"CAN","data_field",0.032061125,3.2e-05,,,,0x7D,,
"CAN","data_field",0.032097125,3.2e-05,,,,0xFF,,
"CAN","data_field",0.032133125,3.6e-05,,,,0xFF,,
"CAN","data_field",0.032173125,3.2e-05,,,,0xF0,,
"CAN","crc_field",0.032209125,5.6e-05,,,,,0x0000000000004B5B,
"CAN","ack_field",0.032273125,4e-06,,,,,,true
"CAN","identifier_field",0.036326125,0.000144,0x0000000018FCDC00,true,,,,
"CAN","control_field",0.036474125,1.2e-05,,,0x0000000000000008,,,
"CAN","data_field",0.036490125,2.8e-05,,,,0x9F,,
"CAN","data_field",0.036526125,3.2e-05,,,,0xFF,,
"CAN","data_field",0.036562125,3.6e-05,,,,0xFF,,
"CAN","data_field",0.036602125,3.2e-05,,,,0xFF,,
"CAN","data_field",0.036638125,3.2e-05,,,,0xF8,,
"CAN","data_field",0.036674125,3.6e-05,,,,0x3D,,
"CAN","data_field",0.036714125,3.2e-05,,,,0x00,,
"CAN","data_field",0.036750125,3.6e-05,,,,0x00,,
"CAN","crc_field",0.036790125,6e-05,,,,,0x00000000000006E4,
"CAN","ack_field",0.036858125,4e-06,,,,,,true
"CAN","identifier_field",0.0369144375,0.000144,0x000000000CF00300,true,,,,
"CAN","control_field",0.0370624375,1.2e-05,,,0x0000000000000008,,,
"CAN","data_field",0.0370784375,2.8e-05,,,,0xD1,,
"CAN","data_field",0.0371104375,3.2e-05,,,,0x00,,
"CAN","data_field",0.0371464375,3.2e-05,,,,0x18,,
"CAN","data_field",0.0371824375,3.2e-05,,,,0xFF,,
"CAN","data_field",0.0372184375,3.6e-05,,,,0xFF,,
"CAN","data_field",0.0372584375,2.8e-05,,,,0x0F,,
"CAN","data_field",0.0372904375,3.2e-05,,,,0x8B,,
"CAN","data_field",0.0373264375,3.2e-05,,,,0x7E,,
"CAN","crc_field",0.0373624375,5.6e-05,,,,,0x0000000000000976,
"CAN","ack_field",0.0374264375,4e-06,,,,,,true
"CAN","identifier_field",0.0374828125,0.000144,0x000000001CFE9200,true,,,,
"CAN","control_field",0.0376308125,1.2e-05,,,0x0000000000000008,,,
"CAN","data_field",0.0376468125,3.2e-05,,,,0xFF,,
"CAN","data_field",0.0376828125,2.8e-05,,,,0x98,,
"CAN","data_field",0.0377148125,2.8e-05,,,,0x92,,
"CAN","data_field",0.0377468125,3.2e-05,,,,0xFF,,
"CAN","data_field",0.0377828125,3.6e-05,,,,0xFF,,
"CAN","data_field",0.0378228125,3.2e-05,,,,0xFF,,
"CAN","data_field",0.0378588125,2.8e-05,,,,0x0A,,
"CAN","data_field",0.0378908125,3.2e-05,,,,0x00,,
"CAN","crc_field",0.0379268125,6e-05,,,,,0x0000000000002CBA,
"CAN","ack_field",0.0379948125,4e-06,,,,,,true
"CAN","identifier_field",0.03900325,0.00014,0x000000000CF00203,true,,,,
"CAN","control_field",0.03914725,1.2e-05,,,0x0000000000000008,,,
"CAN","data_field",0.03916325,3.2e-05,,,,0xC0,,
"CAN","data_field",0.03919925,3.2e-05,,,,0x00,,
"CAN","data_field",0.03923525,3.6e-05,,,,0x00,,
"CAN","data_field",0.03927525,3.2e-05,,,,0xFF,,
"CAN","data_field",0.03931125,3.2e-05,,,,0xF7,,
"CAN","data_field",0.03934725,2.8e-05,,,,0x45,,
"CAN","data_field",0.03937925,2.8e-05,,,,0x18,,
"CAN","data_field",0.03941125,3.2e-05,,,,0x03,,
"CAN","crc_field",0.03944725,6e-05,,,,,0x0000000000005F87,
"CAN","ack_field",0.03951525,4e-06,,,,,,true
"CAN","identifier_field",0.043096,0.000144,0x000000000CF00400,true,,,,
"CAN","control_field",0.043244,1.2e-05,,,0x0000000000000008,,,
"CAN","data_field",0.04326,3.2e-05,,,,0x30,,
"CAN","data_field",0.043296,3.6e-05,,,,0x7D,,
"CAN","data_field",0.043336,2.8e-05,,,,0x8A,,
"CAN","data_field",0.043368,3.2e-05,,,,0x0C,,
"CAN","data_field",0.043404,3.2e-05,,,,0x19,,
"CAN","data_field",0.04344,3.2e-05,,,,0x00,,
"CAN","data_field",0.043476,3.2e-05,,,,0x0F,,
"CAN","data_field",0.043512,3.2e-05,,,,0x8A,,
"CAN","crc_field",0.043548,5.6e-05,,,,,0x000000000000621B,
"CAN","ack_field",0.043612,4e-06,,,,,,true
"CAN","identifier_field",0.04633675,0.000144,0x000000000CF00A00,true,,,,
"CAN","control_field",0.04648475,1.2e-05,,,0x0000000000000008,,,
"CAN","data_field",0.04650075,3.2e-05,,,,0x04,,
"CAN","data_field",0.04653675,3.2e-05,,,,0x05,,
"CAN","data_field",0.04657275,2.8e-05,,,,0x4F,,
"CAN","data_field",0.04660475,3.2e-05,,,,0x05,,
"CAN","data_field",0.04664075,3.2e-05,,,,0xFF,,
"CAN","data_field",0.04667675,3.6e-05,,,,0xFF,,
"CAN","data_field",0.04671675,3.2e-05,,,,0xFF,,
"CAN","data_field",0.04675675,3.2e-05,,,,0xFF,,
"CAN","crc_field",0.04679275,5.6e-05,,,,,0x0000000000002524,
"CAN","ack_field",0.04685675,4e-06,,,,,,true
"CAN","identifier_field",0.0469130625,0.000144,0x0000000018FD9400,true,,,,
"CAN","control_field",0.0470610625,1.2e-05,,,0x0000000000000008,,,
"CAN","data_field",0.0470770625,2.8e-05,,,,0x63,,
"CAN","data_field",0.0471090625,2.8e-05,,,,0x17,,
"CAN","data_field",0.0471410625,3.6e-05,,,,0xFF,,
"CAN","data_field",0.0471810625,3.2e-05,,,,0xFF,,
"CAN","data_field",0.0472170625,3.6e-05,,,,0xFF,,
"CAN","data_field",0.0472570625,3.2e-05,,,,0xFF,,
"CAN","data_field",0.0472970625,3.2e-05,,,,0xFF,,
"CAN","data_field",0.0473330625,3.6e-05,,,,0xFF,,
"CAN","crc_field",0.0473730625,6e-05,,,,,0x0000000000003EE8,
"CAN","ack_field",0.0474410625,4e-06,,,,,,true
"CAN","identifier_field",0.0474974375,0.000144,0x0000000018F00E00,true,,,,
"CAN","control_field",0.0476454375,1.2e-05,,,0x0000000000000008,,,
"CAN","data_field",0.0476614375,3.2e-05,,,,0xFF,,
"CAN","data_field",0.0476974375,3.6e-05,,,,0xFF,,
"CAN","data_field",0.0477374375,3.2e-05,,,,0xFF,,
"CAN","data_field",0.0477734375,3.6e-05,,,,0xFF,,
"CAN","data_field",0.0478134375,3.2e-05,,,,0xFF,,
"CAN","data_field",0.0478534375,3.2e-05,,,,0xFF,,
"CAN","data_field",0.0478894375,3.6e-05,,,,0xFF,,
"CAN","data_field",0.0479294375,3.2e-05,,,,0xFF,,
"CAN","crc_field",0.0479654375,6.4e-05,,,,,0x0000000000005A00,
"CAN","ack_field",0.0480374375,4e-06,,,,,,true
"CAN","identifier_field",0.0490138125,0.00014,0x000000000CF00203,true,,,,
