 (000.000000)  can0  0CF00C03   [8]  18 04 FA 2B FF FF FF FF
 (000.000536)  can0  18FEDF00   [8]  90 A0 28 7D 7D FF FF F5
 (000.002192)  can0  18F00503   [8]  7E 1E 0C 7E 35 20 31 43
 (000.002201)  can0  18FE4A03   [8]  03 0F 4F FF FF F3 FF FF
 (000.004231)  can0  0C010305   [8]  FF FF FF FF FF F3 FF FF
 (000.004854)  can0  18FEE000   [8]  03 00 00 00 19 96 35 00
 (000.005401)  can0  0CF00300   [8]  D0 6E 2F FF FF 4F 6F 89
 (000.009886)  can0  0CF00203   [8]  C1 5A 0C FF F7 4E 26 03
 (000.009894)  can0  18FEF200   [8]  1C 01 EE 01 A0 03 E1 FF
 (000.009967)  can0  18F00F00   [8]  68 18 FF FF D5 9F FF FF
 (000.012688)  can0  0CF00400   [8]  31 A6 A6 45 2C 00 0F A6
 (000.014604)  can0  18FEDB00   [8]  FF FF 2A 6F FF FF FF FF
 (000.017131)  can0  18F00131   [8]  FF FF FF 3F 00 FF FF FF
 (000.017675)  can0  18FEF131   [8]  F3 FF FF C3 CC FF FF F0
 (000.018254)  can0  18FEF031   [8]  FF FF FF FF FF FC CC FF
 (000.018817)  can0  0CF00203   [8]  C1 5A 0C FF F7 4E 26 03
 (000.019405)  can0  18FF4831   [8]  00 00 FF FF 00 00 00 00
 (000.019974)  can0  0CF00C03   [8]  1A 04 53 2C FF FF FF FF
 (000.020548)  can0  18FEDF00   [8]  90 A0 28 7D 7D FF FF F5
 (000.021167)  can0  18FEF231   [8]  FF FF FF FF FF FF FF FF
 (000.021754)  can0  10FCFD00   [8]  FF FF FF FF B9 75 FF FF
 (000.022316)  can0  0CF00331   [8]  FF FF FF FF FF FF FF FF
 (000.024852)  can0  0CF00300   [8]  D0 6E 2F FF FF 4F 6F 89
 (000.028817)  can0  0CF00203   [8]  C1 5E 0C FF F7 5A 26 03
 (000.029472)  can0  18FECA03   [8]  00 FF 00 00 00 00 FF FF
 (000.030091)  can0  18F00100   [8]  FF FF FF FF FF FF FF FF
 (000.031529)  can0  0CF00400   [8]  31 A6 A6 6E 2C 00 0F A6
 (000.034770)  can0  18FEF600   [8]  FF 04 60 FF FF FF FF FF
 (000.039131)  can0  0CF00203   [8]  C1 5E 0C FF F7 5A 26 03
 (000.039424)  can0  0CF00C03   [8]  1F 04 7D 2C FF FF FF FF
 (000.040042)  can0  18FEDF00   [8]  90 A0 28 7D 7D FF FF F5
 (000.045168)  can0  0CF00300   [8]  D0 6E 2F FF FF 4F 6F 89
 (000.045291)  can0  0CF00A00   [8]  D4 01 FE 10 FF FF FF FF
 (000.046685)  can0  18FEF000   [8]  FF FF FF C0 2B FF FF FF
 (000.046694)  can0  18F00E00   [8]  18 1F FF FF D5 9F FF FF
 (000.048832)  can0  0CF00203   [8]  C1 5F 0C FF F7 6B 26 03
 (000.049447)  can0  18F03300   [8]  FF FF FF FF FF FF FF FF
 (000.051501)  can0  0CF00400   [8]  21 A6 A6 97 2C 00 0F A6
 (000.054173)  can0  0C010305   [8]  FF FF FF FF FF F3 FF FF
 (000.054729)  can0  18F0010B   [8]  CF FF F0 FF FF CD FF FF
 (000.055304)  can0  18FCF200   [8]  E1 FF FF FF FF FF FF FF
 (000.058829)  can0  0CF00203   [8]  C1 5F 0C FF F7 6B 26 03
 (000.059428)  can0  0CF00C03   [8]  1C 04 89 2C FF FF FF FF
 (000.060003)  can0  18FEDF00   [8]  90 A0 28 7D 7D FF FF F5
 (000.060586)  can0  18FDC600   [8]  FC 04 FF FF FF FF FF FF
 (000.061187)  can0  18F00F00   [8]  6E 18 FF FF D5 9F FF FF
 (000.064273)  can0  18FEBF0B   [8]  50 0E 7A 80 78 7E FF FF
 (000.064799)  can0  0CF00300   [8]  D0 6E 2E FF FF 4F 6F 89
 (000.065508)  can0  18FEF100   [8]  FF 10 0E FC FF 68 00 CF
 (000.067135)  can0  0CF00331   [8]  FF FF FF FF FF FF FF FF
 (000.068813)  can0  0CF00203   [8]  C1 63 0C FF F7 90 26 03
 (000.071555)  can0  0CF00400   [8]  11 A6 A6 9A 2C 00 0F A6
 (000.075152)  can0  10FDA300   [8]  FF FF 22 FF FF FF FF FF
 (000.075162)  can0  18F00029   [8]  F0 7D 7D F3 29 FF FF 37
 (000.079143)  can0  0CF00203   [8]  C1 63 0C FF F7 90 26 03
 (000.079447)  can0  0CF00C03   [8]  1F 04 BD 2C FF FF FF FF
 (000.080004)  can0  18FEDF00   [8]  90 A0 28 7D 7D FF FF F5
 (000.084849)  can0  18FCDC00   [8]  9F FF FF FF 50 68 10 0E
 (000.085454)  can0  0CF00300   [8]  D0 6E 2E FF FF 4F 6E 89
 (000.086020)  can0  1CFE9200   [8]  FF 00 F5 FF FF FF 48 00
 (000.088801)  can0  0CF00203   [8]  C1 6B 0C FF F7 B0 26 03
 (000.091628)  can0  0CF00400   [8]  01 A6 A6 D1 2C 00 0F A6
 (000.094790)  can0  0CF00A00   [8]  F0 01 2C 11 FF FF FF FF
 (000.094904)  can0  18FD9400   [8]  96 02 FF FF FF FF FF FF
 (000.095538)  can0  18F00E00   [8]  BC 1D FF FF D5 9F FF FF
 (000.099098)  can0  0CF00203   [8]  C1 6B 0C FF F7 B0 26 03
 (000.099411)  can0  18F03300   [8]  FF FF FF FF FF FF FF FF
 (000.100128)  can0  0CF00C03   [8]  1C 04 C4 2C FF FF FF FF
 (000.100575)  can0  18FEDF00   [8]  90 A0 28 7D 7D FF FF F5
 (000.101125)  can0  18F00503   [8]  7E 1E 0C 7E 35 20 31 43
 (000.101851)  can0  18FE4A03   [8]  03 0F 4F FF FF F3 FF FF
 (000.104476)  can0  0C010305   [8]  FF FF FF FF FF F3 FF FF
 (000.104870)  can0  18FEF700   [8]  FF FF FF FF 17 01 FF FF
 (000.105459)  can0  18FEE000   [8]  03 00 00 00 19 96 35 00
 (000.106001)  can0  0CF00300   [8]  D0 6E 2E FF FF 4F 6E 88
 (000.109115)  can0  0CF00203   [8]  C1 79 0C FF F7 D2 26 03
 (000.109448)  can0  18FEF200   [8]  16 01 00 02 A1 03 E1 FF
 (000.110816)  can0  18F00F00   [8]  68 18 FF FF D5 9F FF FF
 (000.112425)  can0  0CF00400   [8]  71 A6 A5 01 2D 00 0F A6
 (000.117153)  can0  18F00131   [8]  FF FF FF 3F 00 FF FF FF
 (000.117725)  can0  18FEF131   [8]  F3 FF FF C3 CC FF FF F0
 (000.118323)  can0  18FEF031   [8]  FF FF FF FF FF FC CC FF
 (000.118867)  can0  0CF00203   [8]  C1 79 0C FF F7 D2 26 03
 (000.119440)  can0  18FF4831   [8]  00 00 FF FF 00 00 00 00
 (000.120014)  can0  0CF00C03   [8]  1C 04 12 2D FF FF FF FF
 (000.120595)  can0  18FEDF00   [8]  90 A0 28 7D 7D FF FF F5
 (000.121200)  can0  18FEF231   [8]  FF FF FF FF FF FF FF FF
 (000.121711)  can0  10FCFD00   [8]  FF FF FF FF 2C 75 FF FF
 (000.122331)  can0  0CF00331   [8]  FF FF FF FF FF FF FF FF
 (000.125265)  can0  18FEC100   [8]  72 A8 3B 05 5A 00 00 00
 (000.125345)  can0  0CF00300   [8]  D0 6E 2E FF FF 4F 6E 88
 (000.128835)  can0  0CF00203   [8]  C1 8A 0C FF F7 F9 26 03
 (000.129508)  can0  18F00100   [8]  FF FF FF FF FF FF FF FF
 (000.131577)  can0  0CF00400   [8]  71 A6 A5 1F 2D 00 0F A6
 (000.139265)  can0  0CF00203   [8]  C1 8A 0C FF F7 F9 26 03
 (000.139365)  can0  0CF00C03   [8]  1B 04 14 2D FF FF FF FF
 (000.140140)  can0  18FEDF00   [8]  90 A0 28 7D 7D FF FF F5
 (000.145285)  can0  0CF00300   [8]  D0 6D 2E FF FF 4F 6E 88
 (000.145296)  can0  0CF00A00   [8]  F0 01 6E 11 FF FF FF FF
 (000.145937)  can0  18FEF000   [8]  FF FF FF C0 2B FF FF FF
 (000.146503)  can0  18F00E00   [8]  E4 1B FF FF D5 9F FF FF
 (000.148829)  can0  0CF00203   [8]  C1 9A 0C FF F7 2C 27 03
 (000.149427)  can0  18FE5600   [8]  96 42 FF FF 1F 1F 00 FF
 (000.150024)  can0  18F03300   [8]  FF FF FF FF FF FF FF FF
 (000.151543)  can0  0CF00400   [8]  51 A6 A5 2F 2D 00 0F A6
 (000.154212)  can0  0C010305   [8]  FF FF FF FF FF F3 FF FF
 (000.154746)  can0  18F0010B   [8]  CF FF F0 FF FF CD FF FF
 (000.155358)  can0  18FCF200   [8]  E1 FF FF FF FF FF FF FF
 (000.159332)  can0  0CF00203   [8]  C1 9A 0C FF F7 2C 27 03
 (000.159382)  can0  0CF00C03   [8]  1B 04 4A 2D FF FF FF FF
 (000.160171)  can0  18FEDF00   [8]  90 A0 28 7D 7D FF FF F5
 (000.160537)  can0  18F00F00   [8]  6E 18 FF FF D5 9F FF FF
 (000.164457)  can0  18FEBF0B   [8]  70 0E 7A 80 7C 82 FF FF
 (000.164989)  can0  0CF00300   [8]  D0 6D 2E FF FF 4F 6E 88
 (000.165595)  can0  18FEF100   [8]  FF 3C 0E FC FF 68 00 CF
 (000.167140)  can0  0CF00331   [8]  FF FF FF FF FF FF FF FF
 (000.169557)  can0  0CF00203   [8]  C1 AC 0C FF F7 65 27 03
 (000.169568)  can0  18FD7B00   [8]  00 FF 7A BB 00 00 CB 56
 (000.172441)  can0  0CF00400   [8]  51 A6 A5 62 2D 00 0F A6
 (000.174935)  can0  10FDA300   [8]  FF FF 21 FF FF FF FF FF
 (000.174946)  can0  18F00029   [8]  F0 7D 7D F3 29 FF FF 37
 (000.178846)  can0  0CF00203   [8]  C1 AC 0C FF F7 65 27 03
 (000.179429)  can0  0CF00C03   [8]  18 04 5C 2D FF FF FF FF
 (000.180000)  can0  18FEDF00   [8]  90 A0 28 7D 7D FF FF F5
 (000.184842)  can0  18FCDC00   [8]  9F FF FF FF 50 68 3C 0E
 (000.185391)  can0  0CF00300   [8]  D0 6D 2E FF FF 4F 6E 88
 (000.186000)  can0  1CFE9200   [8]  FF EC F3 FF FF FF 48 00
 (000.188830)  can0  0CF00203   [8]  C1 BA 0C FF F7 90 27 03
 (000.191525)  can0  0CF00400   [8]  41 A6 A5 8D 2D 00 0F A6
 (000.194688)  can0  0CF00A00   [8]  FA 01 9D 11 FF FF FF FF
 (000.194979)  can0  18FD9400   [8]  30 05 FF FF FF FF FF FF
 (000.195613)  can0  18FEDD00   [8]  FF 0E 24 FF FF FF FF FF
 (000.196185)  can0  18F00E00   [8]  DC 1A FF FF D5 9F FF FF
 (000.198830)  can0  0CF00203   [8]  C1 BA 0C FF F7 90 27 03
 (000.199592)  can0  18F03300   [8]  FF FF FF FF FF FF FF FF
 (000.199992)  can0  0CF00C03   [8]  15 04 92 2D FF FF FF FF
 (000.200749)  can0  18FEDF00   [8]  90 A0 28 7D 7D FF FF F5
 (000.201111)  can0  18F00503   [8]  7E 1E 0C 7E 35 20 31 43
 (000.201708)  can0  18FE4A03   [8]  03 0F 4F FF FF F3 FF FF
 (000.204350)  can0  0C010305   [8]  FF FF FF FF FF F3 FF FF
 (000.204854)  can0  18FEE000   [8]  03 00 00 00 19 96 35 00
 (000.205415)  can0  0CF00300   [8]  D0 6D 2E FF FF 4F 6E 88
 (000.209278)  can0  0CF00203   [8]  C1 C3 0C FF F7 B9 27 03
 (000.209406)  can0  18FEF200   [8]  12 01 12 02 A0 03 E1 FF
 (000.210088)  can0  18F00F00   [8]  6A 18 FF FF D5 9F FF FF
 (000.211661)  can0  0CF00400   [8]  41 A6 A5 AD 2D 00 0F A6
 (000.214405)  can0  18FEE400   [8]  FF 3F FC FC 00 7F FF FF
 (000.217172)  can0  18F00131   [8]  FF FF FF 3F 00 FF FF FF
 (000.217716)  can0  18FEF131   [8]  F3 FF FF C3 CC FF FF F0
 (000.218291)  can0  18FEF031   [8]  FF FF FF FF FF FC CC FF
 (000.218863)  can0  0CF00203   [8]  C1 C3 0C FF F7 B9 27 03
 (000.219452)  can0  18FF4831   [8]  00 00 FF FF 00 00 00 00
 (000.220015)  can0  0CF00C03   [8]  17 04 B9 2D FF FF FF FF
 (000.220579)  can0  18FEDF00   [8]  90 A0 28 7D 7D FF FF F5
 (000.221180)  can0  18FEF231   [8]  FF FF FF FF FF FF FF FF
 (000.221729)  can0  10FCFD00   [8]  FF FF FF FF A3 75 FF FF
 (000.222306)  can0  0CF00331   [8]  FF FF FF FF FF FF FF FF
 (000.222938)  can0  0CFD9200   [8]  F4 FF FF FF FF FF FF FF
 (000.224902)  can0  0CF00300   [8]  D0 6D 2E FF FF 4F 6E 88
 (000.229314)  can0  0CF00203   [8]  C1 CF 0C FF F7 EC 27 03
 (000.229452)  can0  18F00100   [8]  FF FF FF FF FF FF FF FF
 (000.231564)  can0  0CF00400   [8]  41 A6 A5 D1 2D 00 0F A6
 (000.239265)  can0  0CF00203   [8]  C1 CF 0C FF F7 EC 27 03
 (000.239373)  can0  0CF00C03   [8]  14 04 CE 2D FF FF FF FF
 (000.240125)  can0  18FEDF00   [8]  90 A0 28 7D 7D FF FF F5
 (000.244809)  can0  0CF00300   [8]  D0 6D 2E FF FF 4F 6E 88
 (000.245354)  can0  0CF00A00   [8]  4E 02 A6 11 FF FF FF FF
 (000.245951)  can0  18FEF000   [8]  FF FF FF C0 2B FF FF FF
 (000.246578)  can0  18FEBD00   [8]  00 F0 FF FF FF FF FF FF
 (000.247162)  can0  18F00E00   [8]  BA 19 FF FF D5 9F FF FF
 (000.248796)  can0  0CF00203   [8]  C1 DD 0C FF F7 18 28 03
 (000.249451)  can0  18F03300   [8]  FF FF FF FF FF FF FF FF
 (000.251516)  can0  0CF00400   [8]  51 A6 A5 E4 2D 00 0F A6
 (000.254184)  can0  0C010305   [8]  FF FF FF FF FF F3 FF FF
 (000.254733)  can0  18F0010B   [8]  CF FF F0 FF FF CD FF FF
 (000.255310)  can0  18FCF200   [8]  E1 FF FF FF FF FF FF FF
 (000.259297)  can0  0CF00203   [8]  C1 DD 0C FF F7 18 28 03
 (000.259378)  can0  0CF00C03   [8]  14 04 F9 2D FF FF FF FF
 (000.260017)  can0  18FEDF00   [8]  90 A0 28 7D 7D FF FF F5
 (000.260608)  can0  18E0FF00   [8]  00 FF FF FF FF FF FF FF
 (000.261181)  can0  18F00F00   [8]  5C 18 FF FF D5 9F FF FF
 (000.264710)  can0  18FEBF0B   [8]  D0 0E 7A 80 7C 80 FF FF
 (000.265277)  can0  18FD0700   [8]  43 0C FC FF FF FF FF FF
 (000.265861)  can0  0CF00300   [8]  D0 6D 2E FF FF 4F 6E 89
 (000.266413)  can0  18FEF100   [8]  FF 94 0E FC FF 68 00 CF
 (000.267112)  can0  0CF00331   [8]  FF FF FF FF FF FF FF FF
 (000.269541)  can0  0CF00203   [8]  C1 EF 0C FF F7 39 28 03
 (000.269552)  can0  18FEEE00   [8]  81 FF FF FF FF FF FF FF
 (000.271721)  can0  0CF00400   [8]  51 A6 A5 03 2E 00 0F A6
 (000.275108)  can0  10FDA300   [8]  FF FF 29 FF FF FF FF FF
 (000.275122)  can0  18F00029   [8]  F0 7D 7D F3 29 FF FF 37
 (000.278843)  can0  0CF00203   [8]  C1 EF 0C FF F7 39 28 03
 (000.279426)  can0  0CF00C03   [8]  12 04 0A 2E FF FF FF FF
 (000.280024)  can0  18FEDF00   [8]  90 A0 28 7D 7D FF FF F5
 (000.284876)  can0  18FCDC00   [8]  9F FF FF FF 50 68 94 0E
 (000.285434)  can0  0CF00300   [8]  D0 6D 2E FF FF 4F 6E 89
 (000.286024)  can0  1CFE9200   [8]  FF 84 F5 FF FF FF 48 00
 (000.286601)  can0  18FEF500   [8]  A8 FF FF 93 26 FF FF FF
 (000.288831)  can0  0CF00203   [8]  C1 FD 0C FF F7 49 28 03
 (000.291569)  can0  0CF00400   [8]  31 A5 A5 18 2E 00 0F A5
 (000.295012)  can0  14FC9800   [8]  FF 00 00 00 00 00 00 FF
 (000.295025)  can0  0CF00A00   [8]  58 02 DF 11 FF FF FF FF
 (000.295582)  can0  18FD9400   [8]  30 05 FF FF FF FF FF FF
 (000.296221)  can0  18F00E00   [8]  24 19 FF FF D5 9F FF FF
 (000.298790)  can0  0CF00203   [8]  C1 FD 0C FF F7 49 28 03
 (000.299574)  can0  0CF00C03   [8]  14 04 59 2E FF FF FF FF
 (000.300039)  can0  18F03300   [8]  FF FF FF FF FF FF FF FF
 (000.300534)  can0  18F00503   [8]  7E 1E 0C 7E 35 20 31 43
 (000.301108)  can0  18FEDF00   [8]  90 A0 28 7D 7D FF FF F5
 (000.301738)  can0  18FE4A03   [8]  03 0F 4F FF FF F3 FF FF
 (000.304396)  can0  0C010305   [8]  FF FF FF FF FF F3 FF FF
 (000.304911)  can0  18FEE000   [8]  03 00 00 00 19 96 35 00
 (000.305495)  can0  0CF00300   [8]  D0 6D 2E FF FF 4F 6E 88
 (000.306048)  can0  18FEA400   [8]  FF FF 3B 2A FF FF 59 2C
 (000.309100)  can0  0CF00203   [8]  C1 07 0D FF F7 6F 28 03
 (000.309428)  can0  18FDB400   [8]  13 40 10 44 FF FF FF FF
 (000.310075)  can0  18FEF200   [8]  0F 01 21 02 A1 03 E1 FF
 (000.310604)  can0  18F00F00   [8]  42 18 FF FF D5 9F FF FF
 (000.311630)  can0  0CF00400   [8]  11 A5 A5 55 2E 00 0F A5
 (000.317160)  can0  18F00131   [8]  FF FF FF 3F 00 FF FF FF
 (000.317720)  can0  18FEF131   [8]  F3 FF FF C3 CC FF FF F0
 (000.318327)  can0  18FEF031   [8]  FF FF FF FF FF FC CC FF
 (000.318873)  can0  0CF00203   [8]  C1 07 0D FF F7 6F 28 03
 (000.319454)  can0  18FF4831   [8]  00 00 FF FF 00 00 00 00
 (000.320025)  can0  0CF00C03   [8]  13 04 51 2E FF FF FF FF
 (000.320579)  can0  18FEDF00   [8]  90 A0 28 7D 7D FF FF F5
 (000.321166)  can0  18FEF231   [8]  FF FF FF FF FF FF FF FF
 (000.321756)  can0  10FCFD00   [8]  FF FF FF FF C0 75 FF FF
 (000.322330)  can0  0CF00331   [8]  FF FF FF FF FF FF FF FF
 (000.324879)  can0  0CF00300   [8]  D0 6D 2D FF FF 4F 6E 88
 (000.329380)  can0  0CF00203   [8]  C1 11 0D FF F7 98 28 03
 (000.329449)  can0  18FD7C00   [8]  F8 83 00 00 C3 0F 03 FF
 (000.330181)  can0  18F00100   [8]  FF FF FF FF FF FF FF FF
 (000.331599)  can0  0CF00400   [8]  61 A5 A4 7F 2E 00 0F A5
 (000.334803)  can0  18FDB300   [8]  FF FF 00 39 FF FF FF FF
 (000.339030)  can0  0CF00203   [8]  C1 11 0D FF F7 98 28 03
 (000.339434)  can0  0CF00C03   [8]  13 04 8F 2E FF FF FF FF
 (000.340129)  can0  18FEDF00   [8]  8F A0 28 7D 7D FF FF F5
 (000.344802)  can0  0CF00300   [8]  D0 6D 2D FF FF 4F 6D 88
 (000.345368)  can0  0CF00A00   [8]  61 02 46 12 FF FF FF FF
 (000.345943)  can0  18FEF000   [8]  FF FF FF C0 2B FF FF FF
 (000.346520)  can0  18F00E00   [8]  E2 18 FF FF D5 9F FF FF
 (000.348804)  can0  0CF00203   [8]  C1 1B 0D FF F7 CF 28 03
 (000.349482)  can0  18F03300   [8]  FF FF FF FF FF FF FF FF
 (000.350077)  can0  18FE9A00   [8]  59 27 FF FF FF FF FF FF
 (000.351596)  can0  0CF00400   [8]  11 A4 A4 AF 2E 00 0F A4
 (000.354189)  can0  0C010305   [8]  FF FF FF FF FF F3 FF FF
 (000.354799)  can0  18FDB200   [8]  FF FF FF FF 08 00 FF FF
 (000.355339)  can0  18F0010B   [8]  CF FF F0 FF FF CD FF FF
 (000.355927)  can0  18FCF200   [8]  E1 FF FF FF FF FF FF FF
 (000.359100)  can0  0CF00203   [8]  C1 1B 0D FF F7 CF 28 03
 (000.359381)  can0  0CF00C03   [8]  12 04 BD 2E FF FF FF FF
 (000.360006)  can0  18FEDF00   [8]  8F A0 28 7D 7D FF FF F5
 (000.360595)  can0  18F00F00   [8]  3C 18 FF FF D5 9F FF FF
 (000.364832)  can0  0CF00300   [8]  D0 6D 2C FF FF 4F 6D 87
 (000.365402)  can0  18FEBF0B   [8]  20 0F 7B 7F 7B 81 FF FF
 (000.366042)  can0  18FEF100   [8]  FF D0 0E FC FF 68 00 CF
 (000.367150)  can0  0CF00331   [8]  FF FF FF FF FF FF FF FF
 (000.369452)  can0  0CF00203   [8]  C1 2A 0D FF F7 0C 29 03
 (000.372358)  can0  0CF00400   [8]  41 A4 A3 EC 2E 00 0F A4
 (000.374769)  can0  10FDA300   [8]  FF FF 29 FF FF FF FF FF
 (000.374976)  can0  18FE9900   [8]  FF FF FF FF FF FF FF FF
 (000.375597)  can0  18F00029   [8]  F0 7D 7D F3 29 FF FF 37
 (000.378798)  can0  0CF00203   [8]  C1 2A 0D FF F7 0C 29 03
 (000.379425)  can0  0CF00C03   [8]  12 04 23 2F FF FF FF FF
 (000.380010)  can0  18FD8C00   [8]  FF FF 07 00 FF FF FF FF
 (000.380585)  can0  18FEDF00   [8]  8F A0 28 7D 7D FF FF F5
 (000.384852)  can0  18FCDC00   [8]  9F FF FF FF 50 68 D0 0E
 (000.385424)  can0  0CF00300   [8]  D0 6D 2C FF FF 4F 6D 87
 (000.385993)  can0  1CFE9200   [8]  FF C0 E3 FF FF FF 48 00
 (000.388803)  can0  0CF00203   [8]  C1 3D 0D FF F7 56 29 03
 (000.391648)  can0  0CF00400   [8]  71 A3 A2 49 2F 00 0F A3
 (000.394868)  can0  0CF00A00   [8]  58 02 01 13 FF FF FF FF
 (000.394988)  can0  18FD9400   [8]  30 05 FF FF FF FF FF FF
 (000.395652)  can0  18FEFC00   [8]  FF FF FF FF FF FF FF FF
 (000.396208)  can0  18F00E00   [8]  D6 18 FF FF D5 9F FF FF
 (000.398836)  can0  0CF00203   [8]  C1 3D 0D FF F7 56 29 03
 (000.399429)  can0  0CF00C03   [8]  12 04 42 2F FF FF FF FF
 (000.400138)  can0  18FD2000   [8]  13 40 FF FF FF FF FF FF
 (000.400574)  can0  18F00503   [8]  7E 1E 0C 7E 35 20 31 43
 (000.401263)  can0  18F03300   [8]  FF FF FF FF FF FF FF FF
 (000.401719)  can0  18FE4A03   [8]  03 0F 4F FF FF F3 FF FF
 (000.402294)  can0  18FEDF00   [8]  8E A0 28 7D 7D FF FF F5
 (000.405101)  can0  0C010305   [8]  FF FF FF FF FF F3 FF FF
 (000.405110)  can0  18FEE000   [8]  03 00 00 00 19 96 35 00
 (000.405434)  can0  0CF00300   [8]  D0 6C 2C FF FF 4F 6D 87
 (000.408799)  can0  0CF00203   [8]  C1 59 0D FF F7 9C 29 03
 (000.409468)  can0  18FEF200   [8]  0E 01 2F 02 A0 03 E1 FF
 (000.410071)  can0  18F00F00   [8]  3A 18 FF FF D5 9F FF FF
 (000.411525)  can0  0CF00400   [8]  11 A2 A2 82 2F 00 0F A2
 (000.417282)  can0  18F00131   [8]  FF FF FF 3F 00 FF FF FF
 (000.417695)  can0  18FEF131   [8]  F3 FF FF C3 CC FF FF F0
 (000.418299)  can0  18FEF031   [8]  FF FF FF FF FF FC CC FF
 (000.418843)  can0  0CF00203   [8]  C1 59 0D FF F7 9C 29 03
 (000.419408)  can0  18FF4831   [8]  00 00 FF FF 00 00 00 00
 (000.420026)  can0  0CF00C03   [8]  11 04 A0 2F FF FF FF FF
 (000.420518)  can0  18FEDF00   [8]  8E A0 28 7D 7D FF FF F5
 (000.421178)  can0  18FEF231   [8]  FF FF FF FF FF FF FF FF
 (000.421784)  can0  10FCFD00   [8]  FF FF FF FF E3 6F FF FF
 (000.422366)  can0  0CF00331   [8]  FF FF FF FF FF FF FF FF
 (000.424976)  can0  18FD3E00   [8]  CC 35 FF 96 38 FF FF FF
 (000.425481)  can0  0CF00300   [8]  D0 6A 2B FF FF 4F 6D 86
 (000.428803)  can0  0CF00203   [8]  C1 73 0D FF F7 D5 29 03
 (000.430282)  can0  18F00100   [8]  FF FF FF FF FF FF FF FF
 (000.431594)  can0  0CF00400   [8]  11 A1 A1 B9 2F 00 0F A1
 (000.439276)  can0  0CF00203   [8]  C1 73 0D FF F7 D5 29 03
 (000.439425)  can0  0CF00C03   [8]  10 04 C7 2F FF FF FF FF
 (000.439993)  can0  18FEDF00   [8]  8E A0 28 7D 7D FF FF F5
 (000.444834)  can0  18FD4000   [8]  FF 3F 00 FF FF FF FF FF
 (000.445455)  can0  0CF00300   [8]  D0 68 2A FF FF 4F 6D 86
 (000.446052)  can0  0CF00A00   [8]  58 02 97 13 FF FF FF FF
 (000.446680)  can0  18FEF000   [8]  FF FF FF C0 2B FF FF FF
 (000.447236)  can0  18F00E00   [8]  D6 18 FF FF D5 9F FF FF
 (000.447818)  can0  1CECFF00   [8]  20 0E 00 02 FF CA FE 00
 (000.448907)  can0  0CF00203   [8]  C1 86 0D FF F7 F9 29 03
 (000.449534)  can0  18F03300   [8]  FF FF FF FF FF FF FF FF
 (000.451544)  can0  0CF00400   [8]  71 A0 9F F4 2F 00 0F A0
 (000.454177)  can0  0C010305   [8]  FF FF FF FF FF F3 FF FF
 (000.454775)  can0  18FCF200   [8]  E1 FF FF FF FF FF FF FF
 (000.455313)  can0  18F0010B   [8]  CF FF F0 FF FF CD FF FF
 (000.459112)  can0  0CF00203   [8]  C1 86 0D FF F7 F9 29 03
 (000.459380)  can0  0CF00C03   [8]  12 04 22 30 FF FF FF FF
 (000.460007)  can0  18FEDF00   [8]  8D A0 28 7D 7D FF FF F5
 (000.460552)  can0  18F00F00   [8]  30 18 FF FF D5 9F FF FF
 (000.464829)  can0  0CF00300   [8]  D0 65 29 FF FF 4F 6D 86
 (000.465451)  can0  18FEBF0B   [8]  50 0F 7C 7E 80 80 FF FF
 (000.466101)  can0  18FEF100   [8]  FF 3C 0F FC FF 68 00 CF
 (000.467148)  can0  0CF00331   [8]  FF FF FF FF FF FF FF FF
 (000.469472)  can0  0CF00203   [8]  C1 8E 0D FF F7 17 2A 03
 (000.469523)  can0  18FCC500   [8]  CC 35 FF FF FF FF FF FF
 (000.470159)  can0  0CFD9200   [8]  F4 FF FF FF FF FF FF FF
 (000.471668)  can0  0CF00400   [8]  41 9F 9E 27 30 00 0F 9F
 (000.474473)  can0  10FDA300   [8]  FF FF 23 FF FF FF FF FF
 (000.475071)  can0  18F00029   [8]  F0 7D 7D F3 29 FF FF 36
 (000.479120)  can0  0CF00203   [8]  C1 8E 0D FF F7 17 2A 03
 (000.479383)  can0  0CF00C03   [8]  12 04 15 30 FF FF FF FF
 (000.480003)  can0  18FEDF00   [8]  8D A0 28 7D 7D FF FF F5
 (000.484887)  can0  18FCDC00   [8]  9F FF FF FF 50 68 3C 0F
 (000.485468)  can0  0CF00300   [8]  D0 63 27 FF FF 4F 6E 85
 (000.486020)  can0  1CFE9200   [8]  FF 70 D9 FF FF FF 44 00
 (000.488807)  can0  0CF00203   [8]  C1 94 0D FF F7 39 2A 03
 (000.491627)  can0  0CF00400   [8]  31 9D 9D 20 30 00 0F 9D
 (000.494517)  can0  0CF00A00   [8]  58 02 49 14 FF FF FF FF
 (000.495087)  can0  18FD9400   [8]  C9 07 FF FF FF FF FF FF
 (000.495629)  can0  18FEEF00   [8]  FF FF FF 49 90 7D FF FA
 (000.496213)  can0  18F00E00   [8]  D6 18 FF FF D5 9F FF FF
 (000.496785)  can0  1CEBFF00   [8]  01 43 FF BF 00 09 08 54
 (000.498884)  can0  0CF00203   [8]  C1 94 0D FF F7 39 2A 03
 (000.499455)  can0  0CF00C03   [8]  13 04 21 30 FF FF FF FF
 (000.499997)  can0  18F03300   [8]  FF FF FF FF FF FF FF FF
 (000.500613)  can0  18F00503   [8]  7E 1E 0C 7E 35 20 31 43
 (000.501159)  can0  18FEDF00   [8]  8D A0 28 7D 7D FF FF F5
 (000.501742)  can0  18FE4A03   [8]  03 0F 4F FF FF F3 FF FF
 (000.504358)  can0  0C010305   [8]  FF FF FF FF FF F3 FF FF
 (000.504900)  can0  18FEE000   [8]  03 00 00 00 19 96 35 00
 (000.505496)  can0  0CF00300   [8]  D0 61 25 FF FF 4F 6F 85
 (000.508794)  can0  0CF00203   [8]  C1 99 0D FF F7 4E 2A 03
 (000.509488)  can0  18FEF200   [8]  30 01 FA 01 A0 03 E1 FF
 (000.510078)  can0  18F00F00   [8]  3A 18 FF FF D5 9F FF FF
 (000.512448)  can0  0CF00400   [8]  51 9D 9C 33 30 00 0F 9D
 (000.514519)  can0  18FEDB00   [8]  FF FF B4 69 FF FF FF FF
 (000.517153)  can0  18F00131   [8]  FF FF FF 3F 00 FF FF FF
 (000.517796)  can0  18FEF131   [8]  F3 FF FF C3 CC FF FF F0
 (000.518295)  can0  18FEF031   [8]  FF FF FF FF FF FC CC FF
 (000.518867)  can0  0CF00203   [8]  C1 99 0D FF F7 4E 2A 03
 (000.519446)  can0  18FF4831   [8]  00 00 FF FF 00 00 00 00
 (000.520041)  can0  0CF00C03   [8]  12 04 2F 30 FF FF FF FF
 (000.520597)  can0  18FEDF00   [8]  8D A0 28 7D 7D FF FF F5
 (000.521178)  can0  18FEF231   [8]  FF FF FF FF FF FF FF FF
 (000.521754)  can0  10FCFD00   [8]  FF FF FF FF A6 64 FF FF
 (000.522329)  can0  0CF00331   [8]  FF FF FF FF FF FF FF FF
 (000.525121)  can0  0CF00300   [8]  D0 60 25 FF FF 4F 70 85
 (000.528802)  can0  0CF00203   [8]  C1 9D 0D FF F7 50 2A 03
 (000.529562)  can0  18F00100   [8]  FF FF FF FF FF FF FF FF
 (000.531619)  can0  0CF00400   [8]  11 9C 9C 30 30 00 0F 9C
 (000.534813)  can0  18FEF600   [8]  FF 09 60 FF FF FF FF FF
 (000.538802)  can0  0CF00203   [8]  C1 9D 0D FF F7 50 2A 03
 (000.539418)  can0  0CF00C03   [8]  13 04 2D 30 FF FF FF FF
 (000.539976)  can0  18FEDF00   [8]  8D A0 28 7D 7D FF FF F5
 (000.545313)  can0  0CF00300   [8]  D0 60 24 FF FF 4F 71 85
 (000.545393)  can0  0CF00A00   [8]  58 02 A7 14 FF FF FF FF
 (000.546128)  can0  18FEF000   [8]  FF FF FF C0 2B FF FF FF
 (000.546647)  can0  18F00E00   [8]  18 19 FF FF D5 9F FF FF
 (000.548802)  can0  0CF00203   [8]  C1 A4 0D FF F7 59 2A 03
 (000.549609)  can0  18F03300   [8]  FF FF FF FF FF FF FF FF
 (000.551593)  can0  0CF00400   [8]  71 9C 9B 0E 30 00 0F 9C
 (000.552155)  can0  1CEBFF00   [8]  02 00 09 08 ED 14 1F 01
 (000.554162)  can0  0C010305   [8]  FF FF FF FF FF F3 FF FF
 (000.554749)  can0  18FCF200   [8]  E1 FF FF FF FF FF FF FF
 (000.555365)  can0  18F0010B   [8]  CF FF F0 FF FF CD FF FF
 (000.559252)  can0  0CF00203   [8]  C1 A4 0D FF F7 59 2A 03
 (000.559363)  can0  0CF00C03   [8]  13 04 13 30 FF FF FF FF
 (000.560002)  can0  18FEDF00   [8]  8D A0 28 7D 7D FF FF F5
 (000.560590)  can0  18FDC600   [8]  FC 04 FF FF FF FF FF FF
 (000.561154)  can0  18F00F00   [8]  44 18 FF FF D5 9F FF FF
 (000.564863)  can0  0CF00300   [8]  D0 60 24 FF FF 4F 71 85
 (000.565393)  can0  18FEBF0B   [8]  C0 0F 7B 7F 7D 7F FF FF
 (000.566017)  can0  18FEF100   [8]  FF 78 0F FC FF 68 00 CF
 (000.567130)  can0  0CF00331   [8]  FF FF FF FF FF FF FF FF
 (000.568800)  can0  0CF00203   [8]  C1 AD 0D FF F7 68 2A 03
 (000.571619)  can0  0CF00400   [8]  71 9C 9B EE 2F 00 0F 9C
 (000.574490)  can0  10FDA300   [8]  FF FF 26 FF FF FF FF FF
 (000.575041)  can0  18F00029   [8]  F0 7D 7D F3 29 FF FF 36
 (000.579150)  can0  0CF00203   [8]  C1 AD 0D FF F7 68 2A 03
 (000.579433)  can0  0CF00C03   [8]  12 04 D9 2F FF FF FF FF
 (000.579995)  can0  18FEDF00   [8]  8D A0 28 7D 7D FF FF F5
 (000.584911)  can0  18FCDC00   [8]  9F FF FF FF 50 68 78 0F
 (000.585464)  can0  0CF00300   [8]  D0 60 24 FF FF 4F 72 85
 (000.586024)  can0  1CFE9200   [8]  FF 7C D4 FF FF FF 36 00
 (000.588806)  can0  0CF00203   [8]  C1 B4 0D FF F7 7C 2A 03
 (000.592139)  can0  0CF00400   [8]  61 9C 9B EC 2F 00 0F 9C
 (000.595279)  can0  0CF00A00   [8]  6A 02 B0 14 FF FF FF FF
 (000.595290)  can0  18FD9400   [8]  30 05 FF FF FF FF FF FF
 (000.595577)  can0  18F00E00   [8]  5A 19 FF FF D5 9F FF FF
 (000.599102)  can0  0CF00203   [8]  C1 B4 0D FF F7 7C 2A 03
 (000.599455)  can0  0CF00C03   [8]  0F 04 E4 2F FF FF FF FF
 (000.600789)  can0  18F03300   [8]  FF FF FF FF FF FF FF FF
 (000.600797)  can0  18F00503   [8]  7E 1E 0C 7E 35 20 31 43
 (000.601144)  can0  18FEDF00   [8]  8D A0 28 7D 7D FF FF F5
 (000.601717)  can0  18FE4A03   [8]  03 0F 4F FF FF F3 FF FF
 (000.602393)  can0  18FD9503   [8]  CC FF FF AF FF FF FF FF
 (000.603039)  can0  18FEF803   [8]  FF FF FF FF C6 2B FF FF
 (000.604247)  can0  0C010305   [8]  FF FF FF FF FF F3 FF FF
 (000.605020)  can0  18FEE000   [8]  03 00 00 00 19 96 35 00
 (000.605593)  can0  0CF00300   [8]  D0 60 24 FF FF 4F 71 85
 (000.608835)  can0  0CF00203   [8]  C1 B8 0D FF F7 90 2A 03
 (000.609512)  can0  18FEF200   [8]  11 01 42 02 A1 03 E1 FF
 (000.610135)  can0  18F00F00   [8]  40 18 FF FF D5 9F FF FF
 (000.612092)  can0  0CF00400   [8]  51 9C 9B D3 2F 00 0F 9C
 (000.617158)  can0  18F00131   [8]  FF FF FF 3F 00 FF FF FF
 (000.617767)  can0  18FEF131   [8]  F3 FF FF C3 CC FF FF F0
 (000.618334)  can0  18FEF031   [8]  FF FF FF FF FF FC CC FF
 (000.618897)  can0  0CF00203   [8]  C1 B8 0D FF F7 90 2A 03
 (000.619456)  can0  18FF4831   [8]  00 00 FF FF 00 00 00 00
 (000.620054)  can0  0CF00C03   [8]  0F 04 CB 2F FF FF FF FF
 (000.620571)  can0  18FEDF00   [8]  8D A0 28 7D 7D FF FF F5
 (000.621952)  can0  18FEF231   [8]  FF FF FF FF FF FF FF FF
 (000.621960)  can0  10FCFD00   [8]  FF FF FF FF 59 62 FF FF
 (000.622321)  can0  0CF00331   [8]  FF FF FF FF FF FF FF FF
 (000.625139)  can0  0CF00300   [8]  D0 60 24 FF FF 4F 71 85
 (000.629184)  can0  0CF00203   [8]  C1 BD 0D FF F7 BD 2A 03
 (000.629506)  can0  18F00100   [8]  FF FF FF FF FF FF FF FF
 (000.632144)  can0  0CF00400   [8]  51 9C 9B B4 2F 00 0F 9C
 (000.638796)  can0  0CF00203   [8]  C1 BD 0D FF F7 BD 2A 03
 (000.639390)  can0  0CF00C03   [8]  0D 04 CE 2F FF FF FF FF
 (000.639985)  can0  18FEDF00   [8]  8D A0 28 7D 7D FF FF F5
 (000.645313)  can0  0CF00300   [8]  D0 60 24 FF FF 4F 71 85
 (000.645417)  can0  0CF00A00   [8]  32 02 21 15 FF FF FF FF
 (000.646927)  can0  18FEF000   [8]  FF FF FF C0 2B FF FF FF
 (000.646936)  can0  18F00E00   [8]  74 0B FF FF D5 9F FF FF
 (000.648804)  can0  0CF00203   [8]  C1 C8 0D FF F7 FC 2A 03
 (000.649529)  can0  18F03300   [8]  FF FF FF FF FF FF FF FF
 (000.652284)  can0  0CF00400   [8]  41 9C 9B C2 2F 00 0F 9C
 (000.654699)  can0  0C010305   [8]  FF FF FF FF FF F3 FF FF
 (000.654769)  can0  18FCF200   [8]  E1 FF FF FF FF FF FF FF
 (000.656309)  can0  18F0010B   [8]  CF FF F0 FF FF CD FF FF
 (000.659247)  can0  0CF00203   [8]  C1 C8 0D FF F7 FC 2A 03
 (000.659430)  can0  0CF00C03   [8]  0B 04 B0 2F FF FF FF FF
 (000.660129)  can0  18FEDF00   [8]  8C A0 28 7D 7D FF FF F5
 (000.660534)  can0  18F00F00   [8]  48 18 FF FF D5 9F FF FF
 (000.665579)  can0  0CF00300   [8]  D0 5F 24 FF FF 4F 72 85
 (000.665591)  can0  18FEF100   [8]  FF B8 0F FC FF 68 00 CF
 (000.665969)  can0  18FEBF0B   [8]  10 10 7C 7E 7E 7E FF FF
 (000.667106)  can0  0CF00331   [8]  FF FF FF FF FF FF FF FF
 (000.668800)  can0  0CF00203   [8]  C1 DD 0D FF F7 3F 2B 03
 (000.671617)  can0  0CF00400   [8]  51 9C 9B E1 2F 00 0F 9C
 (000.674520)  can0  10FDA300   [8]  FF FF 2D FF FF FF FF FF
 (000.675087)  can0  18F00029   [8]  F0 7D 7D F3 29 FF FF 36
 (000.679145)  can0  0CF00203   [8]  C1 DD 0D FF F7 3F 2B 03
 (000.679412)  can0  0CF00C03   [8]  08 04 EA 2F FF FF FF FF
 (000.680008)  can0  18FEDF00   [8]  8D A0 28 7D 7D FF FF F5
 (000.684950)  can0  18FCDC00   [8]  9F FF FF FF 50 68 B8 0F
 (000.685463)  can0  0CF00300   [8]  D0 5F 24 FF FF 4F 71 85
 (000.686029)  can0  1CFE9200   [8]  FF 48 D5 FF FF FF 34 00
 (000.689171)  can0  0CF00203   [8]  C1 F6 0D FF F7 6C 2B 03
 (000.692333)  can0  0CF00400   [8]  51 9C 9B E9 2F 00 0F 9C
 (000.694807)  can0  0CF00A00   [8]  00 00 5D 17 FF FF FF FF
 (000.695126)  can0  18FD9400   [8]  00 00 FF FF FF FF FF FF
 (000.695683)  can0  18F00E00   [8]  74 21 FF FF D5 9F FF FF
 (000.698856)  can0  0CF00203   [8]  C1 F6 0D FF F7 6C 2B 03
 (000.699427)  can0  0CF00C03   [8]  07 04 E2 2F FF FF FF FF
 (000.700026)  can0  18F03300   [8]  FF FF FF FF FF FF FF FF
 (000.700577)  can0  18F00503   [8]  7E 1E 0C 7E 35 20 31 43
 (000.701127)  can0  18FEDF00   [8]  8D A0 28 7D 7D FF FF F5
 (000.701702)  can0  18FE4A03   [8]  03 0F 4F FF FF F3 FF FF
 (000.704275)  can0  0C010305   [8]  FF FF FF FF FF F3 FF FF
 (000.704964)  can0  18FEE000   [8]  03 00 00 00 19 96 35 00
 (000.705519)  can0  0CF00300   [8]  D0 5F 24 FF FF 4F 72 85
 (000.708804)  can0  0CF00203   [8]  C1 09 0E FF F7 94 2B 03
 (000.709560)  can0  18FEF200   [8]  CE 00 07 03 A0 03 E1 FF
 (000.710127)  can0  18F00F00   [8]  52 18 FF FF D5 9F FF FF
 (000.711592)  can0  0CF00400   [8]  51 9C 9B E4 2F 00 0F 9C
 (000.717366)  can0  18F00131   [8]  FF FF FF 3F 00 FF FF FF
 (000.717729)  can0  18FEF131   [8]  F3 FF FF C3 CC FF FF F0
 (000.718379)  can0  18FEF031   [8]  FF FF FF FF FF FC CC FF
 (000.718872)  can0  0CF00203   [8]  C1 09 0E FF F7 94 2B 03
 (000.719476)  can0  18FF4831   [8]  00 00 FF FF 00 00 00 00
 (000.720023)  can0  0CF00C03   [8]  07 04 FF 2F FF FF FF FF
 (000.720617)  can0  18FEDF00   [8]  8D A0 28 7D 7D FF FF F5
 (000.721183)  can0  18FEF231   [8]  FF FF FF FF FF FF FF FF
 (000.721760)  can0  10FCFD00   [8]  FF FF FF FF 73 62 FF FF
 (000.722328)  can0  0CF00331   [8]  FF FF FF FF FF FF FF FF
 (000.722938)  can0  0CFD9200   [8]  F4 FF FF FF FF FF FF FF
 (000.725143)  can0  0CF00300   [8]  D0 5F 24 FF FF 4F 72 85
 (000.729127)  can0  0CF00203   [8]  C1 15 0E FF F7 B0 2B 03
 (000.729506)  can0  18F00100   [8]  FF FF FF FF FF FF FF FF
 (000.731622)  can0  0CF00400   [8]  51 9C 9B 16 30 00 0F 9C
 (000.738865)  can0  0CF00203   [8]  C1 15 0E FF F7 B0 2B 03
 (000.739386)  can0  0CF00C03   [8]  06 04 09 30 FF FF FF FF
 (000.739998)  can0  18FEDF00   [8]  8D A0 28 7D 7D FF FF F5
 (000.744885)  can0  0CF00300   [8]  D0 5F 24 FF FF 4F 72 85
 (000.745453)  can0  0CF00A00   [8]  00 00 9E 17 FF FF FF FF
 (000.746128)  can0  18FEF000   [8]  FF FF FF C0 2B FF FF FF
 (000.746618)  can0  18F00E00   [8]  02 21 FF FF D5 9F FF FF
 (000.748809)  can0  0CF00203   [8]  C1 1A 0E FF F7 CA 2B 03
 (000.750302)  can0  18F03300   [8]  FF FF FF FF FF FF FF FF
 (000.752330)  can0  0CF00400   [8]  51 9C 9B 40 30 00 0F 9C
 (000.754790)  can0  0C010305   [8]  FF FF FF FF FF F3 FF FF
 (000.754801)  can0  18FCF200   [8]  E1 FF FF FF FF FF FF FF
 (000.756489)  can0  18F0010B   [8]  CF FF F0 FF FF CD FF FF
 (000.758107)  can0  18FECA31   [8]  00 FF 00 00 00 00 FF FF
 (000.758165)  can0  18F11031   [8]  00 00 FF FF FF FF FF FF
 (000.758882)  can0  0CF00203   [8]  C1 1A 0E FF F7 CA 2B 03
 (000.759462)  can0  0CF00C03   [8]  06 04 55 30 FF FF FF FF
 (000.759984)  can0  18FEDF00   [8]  8D A0 28 7D 7D FF FF F5
 (000.760596)  can0  18F00F00   [8]  5A 18 FF FF D5 9F FF FF
 (000.764874)  can0  0CF00300   [8]  D0 5F 23 FF FF 4F 72 85
 (000.765463)  can0  18FEF100   [8]  FF F4 0F FC FF 68 00 CF
 (000.766001)  can0  18FEBF0B   [8]  50 10 7C 7E 7E 7E FF FF
 (000.767120)  can0  0CF00331   [8]  FF FF FF FF FF FF FF FF
 (000.768796)  can0  0CF00203   [8]  C1 1E 0E FF F7 ED 2B 03
 (000.771645)  can0  0CF00400   [8]  41 9B 9B 69 30 00 0F 9B
 (000.774694)  can0  10FDA300   [8]  FF FF 3B FF FF FF FF FF
 (000.775093)  can0  18F00029   [8]  F0 7D 7D F3 29 FF FF 36
 (000.779101)  can0  0CF00203   [8]  C1 1E 0E FF F7 ED 2B 03
 (000.779395)  can0  0CF00C03   [8]  06 04 5D 30 FF FF FF FF
 (000.779977)  can0  18FEDF00   [8]  8D A0 28 7D 7D FF FF F5
 (000.785677)  can0  18FCDC00   [8]  9F FF FF FF 50 68 F4 0F
 (000.785687)  can0  0CF00300   [8]  D0 5F 23 FF FF 4F 72 85
 (000.786033)  can0  1CFE9200   [8]  FF DC D4 FF FF FF 34 00
 (000.789068)  can0  0CF00203   [8]  C1 28 0E FF F7 20 2C 03
 (000.792331)  can0  0CF00400   [8]  11 9B 9B 68 30 00 0F 9B
 (000.794803)  can0  14FC9800   [8]  FF 00 00 00 00 00 00 FF
 (000.795037)  can0  0CF00A00   [8]  00 00 2B 18 FF FF FF FF
 (000.795655)  can0  18FD9400   [8]  00 00 FF FF FF FF FF FF
 (000.796226)  can0  18F00E00   [8]  B6 21 FF FF D5 9F FF FF
 (000.798801)  can0  0CF00203   [8]  C1 28 0E FF F7 20 2C 03
 (000.799418)  can0  0CF00C03   [8]  06 04 73 30 FF FF FF FF
 (000.800009)  can0  18F03300   [8]  FF FF FF FF FF FF FF FF
 (000.800556)  can0  18F00503   [8]  7E 1E 0C 7E 35 20 31 43
 (000.801120)  can0  18FEDF00   [8]  8D A0 28 7D 7D FF FF F5
 (000.801695)  can0  18FE4A03   [8]  03 0F 4F FF FF F3 FF FF
 (000.804263)  can0  0C010305   [8]  FF FF FF FF FF F3 FF FF
 (000.804931)  can0  18FEE000   [8]  03 00 00 00 19 96 35 00
 (000.805478)  can0  0CF00300   [8]  D0 5F 23 FF FF 4F 72 85
 (000.808803)  can0  0CF00203   [8]  C1 39 0E FF F7 51 2C 03
 (000.809501)  can0  18FDB400   [8]  66 40 FC 43 FF FF FF FF
 (000.810084)  can0  18FEF200   [8]  E3 00 CD 02 A1 03 E1 FF
 (000.810688)  can0  18F00F00   [8]  64 18 FF FF D5 9F FF FF
 (000.812450)  can0  0CF00400   [8]  71 9B 9A A2 30 00 0F 9B
 (000.817369)  can0  18F00131   [8]  FF FF FF 3F 00 FF FF FF
 (000.817695)  can0  18FEF131   [8]  F3 FF FF C3 CC FF FF F0
 (000.818402)  can0  18FEF031   [8]  FF FF FF FF FF FC CC FF
 (000.818810)  can0  0CF00203   [8]  C1 39 0E FF F7 51 2C 03
 (000.819434)  can0  18FF4831   [8]  00 00 FF FF 00 00 00 00
 (000.819999)  can0  0CF00C03   [8]  05 04 B2 30 FF FF FF FF
 (000.820585)  can0  18FEDF00   [8]  8C A0 28 7D 7D FF FF F5
 (000.821147)  can0  18FEF231   [8]  FF FF FF FF FF FF FF FF
 (000.821761)  can0  10FCFD00   [8]  FF FF FF FF 59 61 FF FF
 (000.822301)  can0  0CF00331   [8]  FF FF FF FF FF FF FF FF
 (000.825022)  can0  0CF00300   [8]  D0 5F 23 FF FF 4F 72 85
 (000.828795)  can0  0CF00203   [8]  C1 4E 0E FF F7 74 2C 03
 (000.829594)  can0  18F00100   [8]  FF FF FF FF FF FF FF FF
 (000.831669)  can0  0CF00400   [8]  31 9A 9A EB 30 00 0F 9A
 (000.834530)  can0  18FDB300   [8]  FF FF 10 39 FF FF FF FF
 (000.838855)  can0  0CF00203   [8]  C1 4E 0E FF F7 74 2C 03
 (000.839404)  can0  0CF00C03   [8]  05 04 F2 30 FF FF FF FF
 (000.839975)  can0  18FEDF00   [8]  8C A0 28 7D 7D FF FF F5
 (000.845237)  can0  0CF00300   [8]  D0 5F 23 FF FF 4F 73 84
 (000.845495)  can0  0CF00A00   [8]  00 00 E7 18 FF FF FF FF
 (000.846108)  can0  18FEF000   [8]  FF FF FF C0 2B FF FF FF
 (000.846654)  can0  18F00E00   [8]  62 23 FF FF D5 9F FF FF
 (000.848805)  can0  0CF00203   [8]  C1 63 0E FF F7 9B 2C 03
 (000.850258)  can0  18F03300   [8]  FF FF FF FF FF FF FF FF
 (000.852331)  can0  0CF00400   [8]  01 9A 9A 30 31 00 0F 9A
 (000.854753)  can0  0C010305   [8]  FF FF FF FF FF F3 FF FF
 (000.854763)  can0  18FDB200   [8]  FF FF FF FF 0A 00 FF FF
 (000.855396)  can0  18FCF200   [8]  E1 FF FF FF FF FF FF FF
 (000.856033)  can0  18F0010B   [8]  CF FF F0 FF FF CD FF FF
 (000.859105)  can0  0CF00203   [8]  C1 63 0E FF F7 9B 2C 03
 (000.859397)  can0  0CF00C03   [8]  05 04 2A 31 FF FF FF FF
 (000.859969)  can0  18FEDF00   [8]  8C A0 28 7D 7D FF FF F5
 (000.860547)  can0  18F00F00   [8]  6E 18 FF FF D5 9F FF FF
 (000.864924)  can0  0CF00300   [8]  D0 5F 22 FF FF 4F 73 84
 (000.865502)  can0  18FEF100   [8]  FF 4C 10 FC FF 68 00 CF
 (000.866074)  can0  18FEBF0B   [8]  80 10 7D 7D 7D 7F FF FF
 (000.867116)  can0  0CF00331   [8]  FF FF FF FF FF FF FF FF
 (000.868795)  can0  0CF00203   [8]  C1 6C 0E FF F7 CB 2C 03
 (000.871678)  can0  0CF00400   [8]  41 9A 99 1F 31 00 0F 9A
 (000.875265)  can0  10FDA300   [8]  FF FF 3C FF FF FF FF FF
 (000.875278)  can0  18F00029   [8]  F0 7D 7D F3 29 FF FF 36
 (000.879251)  can0  0CF00203   [8]  C1 6C 0E FF F7 CB 2C 03
 (000.879424)  can0  0CF00C03   [8]  06 04 32 31 FF FF FF FF
 (000.880114)  can0  18FD8C00   [8]  FF FF 0A 00 FF FF FF FF
 (000.880510)  can0  18FEDF00   [8]  8B A0 28 7D 7D FF FF F5
 (000.885147)  can0  18FCDC00   [8]  9F FF FF FF 50 68 4C 10
 (000.885482)  can0  0CF00300   [8]  D0 60 22 FF FF 4F 74 83
 (000.886188)  can0  1CFE9200   [8]  FF 30 C2 FF FF FF 32 00
 (000.889081)  can0  0CF00203   [8]  C1 77 0E FF F7 F6 2C 03
 (000.891690)  can0  0CF00400   [8]  11 99 99 6D 31 00 0F 99
 (000.894524)  can0  0CF00A00   [8]  00 00 BE 19 FF FF FF FF
 (000.895149)  can0  18FD9400   [8]  00 00 FF FF FF FF FF FF
 (000.895693)  can0  18F00E00   [8]  94 24 FF FF D5 9F FF FF
 (000.898875)  can0  0CF00203   [8]  C1 77 0E FF F7 F6 2C 03
 (000.899423)  can0  0CF00C03   [8]  05 04 7F 31 FF FF FF FF
 (000.900058)  can0  18FD2000   [8]  66 40 FF FF FF FF FF FF
 (000.900543)  can0  18F00503   [8]  7E 1E 0C 7E 35 20 31 43
 (000.901198)  can0  18F03300   [8]  FF FF FF FF FF FF FF FF
 (000.901691)  can0  18FE4A03   [8]  03 0F 4F FF FF F3 FF FF
 (000.902267)  can0  18FEDF00   [8]  8B A0 28 7D 7D FF FF F5
 (000.904270)  can0  0C010305   [8]  FF FF FF FF FF F3 FF FF
 (000.904982)  can0  18FEE000   [8]  03 00 00 00 19 96 35 00
 (000.905582)  can0  0CF00300   [8]  D0 60 21 FF FF 4F 76 83
 (000.908950)  can0  0CF00203   [8]  C1 7D 0E FF F7 0E 2D 03
 (000.909608)  can0  18FEF200   [8]  E2 00 DA 02 A0 03 E1 FF
 (000.910117)  can0  18F00F00   [8]  7C 18 FF FF D5 9F FF FF
 (000.911642)  can0  0CF00400   [8]  61 99 98 98 31 00 0F 99
 (000.917329)  can0  18F00131   [8]  FF FF FF 3F 00 FF FF FF
 (000.917683)  can0  18E0FF31   [8]  00 FF FF FF FF F0 FF FF
 (000.919046)  can0  18FEF131   [8]  F3 FF FF C3 CC FF FF F0
 (000.919054)  can0  0CF00203   [8]  C1 7D 0E FF F7 0E 2D 03
 (000.919421)  can0  18FEF031   [8]  FF FF FF FF FF FC CC FF
 (000.920062)  can0  0CF00C03   [8]  06 04 A4 31 FF FF FF FF
 (000.920599)  can0  18FEDF00   [8]  8A A0 28 7D 7D FF FF F5
 (000.921151)  can0  18FEFC31   [8]  FF 75 FF FF FF FF 00 FF
 (000.921759)  can0  10FCFD00   [8]  FF FF FF FF 09 5E FF FF
 (000.922365)  can0  18FEAE31   [8]  FF FF 60 60 FF FF FF FF
 (000.922889)  can0  18FEF731   [8]  FF FF FF FF 1A 01 FF FF
 (000.923535)  can0  18FF4831   [8]  00 00 FF FF 00 00 00 00
 (000.924121)  can0  18FD8331   [8]  F8 FF FF FF FF FF FF FF
 (000.924693)  can0  18FEF831   [8]  FF FF FF FF FF FF FF FF
 (000.925270)  can0  18FD3E00   [8]  D0 35 FF 90 38 FF FF FF
 (000.925827)  can0  18FEF231   [8]  FF FF FF FF FF FF FF FF
 (000.926370)  can0  0CF00300   [8]  D0 61 21 FF FF 4F 78 82
 (000.926949)  can0  18FEFA31   [8]  FF C0 C0 FF FF FF FF FF
 (000.927545)  can0  18FEC131   [8]  8A 42 67 06 FF FF FF FF
 (000.928121)  can0  0CF00331   [8]  FF FF FF FF FF FF FF FF
 (000.928822)  can0  0CF00203   [8]  C1 83 0E FF F7 30 2D 03
 (000.929779)  can0  18F00100   [8]  FF FF FF FF FF FF FF FF
 (000.932098)  can0  0CF00400   [8]  41 99 98 CA 31 00 0F 99
 (000.938802)  can0  0CF00203   [8]  C1 83 0E FF F7 30 2D 03
 (000.939402)  can0  0CF00C03   [8]  06 04 B4 31 FF FF FF FF
 (000.939973)  can0  18FEDF00   [8]  8A A0 28 7D 7D FF FF F5
 (000.945318)  can0  18FD4000   [8]  FF 3F 00 FF FF FF FF FF
 (000.945474)  can0  0CF00300   [8]  D0 61 21 FF FF 4F 79 82
 (000.946802)  can0  0CF00A00   [8]  00 00 96 1A FF FF FF FF
 (000.946810)  can0  18FEF000   [8]  FF FF FF C0 2B FF FF FF
 (000.947157)  can0  18F00E00   [8]  D4 25 FF FF D5 9F FF FF
 (000.948808)  can0  0C000003   [8]  EB B4 F5 DB FF F5 FF FF
 (000.949501)  can0  0CF00203   [8]  D1 A0 0E FF F7 63 2D 03
 (000.950021)  can0  18F03300   [8]  FF FF FF FF FF FF FF FF
 (000.952289)  can0  0CF00400   [8]  21 98 98 C2 31 00 0F 98
 (000.954705)  can0  0C010305   [8]  FF FF FF FF FF F3 FF FF
 (000.954758)  can0  18FCF200   [8]  E1 FF FF FF FF FF FF FF
 (000.956341)  can0  18F0010B   [8]  CF FF F0 FF FF CD FF FF
 (000.958799)  can0  0C000003   [8]  EB B4 F5 DB FF F5 FF FF
 (000.959418)  can0  0CF00203   [8]  D1 A0 0E FF F7 63 2D 03
 (000.959990)  can0  18FEDF00   [8]  8A A0 28 7D 7D FF FF F5
 (000.960543)  can0  0CF00C03   [8]  05 04 CD 31 FF FF FF FF
 (000.961144)  can0  18F00F00   [8]  34 24 FF FF D5 9F FF FF
 (000.965457)  can0  0CF00300   [8]  D0 61 21 FF FF 4F 7B 82
 (000.965466)  can0  18FEF100   [8]  FF 84 10 FC FF 68 00 CF
 (000.966405)  can0  18FEBF0B   [8]  C0 10 7D 7D 7D 7F FF FF
 (000.967095)  can0  0CF00331   [8]  FF FF FF FF FF FF FF FF
 (000.968819)  can0  0C000003   [8]  EB 9F F5 DB FF F5 FF FF
 (000.969421)  can0  0CF00203   [8]  D1 AF 0E FF F7 94 2D 03
 (000.969999)  can0  18FCC500   [8]  D0 35 FF FF FF FF FF FF
 (000.970569)  can0  0CFD9200   [8]  F4 FF FF FF FF FF FF FF
 (000.971704)  can0  0CF00400   [8]  01 98 98 EE 31 03 0F 98
 (000.974961)  can0  10FDA300   [8]  FF FF 31 FF FF FF FF FF
 (000.975156)  can0  18F00029   [8]  F0 7D 7D F3 29 FF FF 35
 (000.979040)  can0  0C000003   [8]  EB 9F F5 DB FF F5 FF FF
 (000.979436)  can0  0CF00203   [8]  D1 AF 0E FF F7 94 2D 03
 (000.979998)  can0  18FEDF00   [8]  89 A0 28 7D 7D FF FF F5
 (000.980579)  can0  0CF00C03   [8]  05 04 E8 31 FF FF FF FF
 (000.985204)  can0  18FCDC00   [8]  9F FF FF FF 50 68 84 10
 (000.985548)  can0  0CF00300   [8]  D0 61 21 FF FF 4F 7D 81
 (000.986233)  can0  1CFE9200   [8]  FF 90 B3 FF FF FF 34 00
 (000.988887)  can0  0C000003   [8]  EB 8D F5 DB FF F5 FF FF
 (000.989421)  can0  0CF00203   [8]  D1 BB 0E FF F7 AC 2D 03
 (000.991574)  can0  0CF00400   [8]  71 98 97 FB 31 03 0F 98
 (000.994524)  can0  0CF00A00   [8]  00 00 35 1B FF FF FF FF
 (000.995167)  can0  18FD9400   [8]  00 00 FF FF FF FF FF FF
 (000.995735)  can0  18FEEF00   [8]  FF FF FF 4C 95 7D FF FA
 (000.996324)  can0  18F00E00   [8]  CC 27 FF FF D5 9F FF FF
 (000.998816)  can0  0C000003   [8]  EB 8D F5 DB FF F5 FF FF
 (000.999532)  can0  0CF00203   [8]  D1 BB 0E FF F7 AC 2D 03
 (001.000022)  can0  18F03300   [8]  FF FF FF FF FF FF FF FF
 (001.000635)  can0  0CF00C03   [8]  05 04 29 32 FF FF FF FF
 (001.001121)  can0  18FEDF00   [8]  89 A0 28 7D 7D FF FF F5
 (001.001665)  can0  18F00503   [8]  7F 1E 0C 7E 35 20 31 43
 (001.002343)  can0  18FE4A03   [8]  03 0F 4F FF FF F3 FF FF
 (001.004277)  can0  0C010305   [8]  FF FF FF FF FF F3 FF FF
 (001.004999)  can0  18FEE000   [8]  03 00 00 00 19 96 35 00
 (001.005548)  can0  0CF00300   [8]  D0 61 21 FF FF 4F 7D 81
 (001.008805)  can0  0C000003   [8]  EB 88 F5 98 FF F5 FF FF
 (001.009428)  can0  0CF00203   [8]  D1 BD 0E FF F7 C1 2D 03
 (001.010030)  can0  18FEF200   [8]  BC 00 7F 03 A0 03 E1 FF
 (001.010611)  can0  18F00F00   [8]  16 1F FF FF D5 9F FF FF
 (001.012293)  can0  0CF00400   [8]  71 98 97 1E 32 03 0F 98
 (001.014607)  can0  18FEDB00   [8]  FF FF F8 5A FF FF FF FF
 (001.017399)  can0  18F00131   [8]  FF FF FF 3F 00 FF FF FF
 (001.017688)  can0  18FEF131   [8]  F3 FF FF C3 CC FF FF F0
 (001.018885)  can0  18FEF031   [8]  FF FF FF FF FF FC CC FF
 (001.018894)  can0  0C000003   [8]  EB 88 F5 98 FF F5 FF FF
 (001.019464)  can0  18FF4831   [8]  00 00 FF FF 00 00 00 00
 (001.020035)  can0  0CF00203   [8]  D1 BD 0E FF F7 C1 2D 03
 (001.020614)  can0  18FEDF00   [8]  89 A0 28 7D 7D FF FF F5
 (001.021145)  can0  0CF00C03   [8]  05 04 0C 32 FF FF FF FF
 (001.021718)  can0  10FCFD00   [8]  FF FF FF FF D6 5C FF FF
 (001.022300)  can0  18FEF231   [8]  FF FF FF FF FF FF FF FF
 (001.022891)  can0  0CF00331   [8]  FF FF FF FF FF FF FF FF
 (001.024979)  can0  0CF00300   [8]  D0 61 21 FF FF 4F 7E 81
 (001.029311)  can0  0C000003   [8]  EB 85 F5 98 FF F4 FF FF
 (001.029386)  can0  0CF00203   [8]  D1 C0 0E FF F7 D5 2D 03
 (001.030130)  can0  18F00100   [8]  FF FF FF FF FF FF FF FF
 (001.030592)  can0  18FECA03   [8]  00 FF 00 00 00 00 FF FF
 (001.032218)  can0  0CF00400   [8]  01 98 98 06 32 03 0F 98
 (001.034702)  can0  18FEF600   [8]  FF 0F 60 FF FF FF FF FF
 (001.039114)  can0  0C000003   [8]  EB 85 F5 98 FF F4 FF FF
 (001.039405)  can0  0CF00203   [8]  D1 C0 0E FF F7 D5 2D 03
 (001.040160)  can0  18FEDF00   [8]  89 A0 28 7D 7D FF FF F5
 (001.040558)  can0  0CF00C03   [8]  05 04 07 32 FF FF FF FF
 (001.044926)  can0  0CF00300   [8]  D0 62 21 FF FF 4F 7F 81
 (001.045561)  can0  0CF00A00   [8]  00 00 8A 1B FF FF FF FF
 (001.046160)  can0  18FEF000   [8]  FF FF FF C0 2B FF FF FF
 (001.046676)  can0  18F00E00   [8]  1C 28 FF FF D5 9F FF FF
 (001.048803)  can0  0C000003   [8]  EB 74 F5 97 FF F2 FF FF
 (001.049486)  can0  0CF00203   [8]  D1 C5 0E FF F7 F9 2D 03
 (001.050108)  can0  18F03300   [8]  FF FF FF FF FF FF FF FF
 (001.052210)  can0  0CF00400   [8]  71 98 97 33 32 03 0F 98
 (001.054230)  can0  0C010305   [8]  FF FF FF FF FF F3 FF FF
 (001.054817)  can0  18FCF200   [8]  E1 FF FF FF FF FF FF FF
 (001.056494)  can0  18F0010B   [8]  CF FF F0 FF FF CD FF FF
 (001.058759)  can0  0C000003   [8]  EB 74 F5 97 FF F2 FF FF
 (001.059440)  can0  0CF00203   [8]  D1 C5 0E FF F7 F9 2D 03
 (001.060027)  can0  18FEDF00   [8]  89 A0 28 7D 7D FF FF F5
 (001.060577)  can0  0CF00C03   [8]  03 04 2B 32 FF FF FF FF
 (001.061152)  can0  18FDC600   [8]  FC 04 FF FF FF FF FF FF
 (001.061733)  can0  18F00F00   [8]  86 14 FF FF D5 9F FF FF
 (001.065541)  can0  0CF00300   [8]  D0 62 21 FF FF 4F 81 81
 (001.065551)  can0  18FEF100   [8]  FF D8 10 FC FF 68 00 CF
 (001.066569)  can0  18FEBF0B   [8]  20 11 7D 7D 7B 7D FF FF
 (001.067095)  can0  0CF00331   [8]  FF FF FF FF FF FF FF FF
 (001.068746)  can0  0C000003   [8]  EB 62 F5 97 FF F1 FF FF
 (001.069390)  can0  0CF00203   [8]  D1 D1 0E FF F7 0F 2E 03
 (001.071703)  can0  0CF00400   [8]  36 98 97 30 32 03 0F 98
 (001.074884)  can0  10FDA300   [8]  FF FF 38 FF FF FF FF FF
 (001.075156)  can0  18F00029   [8]  F0 7D 7D F3 29 FF FF 35
 (001.079157)  can0  0C000003   [8]  EB 62 F5 97 FF F1 FF FF
 (001.079418)  can0  0CF00203   [8]  D1 D1 0E FF F7 0F 2E 03
 (001.079998)  can0  18FEDF00   [8]  89 A0 28 7D 7D FF FF F5
 (001.080581)  can0  0CF00C03   [8]  04 04 29 32 FF FF FF FF
 (001.085072)  can0  18FCDC00   [8]  9F FF FF FF 50 68 D8 10
 (001.085595)  can0  0CF00300   [8]  D0 62 20 FF FF 4F 80 81
 (001.086168)  can0  1CFE9200   [8]  FF CC B3 FF FF FF 36 00
 (001.088795)  can0  0C000003   [8]  EB 42 F5 97 FF F0 FF FF
 (001.089419)  can0  0CF00203   [8]  D1 E7 0E FF F7 35 2E 03
 (001.091630)  can0  0CF00400   [8]  16 98 97 1E 32 03 0F 98
 (001.094891)  can0  0CF00A00   [8]  00 00 F1 1B FF FF FF FF
 (001.095180)  can0  18FD9400   [8]  00 00 FF FF FF FF FF FF
 (001.095752)  can0  18F00E00   [8]  58 28 FF FF D5 9F FF FF
 (001.098869)  can0  0C000003   [8]  EB 42 F5 97 FF F0 FF FF
 (001.099469)  can0  0CF00203   [8]  D1 E7 0E FF F7 35 2E 03
 (001.100023)  can0  18F03300   [8]  FF FF FF FF FF FF FF FF
 (001.100593)  can0  0CF00C03   [8]  03 04 2E 32 FF FF FF FF
 (001.101175)  can0  18FEDF00   [8]  89 A0 28 7D 7D FF FF F5
 (001.101716)  can0  18F00503   [8]  7F 1E 0C 7E 35 20 31 43
 (001.102344)  can0  18FE4A03   [8]  03 0F 4F FF FF F3 FF FF
 (001.104268)  can0  0C010305   [8]  FF FF FF FF FF F3 FF FF
 (001.105075)  can0  18FEF700   [8]  FF FF FF FF 18 01 FF FF
 (001.105651)  can0  18FEE000   [8]  03 00 00 00 19 96 35 00
 (001.106263)  can0  0CF00300   [8]  D0 62 20 FF FF 4F 80 81
 (001.109260)  can0  0C000003   [8]  EB 2A F5 97 FF F7 FF FF
 (001.109524)  can0  0CF00203   [8]  D1 F0 0E FF F7 55 2E 03
 (001.110162)  can0  18FEF200   [8]  C9 00 53 03 A1 03 E1 FF
 (001.110718)  can0  18F00F00   [8]  AA 14 FF FF D5 9F FF FF
 (001.112313)  can0  0CF00400   [8]  06 98 97 3E 32 03 0F 98
 (001.117158)  can0  18F00131   [8]  FF FF FF 3F 00 FF FF FF
 (001.117724)  can0  18FEF131   [8]  F3 FF FF C3 CC FF FF F0
 (001.118296)  can0  18FEF031   [8]  FF FF FF FF FF FC CC FF
 (001.118915)  can0  18FF4831   [8]  00 00 FF FF 00 00 00 00
 (001.119468)  can0  0C000003   [8]  EB 2A F5 97 FF F7 FF FF
 (001.120043)  can0  18FEDF00   [8]  89 A0 28 7D 7D FF FF F5
 (001.120592)  can0  0CF00203   [8]  D1 F0 0E FF F7 55 2E 03
 (001.121168)  can0  10FCFD00   [8]  FF FF FF FF C9 5B FF FF
 (001.121751)  can0  0CF00C03   [8]  02 04 37 32 FF FF FF FF
 (001.122319)  can0  18FEF231   [8]  FF FF FF FF FF FF FF FF
 (001.122885)  can0  0CF00331   [8]  FF FF FF FF FF FF FF FF
 (001.125072)  can0  18FEC100   [8]  74 A8 3B 05 5A 00 00 00
 (001.125645)  can0  0CF00300   [8]  D0 62 20 FF FF 4F 80 81
 (001.129257)  can0  0C000003   [8]  EB 13 F5 97 FF F5 FF FF
 (001.129542)  can0  0CF00203   [8]  D1 F8 0E FF F7 73 2E 03
 (001.130252)  can0  18F00100   [8]  FF FF FF FF FF FF FF FF
 (001.131695)  can0  0CF00400   [8]  76 98 97 5C 32 03 0F 98
 (001.139255)  can0  0C000003   [8]  EB 13 F5 97 FF F5 FF FF
 (001.139549)  can0  0CF00203   [8]  D1 F8 0E FF F7 73 2E 03
 (001.140149)  can0  18FEDF00   [8]  89 A0 28 7D 7D FF FF F5
 (001.140695)  can0  0CF00C03   [8]  01 04 47 32 FF FF FF FF
 (001.145178)  can0  0CF00300   [8]  D0 62 21 FF FF 4F 82 81
 (001.145531)  can0  0CF00A00   [8]  00 00 32 1C FF FF FF FF
 (001.146275)  can0  18FEF000   [8]  FF FF FF C0 2B FF FF FF
 (001.146683)  can0  18F00E00   [8]  58 28 FF FF D5 9F FF FF
 (001.148956)  can0  0C000003   [8]  EB 04 F5 97 FF F4 FF FF
 (001.149535)  can0  0CF00203   [8]  D1 F9 0E FF F7 87 2E 03
 (001.150119)  can0  18FE5600   [8]  96 42 FF FF 1F 1F 00 FF
 (001.150698)  can0  18F03300   [8]  FF FF FF FF FF FF FF FF
 (001.151691)  can0  0CF00400   [8]  56 98 97 7E 32 03 0F 98
 (001.154222)  can0  0C010305   [8]  FF FF FF FF FF F3 FF FF
 (001.154800)  can0  18FCF200   [8]  E1 FF FF FF FF FF FF FF
 (001.156672)  can0  18F0010B   [8]  CF FF F0 FF FF CD FF FF
 (001.158901)  can0  0C000003   [8]  EB 04 F5 97 FF F4 FF FF
 (001.159554)  can0  0CF00203   [8]  D1 F9 0E FF F7 87 2E 03
 (001.160127)  can0  18FEDF00   [8]  89 A0 28 7D 7D FF FF F5
 (001.160680)  can0  0CF00C03   [8]  01 04 74 32 FF FF FF FF
 (001.161311)  can0  18F00F00   [8]  AC 14 FF FF D5 9F FF FF
 (001.164930)  can0  0CF00300   [8]  D0 62 20 FF FF 4F 82 81
 (001.165537)  can0  18FEF100   [8]  FF 0C 11 FC FF 68 00 CF
 (001.166977)  can0  18FEBF0B   [8]  60 11 7D 7D 7B 7D FF FF
 (001.167255)  can0  0CF00331   [8]  FF FF FF FF FF FF FF FF
 (001.168900)  can0  0C000003   [8]  EB F4 F4 96 FF F3 FF FF
 (001.169527)  can0  0CF00203   [8]  D1 FE 0E FF F7 B5 2E 03
 (001.170154)  can0  18FD7B00   [8]  00 FF 7B BB 00 00 CC 56
 (001.172293)  can0  0CF00400   [8]  46 98 97 60 32 03 0F 98
 (001.174763)  can0  10FDA300   [8]  FF FF 4A FF FF FF FF FF
 (001.175132)  can0  18F00029   [8]  F0 7D 7D F3 29 FF FF 35
 (001.179138)  can0  0C000003   [8]  EB F4 F4 96 FF F3 FF FF
 (001.179488)  can0  0CF00203   [8]  D1 FE 0E FF F7 B5 2E 03
 (001.180163)  can0  18FEDF00   [8]  89 A0 28 7D 7D FF FF F5
 (001.180695)  can0  0CF00C03   [8]  01 04 73 32 FF FF FF FF
 (001.185046)  can0  18FCDC00   [8]  9F FF FF FF 50 68 0C 11
 (001.185620)  can0  0CF00300   [8]  D0 62 20 FF FF 4F 82 81
 (001.186167)  can0  1CFE9200   [8]  FF 08 B4 FF FF FF 36 00
 (001.188894)  can0  0C000003   [8]  EB D6 F4 96 FF F1 FF FF
 (001.189471)  can0  0CF00203   [8]  D1 11 0F FF F7 CD 2E 03
 (001.192161)  can0  0CF00400   [8]  26 98 96 9D 32 03 0F 98
 (001.194761)  can0  0CF00A00   [8]  00 00 99 1C FF FF FF FF
 (001.195188)  can0  18FD9400   [8]  00 00 FF FF FF FF FF FF
 (001.195778)  can0  18FEDD00   [8]  FF 18 3B FF FF FF FF FF
 (001.196361)  can0  18F00E00   [8]  40 28 FF FF D5 9F FF FF
 (001.199153)  can0  0C000003   [8]  EB D6 F4 96 FF F1 FF FF
 (001.199479)  can0  0CF00203   [8]  D1 11 0F FF F7 CD 2E 03
 (001.200129)  can0  18F03300   [8]  FF FF FF FF FF FF FF FF
 (001.200698)  can0  0CF00C03   [8]  01 04 A5 32 FF FF FF FF
 (001.201254)  can0  18FEDF00   [8]  89 A0 28 7D 7D FF FF F5
 (001.201793)  can0  18F00503   [8]  7F 1E 0C 7E 35 20 31 43
 (001.203109)  can0  18FE4A03   [8]  03 0F 4F FF FF F3 FF FF
 (001.204762)  can0  0C010305   [8]  FF FF FF FF FF F3 FF FF
 (001.205046)  can0  18FEE000   [8]  03 00 00 00 19 96 35 00
 (001.205620)  can0  0CF00300   [8]  D0 62 1F FF FF 4F 82 81
 (001.209149)  can0  0C000003   [8]  EB BC F4 96 FF F0 FF FF
 (001.209484)  can0  0CF00203   [8]  D1 1C 0F FF F7 F5 2E 03
 (001.210164)  can0  18FEF200   [8]  C3 00 7D 03 A0 03 E1 FF
 (001.210713)  can0  18F00F00   [8]  80 14 FF FF D5 9F FF FF
 (001.212280)  can0  0CF00400   [8]  06 98 96 BE 32 03 0F 98
 (001.214629)  can0  18FEE400   [8]  FF 3F FC FC 00 7F FF FF
 (001.217146)  can0  18F00131   [8]  FF FF FF 3F 00 FF FF FF
 (001.217724)  can0  18FEF131   [8]  F3 FF FF C3 CC FF FF F0
 (001.218292)  can0  18FEF031   [8]  FF FF FF FF FF FC CC FF
 (001.218892)  can0  18FF4831   [8]  00 00 FF FF 00 00 00 00
 (001.219470)  can0  0C000003   [8]  EB BC F4 96 FF F0 FF FF
 (001.220023)  can0  18FEDF00   [8]  89 A0 28 7D 7D FF FF F5
 (001.220545)  can0  0CF00203   [8]  D1 1C 0F FF F7 F5 2E 03
 (001.221147)  can0  10FCFD00   [8]  FF FF FF FF 76 5B FF FF
 (001.221711)  can0  0CF00C03   [8]  00 04 DE 32 FF FF FF FF
 (001.222299)  can0  0CFD9200   [8]  F4 FF FF FF FF FF FF FF
 (001.222914)  can0  18FEF231   [8]  FF FF FF FF FF FF FF FF
 (001.223471)  can0  0CF00331   [8]  FF FF FF FF FF FF FF FF
 (001.225126)  can0  0CF00300   [8]  D0 62 1E FF FF 4F 81 81
 (001.229297)  can0  0C000003   [8]  EB 9F F4 96 FF F7 FF FF
 (001.229505)  can0  0CF00203   [8]  D1 32 0F FF F7 2C 2F 03
 (001.230955)  can0  18F00100   [8]  FF FF FF FF FF FF FF FF
 (001.231773)  can0  0CF00400   [8]  76 97 95 FD 32 03 0F 97
 (001.239252)  can0  0C000003   [8]  EB 9F F4 96 FF F7 FF FF
 (001.239527)  can0  0CF00203   [8]  D1 32 0F FF F7 2C 2F 03
 (001.240261)  can0  18FEDF00   [8]  89 A0 28 7D 7D FF FF F5
 (001.240631)  can0  0CF00C03   [8]  00 04 E9 32 FF FF FF FF
 (001.245267)  can0  0CF00300   [8]  D0 62 1E FF FF 4F 81 81
 (001.245578)  can0  0CF00A00   [8]  00 00 1D 1D FF FF FF FF
 (001.246160)  can0  18FEF000   [8]  FF FF FF C0 2B FF FF FF
 (001.246744)  can0  18FEBD00   [8]  00 F0 FF FF FF FF FF FF
 (001.247295)  can0  18F00E00   [8]  5A 28 FF FF D5 9F FF FF
 (001.248895)  can0  0C000003   [8]  EB 8C F4 96 FF F4 FF FF
 (001.249517)  can0  0CF00203   [8]  D1 3A 0F FF F7 4E 2F 03
 (001.250118)  can0  18F03300   [8]  FF FF FF FF FF FF FF FF
 (001.251671)  can0  0CF00400   [8]  56 97 96 03 33 03 0F 97
 (001.254200)  can0  0C010305   [8]  FF FF FF FF FF F3 FF FF
 (001.254826)  can0  18FCF200   [8]  E1 FF FF FF FF FF FF FF
 (001.256902)  can0  18F0010B   [8]  CF FF F0 FF FF CD FF FF
 (001.259209)  can0  0C000003   [8]  EB 8C F4 96 FF F4 FF FF
 (001.259514)  can0  0CF00203   [8]  D1 3A 0F FF F7 4E 2F 03
 (001.260109)  can0  18FEDF00   [8]  89 A0 28 7D 7D FF FF F5
 (001.260657)  can0  0CF00C03   [8]  FF 03 0B 33 FF FF FF FF
 (001.261259)  can0  18E0FF00   [8]  00 FF FF FF FF FF FF FF
 (001.261862)  can0  18F00F00   [8]  00 00 FF FF D5 9F FF FF
 (001.264982)  can0  18FD0700   [8]  43 0C FC FF FF FF FF FF
 (001.265627)  can0  0CF00300   [8]  D0 62 1F FF FF 4F 82 81
 (001.266172)  can0  18FEF100   [8]  FF 50 11 FC FF 68 00 CF
 (001.267120)  can0  18FEBF0B   [8]  80 11 7D 7D 7D 7D FF FF
 (001.267486)  can0  0CF00331   [8]  FF FF FF FF FF FF FF FF
 (001.269671)  can0  0C000003   [8]  EB 7C F4 95 FF F1 FF FF
 (001.269679)  can0  0CF00203   [8]  D1 40 0F FF F7 62 2F 03
 (001.270118)  can0  18FEEE00   [8]  81 FF FF FF FF FF FF FF
 (001.272457)  can0  0CF00400   [8]  36 97 96 32 33 03 0F 97
 (001.274906)  can0  10FDA300   [8]  FF FF 53 FF FF FF FF FF
 (001.275176)  can0  18F00029   [8]  F0 7D 7D F3 29 FF FF 35
 (001.279239)  can0  0C000003   [8]  EB 7C F4 95 FF F1 FF FF
 (001.279452)  can0  0CF00203   [8]  D1 40 0F FF F7 62 2F 03
 (001.280017)  can0  18FEDF00   [8]  89 A0 28 7D 7D FF FF F5
 (001.280593)  can0  0CF00C03   [8]  FF 03 35 33 FF FF FF FF
 (001.284995)  can0  18FCDC00   [8]  9F FF FF FF 50 68 50 11
 (001.285572)  can0  0CF00300   [8]  D0 62 1F FF FF 4F 83 81
 (001.286140)  can0  1CFE9200   [8]  FF BC AD FF FF FF 30 00
 (001.286721)  can0  18FEF500   [8]  A8 FF FF 93 26 FF FF FF
 (001.288808)  can0  0C000003   [8]  EB 7D F4 95 FF F6 FF FF
 (001.289452)  can0  0CF00203   [8]  D1 40 0F FF F7 67 2F 03
 (001.291729)  can0  0CF00400   [8]  06 97 95 54 33 03 0F 97
 (001.294942)  can0  14FC9800   [8]  FF 00 00 00 00 00 00 FF
 (001.295185)  can0  0CF00A00   [8]  00 00 B3 1D FF FF FF FF
 (001.295774)  can0  18FD9400   [8]  00 00 FF FF FF FF FF FF
 (001.296354)  can0  18F00E00   [8]  5E 28 FF FF D5 9F FF FF
 (001.298844)  can0  0C000003   [8]  EB 7D F4 95 FF F6 FF FF
 (001.299493)  can0  0CF00203   [8]  D1 40 0F FF F7 67 2F 03
 (001.300052)  can0  18F03300   [8]  FF FF FF FF FF FF FF FF
 (001.300661)  can0  0CF00C03   [8]  01 04 61 33 FF FF FF FF
 (001.301198)  can0  18FEDF00   [8]  89 A0 28 7D 7D FF FF F5
 (001.301737)  can0  18F00503   [8]  7F 1E 0C 7E 35 20 31 43
 (001.302382)  can0  18FE4A03   [8]  03 0F 4F FF FF F3 FF FF
 (001.305077)  can0  0C010305   [8]  FF FF FF FF FF F3 FF FF
 (001.305087)  can0  18FEE000   [8]  03 00 00 00 19 96 35 00
 (001.305669)  can0  0CF00300   [8]  D0 62 1D FF FF 4F 83 81
 (001.306261)  can0  18FEA400   [8]  FF FF 3C 2A FF FF 4B 2C
 (001.309096)  can0  0C000003   [8]  EB 7D F4 94 FF F3 FF FF
 (001.309405)  can0  0CF00203   [8]  D1 44 0F FF F7 79 2F 03
 (001.310621)  can0  18FDB400   [8]  1C 41 E6 43 FF FF FF FF
 (001.310629)  can0  18FEF200   [8]  C0 00 95 03 A1 03 E1 FF
 (001.311171)  can0  18F00F00   [8]  80 17 FF FF D5 9F FF FF
 (001.311698)  can0  0CF00400   [8]  46 96 95 5F 33 03 0F 96
 (001.317163)  can0  18F00131   [8]  FF FF FF 3F 00 FF FF FF
 (001.317711)  can0  18FEF131   [8]  F3 FF FF C3 CC FF FF F0
 (001.318286)  can0  18FEF031   [8]  FF FF FF FF FF FC CC FF
 (001.318851)  can0  0C000003   [8]  EB 7D F4 94 FF F3 FF FF
 (001.319474)  can0  18FF4831   [8]  00 00 FF FF 00 00 00 00
 (001.320014)  can0  0CF00203   [8]  D1 44 0F FF F7 79 2F 03
 (001.320546)  can0  18FEDF00   [8]  89 A0 28 7D 7D FF FF F5
 (001.321162)  can0  0CF00C03   [8]  01 04 77 33 FF FF FF FF
 (001.321731)  can0  10FCFD00   [8]  FF FF FF FF F9 5B FF FF
 (001.322307)  can0  18FEF231   [8]  FF FF FF FF FF FF FF FF
 (001.323100)  can0  0CF00331   [8]  FF FF FF FF FF FF FF FF
 (001.325105)  can0  0CF00300   [8]  D0 62 1E FF FF 4F 80 80
 (001.329042)  can0  0C000003   [8]  EB 78 F4 94 FF F4 FF FF
 (001.329370)  can0  0CF00203   [8]  D1 4E 0F FF F7 90 2F 03
 (001.330030)  can0  18FD7C00   [8]  F8 83 00 00 C3 0F 03 FF
 (001.330604)  can0  18F00100   [8]  FF FF FF FF FF FF FF FF
 (001.331709)  can0  0CF00400   [8]  16 96 94 8D 33 03 0F 96
 (001.335133)  can0  18FDB300   [8]  FF FF 26 39 FF FF FF FF
 (001.339170)  can0  0C000003   [8]  EB 78 F4 94 FF F4 FF FF
 (001.339406)  can0  0CF00203   [8]  D1 4E 0F FF F7 90 2F 03
 (001.340129)  can0  18FEDF00   [8]  88 A0 28 7D 7D FF FF F5
 (001.340547)  can0  0CF00C03   [8]  01 04 84 33 FF FF FF FF
 (001.345079)  can0  0CF00300   [8]  D0 62 1C FF FF 4F 82 80
 (001.345544)  can0  0CF00A00   [8]  00 00 07 1E FF FF FF FF
 (001.346144)  can0  18FEF000   [8]  FF FF FF C0 2B FF FF FF
 (001.346714)  can0  18F00E00   [8]  5E 28 FF FF D5 9F FF FF
 (001.348743)  can0  0C000003   [8]  EB 72 F4 93 FF F5 FF FF
 (001.349415)  can0  0CF00203   [8]  D1 59 0F FF F7 92 2F 03
 (001.350017)  can0  18F03300   [8]  FF FF FF FF FF FF FF FF
 (001.350597)  can0  18FE9A00   [8]  55 27 FF FF FF FF FF FF
 (001.351800)  can0  0CF00400   [8]  26 96 94 A8 33 03 0F 96
 (001.354278)  can0  0C010305   [8]  FF FF FF FF FF F3 FF FF
 (001.354850)  can0  18FDB200   [8]  FF FF FF FF 0E 00 FF FF
 (001.355460)  can0  18FCF200   [8]  E1 FF FF FF FF FF FF FF
 (001.357654)  can0  18F0010B   [8]  CF FF F0 FF FF CD FF FF
 (001.359102)  can0  0C000003   [8]  EB 72 F4 93 FF F5 FF FF
 (001.359379)  can0  0CF00203   [8]  D1 59 0F FF F7 92 2F 03
 (001.360001)  can0  18FEDF00   [8]  88 A0 28 7D 7D FF FF F5
 (001.360581)  can0  0CF00C03   [8]  01 04 94 33 FF FF FF FF
 (001.361138)  can0  18F00F00   [8]  96 16 FF FF D5 9F FF FF
 (001.365003)  can0  0CF00300   [8]  D0 62 1C FF FF 4F 82 80
 (001.365736)  can0  18FEF100   [8]  FF 7C 11 FC FF 68 00 CF
 (001.367272)  can0  0CF00331   [8]  FF FF FF FF FF FF FF FF
 (001.367631)  can0  18FEBF0B   [8]  C0 11 7D 7D 7D 7D FF FF
 (001.369129)  can0  0C000003   [8]  EB 72 F4 92 FF F0 FF FF
 (001.369381)  can0  0CF00203   [8]  D1 5E 0F FF F7 A6 2F 03
 (001.372326)  can0  0CF00400   [8]  46 96 93 C2 33 03 0F 96
 (001.374795)  can0  10FDA300   [8]  FF FF 50 FF FF FF FF FF
 (001.375170)  can0  18FE9900   [8]  FF FF FF FF FF FF FF FF
 (001.376543)  can0  18F00029   [8]  F0 7D 7D F3 29 FF FF 35
 (001.378765)  can0  0C000003   [8]  EB 72 F4 92 FF F0 FF FF
 (001.379393)  can0  0CF00203   [8]  D1 5E 0F FF F7 A6 2F 03
 (001.379963)  can0  18FD8C00   [8]  FF FF 0F 00 FF FF FF FF
 (001.380519)  can0  0CF00C03   [8]  02 04 B3 33 FF FF FF FF
 (001.381105)  can0  18FEDF00   [8]  88 A0 28 7D 7D FF FF F5
 (001.385065)  can0  18FCDC00   [8]  9F FF FF FF 50 68 7C 11
 (001.385644)  can0  0CF00300   [8]  D0 63 1C FF FF 4F 81 80
 (001.386193)  can0  1CFE9200   [8]  FF 2C A7 FF FF FF 2C 00
 (001.388804)  can0  0C000003   [8]  EB 76 F4 92 FF F1 FF FF
 (001.389485)  can0  0CF00203   [8]  D1 60 0F FF F7 CA 2F 03
 (001.391703)  can0  0CF00400   [8]  76 96 91 84 33 03 0F 96
 (001.394930)  can0  0CF00A00   [8]  00 00 78 1E FF FF FF FF
 (001.395183)  can0  18FD9400   [8]  00 00 FF FF FF FF FF FF
 (001.396664)  can0  18FEFC00   [8]  FF FF FF FF FF FF FF FF
 (001.396675)  can0  18F00E00   [8]  5C 28 FF FF D5 9F FF FF
 (001.398886)  can0  0C000003   [8]  EB 76 F4 92 FF F1 FF FF
 (001.399465)  can0  0CF00203   [8]  D1 60 0F FF F7 CA 2F 03
 (001.400089)  can0  18FD2000   [8]  1C 41 FF FF FF FF FF FF
 (001.400663)  can0  0CF00C03   [8]  02 04 94 33 FF FF FF FF
 (001.401196)  can0  18F03300   [8]  FF FF FF FF FF FF FF FF
 (001.401782)  can0  18F00503   [8]  7F 1E 0C 7E 35 20 31 43
 (001.402360)  can0  18FEDF00   [8]  88 A0 28 7D 7D FF FF F5
 (001.402945)  can0  18FE4A03   [8]  03 0F 4F FF FF F3 FF FF
 (001.404439)  can0  0C010305   [8]  FF FF FF FF FF F3 FF FF
 (001.405809)  can0  18FEE000   [8]  03 00 00 00 19 96 35 00
 (001.405817)  can0  0CF00300   [8]  D0 63 1A FF FF 4F 80 80
 (001.409108)  can0  0C000003   [8]  EB FF FA 92 FF F1 FF FF
 (001.409405)  can0  0CF00203   [8]  D1 70 0F FF F7 06 30 03
 (001.410072)  can0  18FEF200   [8]  D2 00 51 03 B0 03 E1 FF
 (001.410549)  can0  18F00F00   [8]  86 16 FF FF D5 9F FF FF
 (001.411678)  can0  0CF00400   [8]  06 96 92 AD 33 03 0F 96
 (001.417143)  can0  18F00131   [8]  FF FF FF 3F 00 FF FF FF
 (001.417710)  can0  18FEF131   [8]  F3 FF FF C3 CC FF FF F0
 (001.418285)  can0  18FEF031   [8]  FF FF FF FF FF FC CC FF
 (001.418860)  can0  0C000003   [8]  EB FF FA 92 FF F1 FF FF
 (001.419452)  can0  18FF4831   [8]  00 00 FF FF 00 00 00 00
 (001.420014)  can0  0CF00203   [8]  D1 70 0F FF F7 06 30 03
 (001.420596)  can0  18FEDF00   [8]  88 A0 28 7D 7D FF FF F5
 (001.421194)  can0  0CF00C03   [8]  00 04 A8 33 FF FF FF FF
 (001.421757)  can0  10FCFD00   [8]  FF FF FF FF 99 59 FF FF
 (001.422330)  can0  18FEF231   [8]  FF FF FF FF FF FF FF FF
 (001.422894)  can0  0CF00331   [8]  FF FF FF FF FF FF FF FF
 (001.425297)  can0  18FD3E00   [8]  CC 35 FF 90 38 FF FF FF
 (001.425637)  can0  0CF00300   [8]  D0 64 1A FF FF 4F 7C 80
 (001.428780)  can0  0C000003   [8]  EB FF FA 92 FF F1 FF FF
 (001.429436)  can0  0CF00203   [8]  D1 78 0F FF F7 17 30 03
 (001.430055)  can0  18F00100   [8]  FF FF FF FF FF FF FF FF
 (001.431668)  can0  0CF00400   [8]  06 96 92 A2 33 03 0F 96
 (001.439282)  can0  0C000003   [8]  EB FF FA 92 FF F1 FF FF
 (001.439449)  can0  0CF00203   [8]  D1 78 0F FF F7 17 30 03
 (001.440838)  can0  18FEDF00   [8]  88 A0 28 7D 7D FF FF F5
 (001.440848)  can0  0CF00C03   [8]  FF 03 C6 33 FF FF FF FF
 (001.445109)  can0  18FD4000   [8]  FF 3F 00 FF FF FF FF FF
 (001.445569)  can0  0CF00300   [8]  D0 64 1A FF FF 4F 7D 80
 (001.446143)  can0  0CF00A00   [8]  00 00 B0 1E FF FF FF FF
 (001.446714)  can0  18FEF000   [8]  FF FF FF C0 2B FF FF FF
 (001.447290)  can0  18F00E00   [8]  34 28 FF FF D5 9F FF FF
 (001.447865)  can0  1CECFF00   [8]  20 0E 00 02 FF CA FE 00
 (001.448819)  can0  0C000003   [8]  EB FF FA 92 FF F0 FF FF
 (001.449495)  can0  0CF00203   [8]  D1 7D 0F FF F7 FC 2F 03
 (001.450076)  can0  18F03300   [8]  FF FF FF FF FF FF FF FF
 (001.451666)  can0  0CF00400   [8]  16 97 92 CA 33 03 0F 97
 (001.454254)  can0  0C010305   [8]  FF FF FF FF FF F3 FF FF
 (001.454851)  can0  18FCF200   [8]  E1 FF FF FF FF FF FF FF
 (001.458202)  can0  18F0010B   [8]  CF FF F0 FF FF CD FF FF
 (001.458861)  can0  0C000003   [8]  EB FF FA 92 FF F0 FF FF
 (001.459456)  can0  0CF00203   [8]  D1 7D 0F FF F7 FC 2F 03
 (001.460023)  can0  18FEDF00   [8]  88 A0 28 7D 7D FF FF F5
 (001.460600)  can0  0CF00C03   [8]  01 04 AC 33 FF FF FF FF
 (001.461175)  can0  18F00F00   [8]  7C 16 FF FF D5 9F FF FF
 (001.465031)  can0  0CF00300   [8]  D0 64 1A FF FF 4F 7D 80
 (001.465700)  can0  18FEF100   [8]  FF B4 11 FC FF 68 00 CF
 (001.467259)  can0  0CF00331   [8]  FF FF FF FF FF FF FF FF
 (001.467621)  can0  18FEBF0B   [8]  F0 11 7E 7C 7C 7C FF FF
 (001.469109)  can0  0C000003   [8]  EB FF FA 93 FF F1 FF FF
 (001.469405)  can0  0CF00203   [8]  D1 74 0F FF F7 99 2F 03
 (001.470063)  can0  18FCC500   [8]  CC 35 FF FF FF FF FF FF
 (001.470658)  can0  0CFD9200   [8]  F4 FF FF FF FF FF FF FF
 (001.472264)  can0  0CF00400   [8]  76 97 91 99 33 03 0F 97
 (001.475131)  can0  10FDA300   [8]  FF FF 4F FF FF FF FF FF
 (001.475164)  can0  18F00029   [8]  F0 7D 7D F3 29 FF FF 35
 (001.478776)  can0  0C000003   [8]  EB FF FA 93 FF F1 FF FF
 (001.479390)  can0  0CF00203   [8]  D1 74 0F FF F7 99 2F 03
 (001.479966)  can0  18FEDF00   [8]  88 A0 28 7D 7D FF FF F5
 (001.480518)  can0  0CF00C03   [8]  03 04 8E 33 FF FF FF FF
 (001.485046)  can0  18FCDC00   [8]  9F FF FF FF 50 68 B4 11
 (001.485591)  can0  0CF00300   [8]  D0 65 1A FF FF 4F 7E 80
 (001.486166)  can0  1CFE9200   [8]  FF A4 A4 FF FF FF 26 00
 (001.488805)  can0  0C000003   [8]  EB FF FA 93 FF F1 FF FF
 (001.489419)  can0  0CF00203   [8]  D1 55 0F FF F7 07 2F 03
 (001.491677)  can0  0CF00400   [8]  16 97 93 8E 33 03 0F 97
 (001.494645)  can0  0CF00A00   [8]  00 00 9D 1E FF FF FF FF
 (001.495217)  can0  18FD9400   [8]  00 00 FF FF FF FF FF FF
 (001.495794)  can0  18FEEF00   [8]  FF FF FF 4F 8C 7D FF FA
 (001.496344)  can0  18F00E00   [8]  C8 27 FF FF D5 9F FF FF
 (001.496912)  can0  1CEBFF00   [8]  01 43 FF BF 00 09 08 54
 (001.498806)  can0  0C000003   [8]  EB FF FA 93 FF F1 FF FF
 (001.499450)  can0  0CF00203   [8]  D1 55 0F FF F7 07 2F 03
 (001.500025)  can0  18F03300   [8]  FF FF FF FF FF FF FF FF
 (001.500601)  can0  0CF00C03   [8]  06 04 75 33 FF FF FF FF
 (001.501187)  can0  18FEDF00   [8]  88 A0 28 7D 7D FF FF F5
 (001.501710)  can0  18F00503   [8]  7F 1E 0C 7E 35 20 31 43
 (001.502332)  can0  18FE4A03   [8]  03 0F 4F FF FF F3 FF FF
 (001.504296)  can0  0C010305   [8]  FF FF FF FF FF F3 FF FF
 (001.505665)  can0  18FEE000   [8]  03 00 00 00 19 96 35 00
 (001.505673)  can0  0CF00300   [8]  D0 65 1B FF FF 4F 7E 80
 (001.509137)  can0  0C000003   [8]  EB FF FA 93 FF F1 FF FF
 (001.509383)  can0  0CF00203   [8]  D1 37 0F FF F7 AB 2E 03
 (001.509946)  can0  18FEF200   [8]  B3 00 EF 03 B0 03 E1 FF
 (001.510518)  can0  18F00F00   [8]  88 16 FF FF D5 9F FF FF
 (001.511666)  can0  0CF00400   [8]  16 97 93 4D 33 03 0F 97
 (001.514620)  can0  18FEDB00   [8]  FF FF 1B 56 FF FF FF FF
 (001.517127)  can0  18F00131   [8]  FF FF FF 3F 00 FF FF FF
 (001.517717)  can0  18FEF131   [8]  F3 FF FF C3 CC FF FF F0
 (001.518294)  can0  18FEF031   [8]  FF FF FF FF FF FC CC FF
 (001.518855)  can0  0C000003   [8]  EB FF FA 93 FF F1 FF FF
 (001.519484)  can0  18FF4831   [8]  00 00 FF FF 00 00 00 00
 (001.520004)  can0  0CF00203   [8]  D1 37 0F FF F7 AB 2E 03
 (001.520581)  can0  18FEDF00   [8]  88 A0 28 7D 7D FF FF F5
 (001.521159)  can0  0CF00C03   [8]  09 04 3C 33 FF FF FF FF
 (001.521704)  can0  10FCFD00   [8]  FF FF FF FF 9C 59 FF FF
 (001.523119)  can0  18FEF231   [8]  FF FF FF FF FF FF FF FF
 (001.523125)  can0  0CF00331   [8]  FF FF FF FF FF FF FF FF
 (001.525298)  can0  0CF00300   [8]  D0 65 1B FF FF 4F 81 80
 (001.528827)  can0  0C000003   [8]  EB FF FA 93 FF F2 FF FF
 (001.529451)  can0  0CF00203   [8]  D1 46 0F FF F7 F4 2E 03
 (001.530030)  can0  18F00100   [8]  FF FF FF FF FF FF FF FF
 (001.531824)  can0  0CF00400   [8]  06 97 93 11 33 03 0F 97
 (001.535200)  can0  18FEF600   [8]  FF 13 60 FF FF FF FF FF
 (001.539113)  can0  0C000003   [8]  EB FF FA 93 FF F2 FF FF
 (001.539413)  can0  0CF00203   [8]  D1 46 0F FF F7 F4 2E 03
 (001.540801)  can0  18FEDF00   [8]  88 A0 28 7D 7D FF FF F5
 (001.540809)  can0  0CF00C03   [8]  05 04 1E 33 FF FF FF FF
 (001.545024)  can0  0CF00300   [8]  D0 65 1B FF FF 4F 82 80
 (001.545592)  can0  0CF00A00   [8]  00 00 C3 1E FF FF FF FF
 (001.546208)  can0  18FEF000   [8]  FF FF FF C0 2B FF FF FF
 (001.546815)  can0  18F00E00   [8]  EE 26 FF FF D5 9F FF FF
 (001.548804)  can0  0C000003   [8]  EB FF FA 93 FF F1 FF FF
 (001.549425)  can0  0CF00203   [8]  D1 24 10 FF F7 4C 2F 03
 (001.550072)  can0  18F03300   [8]  FF FF FF FF FF FF FF FF
 (001.551769)  can0  0CF00400   [8]  16 97 93 12 33 03 0F 97
 (001.552326)  can0  1CEBFF00   [8]  02 00 09 08 ED 14 1F 01
 (001.554250)  can0  0C010305   [8]  FF FF FF FF FF F3 FF FF
 (001.554854)  can0  18FCF200   [8]  E1 FF FF FF FF FF FF FF
 (001.557601)  can0  18F0010B   [8]  CF FF F0 FF FF CD FF FF
 (001.558966)  can0  0C000003   [8]  EB FF FA 93 FF F1 FF FF
 (001.559475)  can0  0CF00203   [8]  D1 24 10 FF F7 4C 2F 03
 (001.560051)  can0  18FEDF00   [8]  88 A0 28 7D 7D FF FF F5
 (001.560630)  can0  0CF00C03   [8]  01 04 06 33 FF FF FF FF
 (001.561219)  can0  18FDC600   [8]  FC 04 FF FF FF FF FF FF
 (001.561722)  can0  18F00F00   [8]  88 16 FF FF D5 9F FF FF
 (001.565015)  can0  0CF00300   [8]  D0 65 1B FF FF 4F 82 80
 (001.565584)  can0  18FEF100   [8]  FF AC 11 FC FF 68 00 CF
 (001.567147)  can0  0CF00331   [8]  FF FF FF FF FF FF FF FF
 (001.567705)  can0  18FEBF0B   [8]  10 12 7E 7C 82 80 FF FF
 (001.569274)  can0  0C000003   [8]  EB FF FA 93 FF F1 FF FF
 (001.569438)  can0  0CF00203   [8]  D1 C1 10 FF F7 B0 2E 03
 (001.572280)  can0  0CF00400   [8]  06 97 93 FD 32 03 0F 97
 (001.574893)  can0  10FDA300   [8]  FF FF 53 FF FF FF FF FF
 (001.575168)  can0  18F00029   [8]  F0 7D 7D F3 29 FF FF 35
 (001.578750)  can0  0C000003   [8]  EB FF FA 93 FF F1 FF FF
 (001.579435)  can0  0CF00203   [8]  D1 C1 10 FF F7 B0 2E 03
 (001.579982)  can0  18FEDF00   [8]  88 A0 28 7D 7D FF FF F5
 (001.580585)  can0  0CF00C03   [8]  05 04 E8 32 FF FF FF FF
 (001.581135)  can0  1CECFF00   [8]  20 22 00 05 FF E3 FE 00
 (001.585130)  can0  18FCDC00   [8]  9F FF FF FF 50 68 AC 11
 (001.585601)  can0  0CF00300   [8]  D0 66 1B FF FF 4F 83 80
 (001.586221)  can0  1CFE9200   [8]  FF 38 A4 FF FF FF 2A 00
 (001.588800)  can0  0C000003   [8]  EB FF FA 93 FF F7 FF FF
 (001.589468)  can0  0CF00203   [8]  D1 62 10 FF F7 45 2D 03
 (001.592357)  can0  0CF00400   [8]  06 98 93 C6 32 03 0F 98
 (001.594863)  can0  0CF00A00   [8]  00 00 81 1E FF FF FF FF
 (001.595205)  can0  18FD9400   [8]  00 00 FF FF FF FF FF FF
 (001.595823)  can0  18F00E00   [8]  50 26 FF FF D5 9F FF FF
 (001.599104)  can0  0C000003   [8]  EB FF FA 93 FF F7 FF FF
 (001.599396)  can0  0CF00203   [8]  D1 62 10 FF F7 45 2D 03
 (001.599995)  can0  18F03300   [8]  FF FF FF FF FF FF FF FF
 (001.600744)  can0  0CF00C03   [8]  0F 04 98 32 FF FF FF FF
 (001.601123)  can0  18FEDF00   [8]  88 A0 28 7D 7D FF FF F5
 (001.601715)  can0  18F00503   [8]  7F 1E 0C 7E 35 20 31 43
 (001.603124)  can0  18FE4A03   [8]  03 0F 4F FF FF F3 FF FF
 (001.603261)  can0  18FD9503   [8]  CC FF FF AF FF FF FF FF
 (001.604520)  can0  18FEF803   [8]  FF FF FF FF C3 2B FF FF
 (001.604527)  can0  0C010305   [8]  FF FF FF FF FF F3 FF FF
 (001.605898)  can0  18FEE000   [8]  03 00 00 00 19 96 35 00
 (001.605907)  can0  0CF00300   [8]  D0 66 1B FF FF 4F 83 80
 (001.608748)  can0  0C000003   [8]  EB FF FA 94 FF F6 FF FF
 (001.609392)  can0  0CF00203   [8]  D1 E6 0F FF F7 25 2C 03
 (001.609966)  can0  18FEF200   [8]  A8 00 34 04 B1 03 E1 FF
 (001.610515)  can0  18F00F00   [8]  A0 16 FF FF D5 9F FF FF
 (001.611773)  can0  0CF00400   [8]  66 98 93 0D 32 03 0F 98
 (001.617285)  can0  18F00131   [8]  FF FF FF 3F 00 FF FF FF
 (001.617648)  can0  18FEF131   [8]  F3 FF FF C3 CC FF FF F0
 (001.618297)  can0  18FEF031   [8]  FF FF FF FF FF FC CC FF
 (001.618866)  can0  0C000003   [8]  EB FF FA 94 FF F6 FF FF
 (001.619455)  can0  18FF4831   [8]  00 00 FF FF 00 00 00 00
 (001.620010)  can0  0CF00203   [8]  D1 E6 0F FF F7 25 2C 03
 (001.620575)  can0  18FEDF00   [8]  88 A0 28 7D 7D FF FF F5
 (001.621143)  can0  0CF00C03   [8]  1A 04 FE 31 FF FF FF FF
 (001.621775)  can0  10FCFD00   [8]  FF FF FF FF 5C 58 FF FF
 (001.622310)  can0  18FEF231   [8]  FF FF FF FF FF FF FF FF
 (001.622925)  can0  0CF00331   [8]  FF FF FF FF FF FF FF FF
 (001.625283)  can0  0CF00300   [8]  D0 67 1C FF FF 4F 83 80
 (001.628809)  can0  0C000003   [8]  EB FF FA 94 FF F6 FF FF
 (001.629409)  can0  0CF00203   [8]  D1 ED 0F FF F7 BC 2B 03
 (001.630066)  can0  18F00100   [8]  FF FF FF FF FF FF FF FF
 (001.631796)  can0  0CF00400   [8]  56 98 94 B5 31 03 0F 98
 (001.633187)  can0  1CEBFF00   [8]  01 A8 16 B1 30 52 C2 E8
 (001.639265)  can0  0C000003   [8]  EB FF FA 94 FF F6 FF FF
 (001.639395)  can0  0CF00203   [8]  D1 ED 0F FF F7 BC 2B 03
 (001.639940)  can0  18FEDF00   [8]  87 A0 28 7D 7D FF FF F5
 (001.640519)  can0  0CF00C03   [8]  1A 04 97 31 FF FF FF FF
 (001.645037)  can0  0CF00300   [8]  D0 67 1D FF FF 4F 86 7F
 (001.645625)  can0  0CF00A00   [8]  00 00 FE 1D FF FF FF FF
 (001.646255)  can0  18FEF000   [8]  FF FF FF C0 2B FF FF FF
 (001.646854)  can0  18F00E00   [8]  30 25 FF FF D5 9F FF FF
 (001.648941)  can0  0C000003   [8]  EB FF FA 94 FF F6 FF FF
 (001.649396)  can0  0CF00203   [8]  D1 00 10 FF F7 5E 2B 03
 (001.650161)  can0  18F03300   [8]  FF FF FF FF FF FF FF FF
 (001.651686)  can0  0CF00400   [8]  56 99 94 42 31 03 0F 99
 (001.654236)  can0  0C010305   [8]  FF FF FF FF FF F3 FF FF
 (001.654881)  can0  18FCF200   [8]  E1 FF FF FF FF FF FF FF
 (001.658173)  can0  18F0010B   [8]  CF FF F0 FF FF CD FF FF
 (001.658921)  can0  0C000003   [8]  EB FF FA 94 FF F6 FF FF
 (001.659487)  can0  0CF00203   [8]  D1 00 10 FF F7 5E 2B 03
 (001.660074)  can0  18FEDF00   [8]  87 A0 28 7D 7D FF FF F5
 (001.660625)  can0  0CF00C03   [8]  18 04 4C 31 FF FF FF FF
 (001.661141)  can0  18F00F00   [8]  E0 16 FF FF D5 9F FF FF
 (001.665077)  can0  0CF00300   [8]  D0 67 1D FF FF 4F 89 7F
 (001.665717)  can0  18FEF100   [8]  FF 4C 12 FC FF 68 00 CF
 (001.667142)  can0  0CF00331   [8]  FF FF FF FF FF FF FF FF
 (001.667989)  can0  18FEBF0B   [8]  60 12 7D 7D 7F 7D FF FF
 (001.669590)  can0  0C000003   [8]  EB FF FA 95 FF F5 FF FF
 (001.669599)  can0  0CF00203   [8]  D1 FE 0F FF F7 BB 2A 03
 (001.672213)  can0  0CF00400   [8]  56 99 94 0B 31 03 0F 99
 (001.674571)  can0  10FDA300   [8]  FF FF 56 FF FF FF FF FF
 (001.675141)  can0  18F00029   [8]  F0 7D 7D F3 29 FF FF 35
 (001.678794)  can0  0C000003   [8]  EB FF FA 95 FF F5 FF FF
 (001.679454)  can0  0CF00203   [8]  D1 FE 0F FF F7 BB 2A 03
 (001.680034)  can0  18FEDF00   [8]  87 A0 28 7D 7D FF FF F5
 (001.680574)  can0  0CF00C03   [8]  20 04 D1 30 FF FF FF FF
 (001.685093)  can0  18FCDC00   [8]  9F FF FF FF 50 68 4C 12
 (001.685662)  can0  0CF00300   [8]  D0 67 1D FF FF 4F 8A 7F
 (001.686219)  can0  1CFE9200   [8]  FF A0 A1 FF FF FF 30 00
 (001.687721)  can0  1CEBFF00   [8]  02 1C B9 60 22 C7 C0 44
 (001.688850)  can0  0C000003   [8]  EB FF FA 95 FF F7 FF FF
 (001.689474)  can0  0CF00203   [8]  D1 FF 0F FF F7 2B 2A 03
 (001.692445)  can0  0CF00400   [8]  46 99 95 93 30 03 0F 99
 (001.694898)  can0  0CF00A00   [8]  00 00 A0 1D FF FF FF FF
 (001.695201)  can0  18FD9400   [8]  00 00 FF FF FF FF FF FF
 (001.695847)  can0  18F00E00   [8]  F8 23 FF FF D5 9F FF FF
 (001.699111)  can0  0C000003   [8]  EB FF FA 95 FF F7 FF FF
 (001.699404)  can0  0CF00203   [8]  D1 FF 0F FF F7 2B 2A 03
 (001.700172)  can0  18F03300   [8]  FF FF FF FF FF FF FF FF
 (001.700607)  can0  0CF00C03   [8]  24 04 7F 30 FF FF FF FF
 (001.701228)  can0  18FEDF00   [8]  87 A0 28 7D 7D FF FF F5
 (001.701749)  can0  18F00503   [8]  7F 1E 0C 7E 35 20 31 43
 (001.703148)  can0  18FE4A03   [8]  03 0F 4F FF FF F3 FF FF
 (001.704642)  can0  0C010305   [8]  FF FF FF FF FF F3 FF FF
 (001.705066)  can0  18FEE000   [8]  03 00 00 00 19 96 35 00
 (001.705590)  can0  0CF00300   [8]  D0 67 1E FF FF 4F 8C 7F
 (001.708792)  can0  0C000003   [8]  EB FF FA 95 FF F7 FF FF
 (001.709416)  can0  0CF00203   [8]  D1 1D 10 FF F7 AD 29 03
 (001.709989)  can0  18FEF200   [8]  AB 00 3F 04 B0 03 E1 FF
 (001.710577)  can0  18F00F00   [8]  20 17 FF FF D5 9F FF FF
 (001.711851)  can0  0CF00400   [8]  66 99 95 3F 30 03 0F 99
 (001.717287)  can0  18F00131   [8]  FF FF FF 3F 00 FF FF FF
 (001.717659)  can0  18FEF131   [8]  F3 FF FF C3 CC FF FF F0
 (001.718296)  can0  18FEF031   [8]  FF FF FF FF FF FC CC FF
 (001.718867)  can0  0C000003   [8]  EB FF FA 95 FF F7 FF FF
 (001.719465)  can0  18FF4831   [8]  00 00 FF FF 00 00 00 00
 (001.720015)  can0  0CF00203   [8]  D1 1D 10 FF F7 AD 29 03
 (001.720567)  can0  18FEDF00   [8]  87 A0 28 7D 7D FF FF F5
 (001.721168)  can0  0CF00C03   [8]  27 04 1C 30 FF FF FF FF
 (001.721719)  can0  10FCFD00   [8]  FF FF FF FF 83 56 FF FF
 (001.722368)  can0  18FEF231   [8]  FF FF FF FF FF FF FF FF
 (001.722925)  can0  0CFD9200   [8]  F4 FF FF FF FF FF FF FF
 (001.723477)  can0  0CF00331   [8]  FF FF FF FF FF FF FF FF
 (001.725649)  can0  0CF00300   [8]  D0 67 1F FF FF 4F 8D 7F
 (001.728811)  can0  0C000003   [8]  EB FF FA 95 FF F6 FF FF
 (001.729442)  can0  0CF00203   [8]  D1 43 10 FF F7 0F 29 03
 (001.730055)  can0  18F00100   [8]  FF FF FF FF FF FF FF FF
 (001.731750)  can0  0CF00400   [8]  66 99 95 D8 2F 03 0F 99
 (001.738763)  can0  0C000003   [8]  EB FF FA 95 FF F6 FF FF
 (001.739393)  can0  0CF00203   [8]  D1 43 10 FF F7 0F 29 03
 (001.739941)  can0  18FEDF00   [8]  87 A0 28 7D 7D FF FF F5
 (001.740517)  can0  0CF00C03   [8]  2F 04 EF 2F FF FF FF FF
 (001.742510)  can0  1CEBFF00   [8]  03 CB 80 57 FF FF 55 04
 (001.745861)  can0  0CF00300   [8]  D0 68 1F FF FF 4F 8E 7F
 (001.745870)  can0  0CF00A00   [8]  00 00 2F 1D FF FF FF FF
 (001.746225)  can0  18FEF000   [8]  FF FF FF C0 2B FF FF FF
 (001.747113)  can0  18F00E00   [8]  96 23 FF FF D5 9F FF FF
 (001.748939)  can0  0C000003   [8]  EB FF FA 95 FF F6 FF FF
 (001.749371)  can0  0CF00203   [8]  D1 61 10 FF F7 35 28 03
 (001.750076)  can0  18F03300   [8]  FF FF FF FF FF FF FF FF
 (001.751779)  can0  0CF00400   [8]  56 99 95 B0 2F 03 0F 99
 (001.754221)  can0  0C010305   [8]  FF FF FF FF FF F3 FF FF
 (001.754895)  can0  18FCF200   [8]  E1 FF FF FF FF FF FF FF
 (001.758152)  can0  18FECA31   [8]  00 FF 00 00 00 00 FF FF
 (001.758161)  can0  18F0010B   [8]  CF FF F0 FF FF CD FF FF
 (001.758722)  can0  18F11031   [8]  00 00 FF FF FF FF FF FF
 (001.759284)  can0  0C000003   [8]  EB FF FA 95 FF F6 FF FF
 (001.759874)  can0  18FEDF00   [8]  87 A0 28 7D 7D FF FF F5
 (001.760398)  can0  0CF00203   [8]  D1 61 10 FF F7 35 28 03
 (001.760972)  can0  18F00F00   [8]  76 17 FF FF D5 9F FF FF
 (001.761537)  can0  0CF00C03   [8]  3C 04 76 2F FF FF FF FF
 (001.765067)  can0  0CF00300   [8]  D0 68 1F FF FF 4F 8E 7F
 (001.765692)  can0  18FEF100   [8]  FF 78 12 FC FF 68 00 CF
 (001.767175)  can0  0CF00331   [8]  FF FF FF FF FF FF FF FF
 (001.768563)  can0  18FEBF0B   [8]  A0 12 7D 7D 7F 7F FF FF
 (001.768762)  can0  0C000003   [8]  EB FF FA 95 FF F2 FF FF
 (001.770159)  can0  0CF00203   [8]  D1 5E 10 FF F7 3D 27 03
 (001.771744)  can0  0CF00400   [8]  46 99 95 33 2F 03 0F 99
 (001.774667)  can0  10FDA300   [8]  FF FF 57 FF FF FF FF FF
 (001.775218)  can0  18F00029   [8]  F0 7D 7D F3 29 FF FF 36
 (001.779250)  can0  0C000003   [8]  EB FF FA 95 FF F2 FF FF
 (001.779363)  can0  0CF00203   [8]  D1 5E 10 FF F7 3D 27 03
 (001.780792)  can0  18FEDF00   [8]  87 A0 28 7D 7D FF FF F5
 (001.780802)  can0  0CF00C03   [8]  4B 04 26 2F FF FF FF FF
 (001.785119)  can0  18FCDC00   [8]  9F FF FF FF 50 68 78 12
 (001.785717)  can0  0CF00300   [8]  D0 68 1F FF FF 4F 8F 7F
 (001.786266)  can0  1CFE9200   [8]  FF FC 9E FF FF FF 34 00
 (001.788801)  can0  0C000003   [8]  EB FF FA 95 FF F3 FF FF
 (001.789425)  can0  0CF00203   [8]  D1 34 10 FF F7 71 26 03
 (001.792265)  can0  0CF00400   [8]  16 99 95 DF 2E 03 0F 99
 (001.795016)  can0  14FC9800   [8]  FF 00 00 00 00 00 00 FF
 (001.795162)  can0  0CF00A00   [8]  00 00 87 1C FF FF FF FF
 (001.795804)  can0  18FD9400   [8]  00 00 FF FF FF FF FF FF
 (001.796374)  can0  18F00E00   [8]  32 23 FF FF D5 9F FF FF
 (001.796921)  can0  1CEBFF00   [8]  04 38 5E 14 46 FA 7D C7
 (001.799115)  can0  0C000003   [8]  EB FF FA 95 FF F3 FF FF
 (001.799393)  can0  0CF00203   [8]  D1 34 10 FF F7 71 26 03
 (001.800755)  can0  18F03300   [8]  FF FF FF FF FF FF FF FF
 (001.800762)  can0  0CF00C03   [8]  54 04 B5 2E FF FF FF FF
 (001.801120)  can0  18FEDF00   [8]  87 A0 28 7D 7D FF FF F5
 (001.801720)  can0  18F00503   [8]  7F 1E 0C 7E 35 20 31 43
 (001.802302)  can0  18FE4A03   [8]  03 0F 4F FF FF F3 FF FF
 (001.804272)  can0  0C010305   [8]  FF FF FF FF FF F3 FF FF
 (001.805093)  can0  18FEE000   [8]  03 00 00 00 19 96 35 00
 (001.805663)  can0  0CF00300   [8]  D0 68 1E FF FF 4F 90 7F
 (001.808801)  can0  0C000003   [8]  EB FF FA 96 FF F4 FF FF
 (001.809410)  can0  0CF00203   [8]  D1 2C 10 FF F7 01 26 03
 (001.810012)  can0  18FDB400   [8]  B9 41 C3 43 FF FF FF FF
 (001.810614)  can0  18FEF200   [8]  AD 00 44 04 B1 03 E1 FF
 (001.811127)  can0  18F00F00   [8]  00 18 FF FF D5 9F FF FF
 (001.811825)  can0  0CF00400   [8]  26 99 95 74 2E 03 0F 99
 (001.817125)  can0  18F00131   [8]  FF FF FF 3F 00 FF FF FF
 (001.817649)  can0  18FEF131   [8]  F3 FF FF C3 CC FF FF F0
 (001.818256)  can0  18FEF031   [8]  FF FF FF FF FF FC CC FF
 (001.818821)  can0  0C000003   [8]  EB FF FA 96 FF F4 FF FF
 (001.819430)  can0  18FF4831   [8]  00 00 FF FF 00 00 00 00
 (001.819950)  can0  0CF00203   [8]  D1 2C 10 FF F7 01 26 03
 (001.820569)  can0  18FEDF00   [8]  87 A0 28 7D 7D FF FF F5
 (001.821148)  can0  0CF00C03   [8]  58 04 81 2E FF FF FF FF
 (001.821723)  can0  10FCFD00   [8]  FF FF FF FF 53 53 FF FF
 (001.822335)  can0  18FEF231   [8]  FF FF FF FF FF FF FF FF
 (001.822944)  can0  0CF00331   [8]  FF FF FF FF FF FF FF FF
 (001.825428)  can0  0CF00300   [8]  D0 68 1E FF FF 4F 92 7F
 (001.828801)  can0  0C000003   [8]  EB FF FA 96 FF F6 FF FF
 (001.829426)  can0  0CF00203   [8]  D1 70 10 FF F7 D5 25 03
 (001.830055)  can0  18F00100   [8]  FF FF FF FF FF FF FF FF
 (001.831795)  can0  0CF00400   [8]  36 99 96 3D 2E 03 0F 99
 (001.834838)  can0  18FDB300   [8]  FF FF 40 39 FF FF FF FF
 (001.838773)  can0  0C000003   [8]  EB FF FA 96 FF F6 FF FF
 (001.839365)  can0  0CF00203   [8]  D1 70 10 FF F7 D5 25 03
 (001.839987)  can0  18FEDF00   [8]  87 A0 28 7D 7D FF FF F5
 (001.840528)  can0  0CF00C03   [8]  56 04 09 2E FF FF FF FF
 (001.845341)  can0  0CF00300   [8]  D0 68 20 FF FF 4F 91 7F
 (001.845678)  can0  0CF00A00   [8]  00 00 20 1C FF FF FF FF
 (001.846314)  can0  18FEF000   [8]  FF FF FF C0 2B FF FF FF
 (001.846933)  can0  18F00E00   [8]  00 23 FF FF D5 9F FF FF
 (001.848802)  can0  0C000003   [8]  EB FF FA 96 FF F0 FF FF
 (001.849463)  can0  0CF00203   [8]  D1 8F 10 FF F7 71 25 03
 (001.850012)  can0  18F03300   [8]  FF FF FF FF FF FF FF FF
 (001.851729)  can0  0CF00400   [8]  46 9A 96 D1 2D 03 0F 9A
 (001.852304)  can0  1CEBFF00   [8]  05 80 57 86 00 F7 02 FF
 (001.854256)  can0  0C010305   [8]  FF FF FF FF FF F3 FF FF
 (001.854873)  can0  18FDB200   [8]  FF FF FF FF 0F 00 FF FF
 (001.855462)  can0  18FCF200   [8]  E1 FF FF FF FF FF FF FF
 (001.858659)  can0  18F0010B   [8]  CF FF F0 FF FF CD FF FF
 (001.858859)  can0  0C000003   [8]  EB FF FA 96 FF F0 FF FF
 (001.860320)  can0  0CF00203   [8]  D1 8F 10 FF F7 71 25 03
 (001.860330)  can0  18FEDF00   [8]  86 A0 28 7D 7D FF FF F5
 (001.860625)  can0  0CF00C03   [8]  58 04 CA 2D FF FF FF FF
 (001.861193)  can0  18F00F00   [8]  68 18 FF FF D5 9F FF FF
 (001.865109)  can0  0CF00300   [8]  D0 68 20 FF FF 4F 90 7F
 (001.865700)  can0  18FEF100   [8]  FF C4 12 FC FF 68 00 CF
 (001.867094)  can0  0CF00331   [8]  FF FF FF FF FF FF FF FF
 (001.868242)  can0  18FEBF0B   [8]  E0 12 7F 7B 7B 7B FF FF
 (001.868809)  can0  0C000003   [8]  EB FF FA 97 FF F1 FF FF
 (001.869443)  can0  0CF00203   [8]  D1 7F 10 FF F7 B1 24 03
 (001.871794)  can0  0CF00400   [8]  06 9A 96 96 2D 03 0F 9A
 (001.872144)  can0  18EAFF31   [3]  47 FF 00
 (001.874739)  can0  10FDA300   [8]  FF FF 58 FF FF FF FF FF
 (001.875308)  can0  18F00029   [8]  F0 7D 7D F3 29 FF FF 37
 (001.879024)  can0  0C000003   [8]  EB FF FA 97 FF F1 FF FF
 (001.879407)  can0  0CF00203   [8]  D1 7F 10 FF F7 B1 24 03
 (001.880024)  can0  18FD8C00   [8]  FF FF 12 00 FF FF FF FF
 (001.880577)  can0  0CF00C03   [8]  62 04 6C 2D FF FF FF FF
 (001.881141)  can0  18FEDF00   [8]  86 A0 28 7D 7D FF FF F5
 (001.885235)  can0  18FCDC00   [8]  9F FF FF FF 50 68 C4 12
 (001.885633)  can0  0CF00300   [8]  D0 68 20 FF FF 4F 90 7F
 (001.886229)  can0  1CFE9200   [8]  FF C0 9C FF FF FF 36 00
 (001.889040)  can0  0C000003   [8]  EB FF FA 98 FF F6 FF FF
 (001.889417)  can0  0CF00203   [8]  D1 7B 10 FF F7 89 23 03
 (001.891942)  can0  0CF00400   [8]  16 9A 97 44 2D 03 0F 9A
 (001.894859)  can0  0CF00A00   [8]  00 00 A6 1B FF FF FF FF
 (001.895246)  can0  18FD9400   [8]  00 00 FF FF FF FF FF FF
 (001.895822)  can0  18F00E00   [8]  48 22 FF FF D5 9F FF FF
 (001.898833)  can0  0C000003   [8]  EB FF FA 98 FF F6 FF FF
 (001.899368)  can0  0CF00203   [8]  D1 7B 10 FF F7 89 23 03
 (001.899963)  can0  18FD2000   [8]  B9 41 FF FF FF FF FF FF
 (001.900513)  can0  0CF00C03   [8]  76 04 5C 2D FF FF FF FF
 (001.901114)  can0  18F03300   [8]  FF FF FF FF FF FF FF FF
 (001.901665)  can0  18F00503   [8]  7F 1E 0C 7E 35 20 31 43
 (001.902237)  can0  18FEDF00   [8]  86 A0 28 7D 7D FF FF F5
 (001.902842)  can0  18FE4A03   [8]  03 0F 4F FF FF F3 FF FF
 (001.904270)  can0  0C010305   [8]  FF FF FF FF FF F3 FF FF
 (001.905071)  can0  18FEE000   [8]  03 00 00 00 19 96 35 00
 (001.905644)  can0  0CF00300   [8]  D0 69 21 FF FF 4F 91 7F
 (001.908801)  can0  0C000003   [8]  EB FF FA 99 FF F4 FF FF
 (001.909426)  can0  0CF00203   [8]  D1 88 10 FF F7 1F 22 03
 (001.910036)  can0  18FEF200   [8]  AE 00 41 04 B0 03 E1 FF
 (001.910578)  can0  18F00F00   [8]  B4 18 FF FF D5 9F FF FF
 (001.912026)  can0  0CF00400   [8]  56 9A 98 10 2D 03 0F 9A
 (001.917130)  can0  18F00131   [8]  FF FF FF 3F 00 FF FF FF
 (001.917740)  can0  18E0FF31   [8]  00 FF FF FF FF F0 FF FF
 (001.918357)  can0  18FEF131   [8]  F3 FF FF C3 CC FF FF F0
 (001.918890)  can0  0C000003   [8]  EB FF FA 99 FF F4 FF FF
 (001.919452)  can0  18FEF031   [8]  FF FF FF FF FF FC CC FF
 (001.920044)  can0  0CF00203   [8]  D1 88 10 FF F7 1F 22 03
 (001.920546)  can0  18FEDF00   [8]  86 A0 28 7D 7D FF FF F5
 (001.921287)  can0  0CF00C03   [8]  92 04 EA 2C FF FF FF FF
 (001.921683)  can0  10FCFD00   [8]  FF FF FF FF E6 55 FF FF
 (001.922320)  can0  18FEFC31   [8]  FF 75 FF FF FF FF 00 FF
 (001.922849)  can0  18FEAE31   [8]  FF FF 60 60 FF FF FF FF
 (001.923593)  can0  18FEF731   [8]  FF FF FF FF 1A 01 FF FF
 (001.924021)  can0  18FF4831   [8]  00 00 FF FF 00 00 00 00
 (001.924771)  can0  18FD8331   [8]  F8 FF FF FF FF FF FF FF
 (001.925221)  can0  18FEF831   [8]  FF FF FF FF FF FF FF FF
 (001.925912)  can0  18FD3E00   [8]  CC 35 FF 90 38 FF FF FF
 (001.926435)  can0  18FEF231   [8]  FF FF FF FF FF FF FF FF
 (001.926958)  can0  0CF00300   [8]  D0 69 23 FF FF 4F 8D 7F
 (001.927607)  can0  18FEFA31   [8]  FF C0 C0 FF FF FF FF FF
 (001.928158)  can0  18FEC131   [8]  8C 42 67 06 FF FF FF FF
 (001.928781)  can0  0CF00331   [8]  FF FF FF FF FF FF FF FF
 (001.929323)  can0  0C000003   [8]  EB FF FA 99 FF F0 FF FF
 (001.930013)  can0  18F00100   [8]  FF FF FF FF FF FF FF FF
 (001.930472)  can0  0CF00203   [8]  D1 6E 10 FF F7 11 21 03
 (001.931998)  can0  0CF00400   [8]  36 9A 99 B0 2C 03 0F 9A
 (001.938780)  can0  0C000003   [8]  EB FF FA 99 FF F0 FF FF
 (001.939375)  can0  0CF00203   [8]  D1 6E 10 FF F7 11 21 03
 (001.940014)  can0  18FEDF00   [8]  86 A0 28 7D 7D FF FF F5
 (001.940555)  can0  0CF00C03   [8]  A1 04 AB 2C FF FF FF FF
 (001.945074)  can0  18FD4000   [8]  FF 3F 00 FF FF FF FF FF
 (001.945665)  can0  0CF00300   [8]  D0 6A 24 FF FF 4F 8B 7F
 (001.946219)  can0  0CF00A00   [8]  00 00 22 1B FF FF FF FF
 (001.946887)  can0  18FEF000   [8]  FF FF FF C0 2B FF FF FF
 (001.947320)  can0  18F00E00   [8]  D6 21 FF FF D5 9F FF FF
 (001.948869)  can0  0C000003   [8]  EB FF FA 99 FF F3 FF FF
 (001.949462)  can0  0CF00203   [8]  D1 89 10 FF F7 7B 20 03
 (001.950048)  can0  18F03300   [8]  FF FF FF FF FF FF FF FF
 (001.951960)  can0  0CF00400   [8]  76 9B 98 8B 2C 03 0F 9B
 (001.954431)  can0  0C010305   [8]  FF FF FF FF FF F3 FF FF
 (001.954821)  can0  18FCF200   [8]  E1 FF FF FF FF FF FF FF
 (001.958766)  can0  18F0010B   [8]  CF FF F0 FF FF CD FF FF
 (001.959119)  can0  0C000003   [8]  EB FF FA 99 FF F3 FF FF
 (001.959741)  can0  18FEDF00   [8]  86 A0 28 7D 7D FF FF F5
 (001.960221)  can0  0CF00203   [8]  D1 89 10 FF F7 7B 20 03
 (001.960888)  can0  18F00F00   [8]  26 19 FF FF D5 9F FF FF
 (001.961407)  can0  0CF00C03   [8]  AB 04 95 2C FF FF FF FF
 (001.965072)  can0  0CF00300   [8]  D0 6A 23 FF FF 4F 89 7F
 (001.965612)  can0  18FEF100   [8]  FF E0 12 FC FF 68 00 CF
 (001.967067)  can0  0CF00331   [8]  FF FF FF FF FF FF FF FF
 (001.968492)  can0  18FEBF0B   [8]  20 13 7D 7D 7F 7F FF FF
 (001.969116)  can0  0C000003   [8]  EB FF FA 9A FF F5 FF FF
 (001.969674)  can0  18FCC500   [8]  CC 35 FF FF FF FF FF FF
 (001.970261)  can0  0CF00203   [8]  D1 CA 10 FF F7 0D 20 03
 (001.970802)  can0  0CFD9200   [8]  F4 FF FF FF FF FF FF FF
 (001.971753)  can0  0CF00400   [8]  26 9B 99 7E 2C 03 0F 9B
 (001.974681)  can0  10FDA300   [8]  FF FF 59 FF FF FF FF FF
 (001.975185)  can0  18F00029   [8]  F0 7D 7D F3 29 FF FF 37
 (001.979295)  can0  0C000003   [8]  EB FF FA 9A FF F5 FF FF
 (001.979376)  can0  0CF00203   [8]  D1 CA 10 FF F7 0D 20 03
 (001.980100)  can0  18FEDF00   [8]  86 A0 28 7D 7D FF FF F5
 (001.980522)  can0  0CF00C03   [8]  AE 04 6B 2C FF FF FF FF
 (001.985127)  can0  18FCDC00   [8]  9F FF FF FF 50 68 E0 12
 (001.985684)  can0  0CF00300   [8]  D0 6B 24 FF FF 4F 89 7F
 (001.986248)  can0  1CFE9200   [8]  FF F8 9A FF FF FF 3E 00
 (001.989123)  can0  0C000003   [8]  EB FF FA 9A FF F6 FF FF
 (001.989422)  can0  0CF00203   [8]  D1 BE 10 FF F7 A3 1F 03
 (001.992383)  can0  0CF00400   [8]  46 9B 9A 75 2C 03 0F 9B
 (001.994900)  can0  0CF00A00   [8]  00 00 E1 1A FF FF FF FF
 (001.995270)  can0  18FD9400   [8]  00 00 FF FF FF FF FF FF
 (001.995850)  can0  18FEEF00   [8]  FF FF FF 44 93 7D FF FA
 (001.996409)  can0  18F00E00   [8]  A6 21 FF FF D5 9F FF FF
 (001.998748)  can0  0C000003   [8]  EB FF FA 9A FF F6 FF FF
 (001.999377)  can0  0CF00203   [8]  D1 BE 10 FF F7 A3 1F 03
 (001.999960)  can0  18F03300   [8]  FF FF FF FF FF FF FF FF
 (002.000547)  can0  0CF00C03   [8]  B7 04 69 2C FF FF FF FF
 (002.001124)  can0  18FEDF00   [8]  86 A0 28 7D 7D FF FF F5
 (002.001693)  can0  18F00503   [8]  7F 1E 0C 7E 35 20 31 43
 (002.002348)  can0  18FE4A03   [8]  03 0F 4F FF FF F3 FF FF
 (002.004278)  can0  0C010305   [8]  FF FF FF FF FF F3 FF FF
 (002.005078)  can0  18FEE000   [8]  03 00 00 00 19 96 35 00
 (002.005657)  can0  0CF00300   [8]  D0 6C 25 FF FF 4F 88 7F
 (002.009291)  can0  0C000003   [8]  EB FF FA 9A FF F0 FF FF
 (002.009446)  can0  0CF00203   [8]  D1 AE 10 FF F7 4A 1F 03
 (002.010000)  can0  18FEF200   [8]  96 00 01 05 B1 03 E1 FF
 (002.010553)  can0  18F00F00   [8]  6A 19 FF FF D5 9F FF FF
 (002.011964)  can0  0CF00400   [8]  66 9C 9A 36 2C 03 0F 9C
 (002.014666)  can0  18FEDB00   [8]  FF FF B4 54 FF FF FF FF
 (002.017127)  can0  18F00131   [8]  FF FF FF 3F 00 FF FF FF
 (002.017694)  can0  18FEF131   [8]  F3 FF FF C3 CC FF FF F0
 (002.018337)  can0  18FEF031   [8]  FF FF FF FF FF FC CC FF
 (002.018921)  can0  0C000003   [8]  EB FF FA 9A FF F0 FF FF
 (002.019458)  can0  18FF4831   [8]  00 00 FF FF 00 00 00 00
 (002.020163)  can0  0CF00203   [8]  D1 AE 10 FF F7 4A 1F 03
 (002.020576)  can0  18FEDF00   [8]  86 A0 28 7D 7D FF FF F5
 (002.021145)  can0  0CF00C03   [8]  BB 04 1E 2C FF FF FF FF
 (002.022518)  can0  10FCFD00   [8]  FF FF FF FF 00 5B FF FF
 (002.022526)  can0  18FEF231   [8]  FF FF FF FF FF FF FF FF
 (002.022861)  can0  0CF00331   [8]  FF FF FF FF FF FF FF FF
 (002.025224)  can0  0CF00300   [8]  D0 6D 26 FF FF 4F 87 7F
 (002.028816)  can0  0C000003   [8]  EB FF FA 9B FF F4 FF FF
 (002.029365)  can0  0CF00203   [8]  D1 EB 10 FF F7 2A 1F 03
 (002.029937)  can0  18F00100   [8]  FF FF FF FF FF FF FF FF
 (002.030536)  can0  18FECA03   [8]  00 FF 00 00 00 00 FF FF
 (002.031793)  can0  0CF00400   [8]  06 9C 9A 4E 2C 03 0F 9C
 (002.034657)  can0  18FEF600   [8]  FF 14 60 FF FF FF FF FF
 (002.038802)  can0  0C000003   [8]  EB FF FA 9B FF F4 FF FF
 (002.039450)  can0  0CF00203   [8]  D1 EB 10 FF F7 2A 1F 03
 (002.040006)  can0  18FEDF00   [8]  86 A0 28 7D 7D FF FF F5
 (002.040565)  can0  0CF00C03   [8]  BD 04 6B 2C FF FF FF FF
 (002.045074)  can0  0CF00300   [8]  D0 6E 25 FF FF 4F 86 7F
 (002.045696)  can0  0CF00A00   [8]  00 00 96 1A FF FF FF FF
 (002.046252)  can0  18FEF000   [8]  FF FF FF C0 2B FF FF FF
 (002.046865)  can0  18F00E00   [8]  4C 21 FF FF D5 9F FF FF
 (002.049438)  can0  0C000003   [8]  EB FF FA 9B FF F1 FF FF
 (002.049445)  can0  0CF00203   [8]  D1 1B 11 FF F7 12 1F 03
 (002.050055)  can0  18F03300   [8]  FF FF FF FF FF FF FF FF
 (002.052469)  can0  0CF00400   [8]  46 9D 9B 6A 2C 03 0F 9D
 (002.054920)  can0  0C010305   [8]  FF FF FF FF FF F3 FF FF
 (002.054930)  can0  18FCF200   [8]  E1 FF FF FF FF FF FF FF
 (002.058964)  can0  18F0010B   [8]  CF FF F0 FF FF CD FF FF
 (002.059320)  can0  0C000003   [8]  EB FF FA 9B FF F1 FF FF
 (002.059897)  can0  18FEDF00   [8]  86 A0 28 7D 7D FF FF F5
 (002.060420)  can0  0CF00203   [8]  D1 1B 11 FF F7 12 1F 03
 (002.060971)  can0  18FDC600   [8]  FC 04 FF FF FF FF FF FF
 (002.061513)  can0  0CF00C03   [8]  C0 04 64 2C FF FF FF FF
 (002.062087)  can0  18F00F00   [8]  D2 19 FF FF D5 9F FF FF
 (002.065141)  can0  0CF00300   [8]  D0 6F 27 FF FF 4F 87 7F
 (002.065716)  can0  18FEF100   [8]  FF 48 13 FC FF 68 00 CF
 (002.067103)  can0  0CF00331   [8]  FF FF FF FF FF FF FF FF
 (002.068707)  can0  18FEBF0B   [8]  70 13 7E 7C 80 7E FF FF
 (002.069280)  can0  0C000003   [8]  EB FF FA 9C FF F3 FF FF
 (002.069957)  can0  0CF00203   [8]  D1 19 11 FF F7 F6 1E 03
 (002.072445)  can0  0CF00400   [8]  06 9D 9B 71 2C 03 0F 9D
 (002.074900)  can0  10FDA300   [8]  FF FF 5D FF FF FF FF FF
 (002.075218)  can0  18F00029   [8]  F0 7D 7D F3 29 FF FF 37
 (002.079126)  can0  0C000003   [8]  EB FF FA 9C FF F3 FF FF
 (002.079429)  can0  0CF00203   [8]  D1 19 11 FF F7 F6 1E 03
 (002.080008)  can0  18FEDF00   [8]  86 A0 28 7D 7D FF FF F5
 (002.080556)  can0  0CF00C03   [8]  C1 04 5F 2C FF FF FF FF
 (002.085942)  can0  18FCDC00   [8]  9F FF FF FF 50 68 48 13
 (002.085951)  can0  0CF00300   [8]  D0 6F 26 FF FF 4F 84 7F
 (002.086218)  can0  1CFE9200   [8]  FF C0 9A FF FF FF 40 00
 (002.089138)  can0  0C000003   [8]  EB FF FA D7 FF F5 FF FF
 (002.089423)  can0  0CF00203   [8]  D1 0E 11 FF F7 F2 1E 03
 (002.092266)  can0  0CF00400   [8]  26 9D 9C 5F 2C 03 0F 9D
 (002.094621)  can0  0CF00A00   [8]  00 00 9F 1A FF FF FF FF
 (002.095217)  can0  18FD9400   [8]  00 00 FF FF FF FF FF FF
 (002.095784)  can0  18F00E00   [8]  EC 20 FF FF D5 9F FF FF
 (002.098800)  can0  0C000003   [8]  EB FF FA D7 FF F5 FF FF
 (002.099426)  can0  0CF00203   [8]  D1 0E 11 FF F7 F2 1E 03
 (002.100089)  can0  18F03300   [8]  FF FF FF FF FF FF FF FF
 (002.100600)  can0  0CF00C03   [8]  C5 04 80 2C FF FF FF FF
 (002.101213)  can0  18FEDF00   [8]  86 A0 28 7D 7D FF FF F5
 (002.101667)  can0  18F00503   [8]  7F 1E 0C 7E 35 20 31 43
 (002.102276)  can0  18FE4A03   [8]  03 0F 4F FF FF F3 FF FF
 (002.104282)  can0  0C010305   [8]  FF FF FF FF FF F3 FF FF
 (002.105174)  can0  18FEF700   [8]  FF FF FF FF 18 01 FF FF
 (002.105746)  can0  18FEE000   [8]  03 00 00 00 19 96 35 00
 (002.106284)  can0  0CF00300   [8]  D0 6F 28 FF FF 4F 85 7F
 (002.108801)  can0  0C000003   [8]  EB FF FA D7 FF F5 FF FF
 (002.109426)  can0  0CF00203   [8]  D1 20 11 FF F7 14 1F 03
 (002.109938)  can0  18FEF200   [8]  A8 00 86 04 B0 03 E1 FF
 (002.111128)  can0  18F00F00   [8]  14 1A FF FF D5 9F FF FF
 (002.111854)  can0  0CF00400   [8]  71 9D 9C 8C 2C 03 0F 9D
 (002.117378)  can0  18F00131   [8]  FF FF FF 3F 00 FF FF FF
 (002.117725)  can0  18FEF131   [8]  F3 FF FF C3 CC FF FF F0
 (002.118301)  can0  18FEF031   [8]  FF FF FF FF FF FC CC FF
 (002.118915)  can0  0C000003   [8]  EB FF FA D7 FF F5 FF FF
 (002.119475)  can0  18FF4831   [8]  00 00 FF FF 00 00 00 00
 (002.120036)  can0  0CF00203   [8]  D1 20 11 FF F7 14 1F 03
 (002.120611)  can0  18FEDF00   [8]  86 A0 28 7D 7D FF FF F5
 (002.121185)  can0  0CF00C03   [8]  C0 04 85 2C FF FF FF FF
 (002.121764)  can0  10FCFD00   [8]  FF FF FF FF E6 5F FF FF
 (002.122363)  can0  18FEF231   [8]  FF FF FF FF FF FF FF FF
 (002.122922)  can0  0CF00331   [8]  FF FF FF FF FF FF FF FF
 (002.125175)  can0  18FEC100   [8]  74 A8 3B 05 5C 00 00 00
 (002.125660)  can0  0CF00300   [8]  D0 6F 29 FF FF 4F 83 7F
 (002.128745)  can0  0C000003   [8]  EB FF FA D7 FF F5 FF FF
 (002.129424)  can0  0CF00203   [8]  D1 38 11 FF F7 36 1F 03
 (002.129984)  can0  18F00100   [8]  FF FF FF FF FF FF FF FF
 (002.131852)  can0  0CF00400   [8]  61 9D 9C D8 2C 03 0F 9D
 (002.138816)  can0  0C000003   [8]  EB FF FA D7 FF F5 FF FF
 (002.139410)  can0  0CF00203   [8]  D1 38 11 FF F7 36 1F 03
 (002.140001)  can0  18FEDF00   [8]  86 A0 28 7D 7D FF FF F5
 (002.140556)  can0  0CF00C03   [8]  BF 04 F1 2C FF FF FF FF
 (002.145246)  can0  0CF00300   [8]  D0 6F 29 FF FF 4F 84 7E
 (002.145619)  can0  0CF00A00   [8]  00 00 A9 1A FF FF FF FF
 (002.146371)  can0  18FEF000   [8]  FF FF FF C0 2B FF FF FF
 (002.146773)  can0  18F00E00   [8]  AE 20 FF FF D5 9F FF FF
 (002.148788)  can0  0C000003   [8]  EB FF FA D7 FF F5 FF FF
 (002.149404)  can0  0CF00203   [8]  D1 52 11 FF F7 52 1F 03
 (002.149990)  can0  18FE5600   [8]  96 42 FF FF 1F 1F 00 FF
 (002.150497)  can0  18F03300   [8]  FF FF FF FF FF FF FF FF
 (002.152271)  can0  0CF00400   [8]  61 9D 9C 07 2D 03 0F 9D
 (002.154734)  can0  0C010305   [8]  FF FF FF FF FF F3 FF FF
 (002.154896)  can0  18FCF200   [8]  E1 FF FF FF FF FF FF FF
 (002.158775)  can0  0C000003   [8]  EB FF FA D7 FF F5 FF FF
 (002.159322)  can0  18F0010B   [8]  CF FF F0 FF FF CD FF FF
 (002.159866)  can0  0CF00203   [8]  D1 52 11 FF F7 52 1F 03
 (002.160413)  can0  18FEDF00   [8]  86 A0 28 7D 7D FF FF F5
 (002.160988)  can0  0CF00C03   [8]  BF 04 03 2D FF FF FF FF
 (002.161573)  can0  18F00F00   [8]  50 1A FF FF D5 9F FF FF
 (002.165473)  can0  0CF00300   [8]  D0 70 29 FF FF 4F 83 7F
 (002.165671)  can0  18FEF100   [8]  FF 8C 13 FC FF 68 00 CF
 (002.167225)  can0  0CF00331   [8]  FF FF FF FF FF FF FF FF
 (002.168756)  can0  0C000003   [8]  EB FF FA D7 FF F5 FF FF
 (002.169305)  can0  18FEBF0B   [8]  D0 13 7E 7C 7C 7C FF FF
 (002.169856)  can0  0CF00203   [8]  D1 56 11 FF F7 5A 1F 03
 (002.170429)  can0  18FD7B00   [8]  00 FF 7C BB 00 00 CC 56
 (002.171848)  can0  0CF00400   [8]  61 9D 9C 1F 2D 03 0F 9D
 (002.175175)  can0  10FDA300   [8]  FF FF 60 FF FF FF FF FF
 (002.175224)  can0  18F00029   [8]  F0 7D 7D F3 29 FF FF 37
 (002.179291)  can0  0C000003   [8]  EB FF FA D7 FF F5 FF FF
 (002.179335)  can0  0CF00203   [8]  D1 56 11 FF F7 5A 1F 03
 (002.180103)  can0  18FEDF00   [8]  86 A0 28 7D 7D FF FF F5
 (002.180499)  can0  0CF00C03   [8]  C3 04 40 2D FF FF FF FF
