name,type,start_time,duration,"identifier","extended","num_data_bytes","data","crc","ack"
"CAN","identifier_field",0.0023025,0.000144,0x0000000018FEE400,true,,,,
"CAN","control_field",0.0024505,1.2e-05,,,0x0000000000000008,,,
"CAN","data_field",0.0024665,3.2e-05,,,,0xFF,,
"CAN","data_field",0.0025025,3.2e-05,,,,0x3F,,
"CAN","data_field",0.0025385,3.2e-05,,,,0xFC,,
"CAN","data_field",0.0025745,3.2e-05,,,,0xFC,,
"CAN","data_field",0.0026105,3.2e-05,,,,0x00,,
"CAN","data_field",0.0026505,3.2e-05,,,,0x7F,,
"CAN","data_field",0.0026865,3.2e-05,,,,0xFF,,
"CAN","data_field",0.0027265,3.2e-05,,,,0xFF,,
"CAN","crc_field",0.0027625,6.4e-05,,,,,0x000000000000702E,
"CAN","ack_field",0.0028345,4e-06,,,,,,true
"CAN","identifier_field",0.007671625,0.000148,0x0000000018FEDF00,true,,,,
"CAN","control_field",0.007823625,1.2e-05,,,0x0000000000000008,,,
"CAN","data_field",0.007839625,2.8e-05,,,,0x85,,
"CAN","data_field",0.007871625,2.8e-05,,,,0xA0,,
"CAN","data_field",0.007907625,2.8e-05,,,,0x28,,
"CAN","data_field",0.007939625,3.2e-05,,,,0x7D,,
"CAN","data_field",0.007975625,3.2e-05,,,,0x7D,,
"CAN","data_field",0.008011625,3.2e-05,,,,0xFF,,
"CAN","data_field",0.008047625,3.6e-05,,,,0xFF,,
"CAN","data_field",0.008087625,3.2e-05,,,,0xF0,,
"CAN","crc_field",0.008123625,6e-05,,,,,0x0000000000001C6B,
"CAN","ack_field",0.008191625,4e-06,,,,,,true
"CAN","identifier_field",0.0082479375,0.000148,0x0000000010FCFD00,true,,,,
"CAN","control_field",0.0083999375,1.2e-05,,,0x0000000000000008,,,
"CAN","data_field",0.0084159375,3.2e-05,,,,0xFF,,
"CAN","data_field",0.0084519375,3.6e-05,,,,0xFF,,
"CAN","data_field",0.0084919375,3.2e-05,,,,0xFF,,
"CAN","data_field",0.0085279375,3.6e-05,,,,0xFF,,
"CAN","data_field",0.0085679375,3.2e-05,,,,0x00,,
"CAN","data_field",0.0086039375,3.2e-05,,,,0x32,,
"CAN","data_field",0.0086399375,3.2e-05,,,,0xFF,,
"CAN","data_field",0.0086759375,3.6e-05,,,,0xFF,,
"CAN","crc_field",0.0087159375,6e-05,,,,,0x00000000000060CA,
"CAN","ack_field",0.0087839375,4e-06,,,,,,true
"CAN","identifier_field",0.0088361875,0.00014,0x000000000CF00203,true,,,,
"CAN","control_field",0.0089801875,1.2e-05,,,0x0000000000000008,,,
"CAN","data_field",0.0089961875,3.2e-05,,,,0xC0,,
"CAN","data_field",0.0090321875,3.2e-05,,,,0x00,,
"CAN","data_field",0.0090681875,3.6e-05,,,,0x00,,
"CAN","data_field",0.0091081875,3.2e-05,,,,0xFF,,
"CAN","data_field",0.0091441875,3.2e-05,,,,0xF7,,
"CAN","data_field",0.0091801875,3.2e-05,,,,0xF5,,
"CAN","data_field",0.0092161875,2.8e-05,,,,0x17,,
"CAN","data_field",0.0092481875,3.2e-05,,,,0x03,,
"CAN","crc_field",0.0092841875,5.6e-05,,,,,0x0000000000001E38,
"CAN","ack_field",0.0093481875,4e-06,,,,,,true
"CAN","identifier_field",0.009400375,0.000144,0x000000000CFD9200,true,,,,
"CAN","control_field",0.009548375,1.2e-05,,,0x0000000000000008,,,
"CAN","data_field",0.009564375,2.8e-05,,,,0xF4,,
"CAN","data_field",0.009596375,3.2e-05,,,,0xFF,,
"CAN","data_field",0.009632375,3.2e-05,,,,0xFA,,
"CAN","data_field",0.009668375,3.2e-05,,,,0xFF,,
"CAN","data_field",0.009704375,3.6e-05,,,,0xFF,,
"CAN","data_field",0.009744375,3.2e-05,,,,0xFF,,
"CAN","data_field",0.009780375,3.6e-05,,,,0xFF,,
"CAN","data_field",0.009820375,3.2e-05,,,,0xFF,,
"CAN","crc_field",0.009860375,6.4e-05,,,,,0x0000000000007C13,
"CAN","ack_field",0.009932375,4e-06,,,,,,true
"CAN","identifier_field",0.0099846875,0.00014,0x000000000CF00C03,true,,,,
"CAN","control_field",0.0101286875,1.2e-05,,,0x0000000000000008,,,
"CAN","data_field",0.0101446875,2.8e-05,,,,0xF0,,
"CAN","data_field",0.0101766875,3.6e-05,,,,0x03,,
"CAN","data_field",0.0102166875,3.2e-05,,,,0xDE,,
"CAN","data_field",0.0102526875,2.8e-05,,,,0x18,,
"CAN","data_field",0.0102846875,3.2e-05,,,,0xFF,,
"CAN","data_field",0.0103206875,3.6e-05,,,,0xFF,,
"CAN","data_field",0.0103606875,3.2e-05,,,,0xFF,,
"CAN","data_field",0.0103966875,3.6e-05,,,,0xFF,,
"CAN","crc_field",0.0104366875,5.6e-05,,,,,0x00000000000012B9,
"CAN","ack_field",0.0105006875,4e-06,,,,,,true
"CAN","identifier_field",0.012325375,0.000144,0x000000000CF00300,true,,,,
"CAN","control_field",0.012473375,1.2e-05,,,0x0000000000000008,,,
"CAN","data_field",0.012489375,2.8e-05,,,,0xD1,,
"CAN","data_field",0.012521375,3.2e-05,,,,0x00,,
"CAN","data_field",0.012557375,3.2e-05,,,,0x19,,
"CAN","data_field",0.012593375,3.2e-05,,,,0xFF,,
"CAN","data_field",0.012629375,3.6e-05,,,,0xFF,,
"CAN","data_field",0.012669375,2.8e-05,,,,0x0F,,
"CAN","data_field",0.012701375,3.2e-05,,,,0x8E,,
"CAN","data_field",0.012737375,3.2e-05,,,,0x7E,,
"CAN","crc_field",0.012773375,5.6e-05,,,,,0x0000000000000D4F,
"CAN","ack_field",0.012837375,4e-06,,,,,,true
"CAN","identifier_field",0.017262375,0.000144,0x0000000018F00100,true,,,,
"CAN","control_field",0.017410375,1.2e-05,,,0x0000000000000008,,,
"CAN","data_field",0.017426375,3.2e-05,,,,0xFF,,
"CAN","data_field",0.017462375,3.6e-05,,,,0xFF,,
"CAN","data_field",0.017502375,3.2e-05,,,,0xFF,,
"CAN","data_field",0.017538375,3.6e-05,,,,0xFF,,
"CAN","data_field",0.017578375,3.2e-05,,,,0xFF,,
"CAN","data_field",0.017618375,3.2e-05,,,,0xFF,,
"CAN","data_field",0.017654375,3.6e-05,,,,0xFF,,
"CAN","data_field",0.017694375,3.2e-05,,,,0xFF,,
"CAN","crc_field",0.017730375,5.6e-05,,,,,0x0000000000003473,
"CAN","ack_field",0.017794375,4e-06,,,,,,true
"CAN","identifier_field",0.01875075,0.00014,0x000000000CF00203,true,,,,
"CAN","control_field",0.01889475,1.2e-05,,,0x0000000000000008,,,
"CAN","data_field",0.01891075,3.2e-05,,,,0xC0,,
"CAN","data_field",0.01894675,3.2e-05,,,,0x00,,
"CAN","data_field",0.01898275,3.6e-05,,,,0x00,,
"CAN","data_field",0.01902275,3.2e-05,,,,0xFF,,
"CAN","data_field",0.01905875,3.2e-05,,,,0xF7,,
"CAN","data_field",0.01909475,3.2e-05,,,,0xEC,,
"CAN","data_field",0.01913075,3.2e-05,,,,0x17,,
"CAN","data_field",0.01916675,3.2e-05,,,,0x03,,
"CAN","crc_field",0.01920275,5.6e-05,,,,,0x0000000000005E52,
"CAN","ack_field",0.01926675,4e-06,,,,,,true
"CAN","identifier_field",0.019318875,0.000144,0x000000000CF00400,true,,,,
"CAN","control_field",0.019466875,1.2e-05,,,0x0000000000000008,,,
"CAN","data_field",0.019482875,3.2e-05,,,,0x40,,
"CAN","data_field",0.019518875,3.2e-05,,,,0x7D,,
"CAN","data_field",0.019554875,2.8e-05,,,,0x8B,,
"CAN","data_field",0.019586875,3.2e-05,,,,0xFB,,
"CAN","data_field",0.019622875,2.8e-05,,,,0x18,,
"CAN","data_field",0.019654875,3.6e-05,,,,0x00,,
"CAN","data_field",0.019694875,3.2e-05,,,,0x0F,,
"CAN","data_field",0.019734875,2.8e-05,,,,0x8B,,
"CAN","crc_field",0.019766875,5.6e-05,,,,,0x00000000000012CF,
"CAN","ack_field",0.019830875,4e-06,,,,,,true
"CAN","identifier_field",0.0198831875,0.000136,0x0000000018F00131,true,,,,
"CAN","control_field",0.0200231875,1.2e-05,,,0x0000000000000008,,,
"CAN","data_field",0.0200391875,3.2e-05,,,,0xFF,,
"CAN","data_field",0.0200751875,3.6e-05,,,,0xFF,,
"CAN","data_field",0.0201151875,3.2e-05,,,,0xFF,,
"CAN","data_field",0.0201511875,3.2e-05,,,,0x3F,,
"CAN","data_field",0.0201871875,3.2e-05,,,,0xFA,,
"CAN","data_field",0.0202231875,3.2e-05,,,,0xFF,,
"CAN","data_field",0.0202591875,3.6e-05,,,,0xFF,,
"CAN","data_field",0.0202991875,3.2e-05,,,,0xFF,,
"CAN","crc_field",0.0203351875,5.6e-05,,,,,0x0000000000000B0F,
"CAN","ack_field",0.0203991875,4e-06,,,,,,true
"CAN","identifier_field",0.02045925,0.000136,0x0000000018FEF131,true,,,,
"CAN","control_field",0.02059925,1.2e-05,,,0x0000000000000008,,,
"CAN","data_field",0.02061525,2.8e-05,,,,0xF7,,
"CAN","data_field",0.02064725,3.6e-05,,,,0xFF,,
"CAN","data_field",0.02068725,3.2e-05,,,,0xFF,,
"CAN","data_field",0.02072325,3.2e-05,,,,0xC3,,
"CAN","data_field",0.02075925,2.8e-05,,,,0xCC,,
"CAN","data_field",0.02079125,3.2e-05,,,,0xFF,,
"CAN","data_field",0.02082725,3.6e-05,,,,0xFF,,
"CAN","data_field",0.02086725,3.2e-05,,,,0xF0,,
"CAN","crc_field",0.02090725,6e-05,,,,,0x000000000000031F,
"CAN","ack_field",0.02097925,4e-06,,,,,,true
"CAN","identifier_field",0.02104325,0.00014,0x0000000018FEF031,true,,,,
"CAN","control_field",0.02118725,1.2e-05,,,0x0000000000000008,,,
"CAN","data_field",0.02120325,3.2e-05,,,,0xFF,,
"CAN","data_field",0.02123925,3.6e-05,,,,0xFF,,
"CAN","data_field",0.02127925,3.2e-05,,,,0xFF,,
"CAN","data_field",0.02131525,3.6e-05,,,,0xFF,,
"CAN","data_field",0.02135525,3.2e-05,,,,0xFF,,
"CAN","data_field",0.02139525,3.2e-05,,,,0xFC,,
"CAN","data_field",0.02143125,2.8e-05,,,,0xCC,,
"CAN","data_field",0.02146325,3.2e-05,,,,0xFF,,
"CAN","crc_field",0.02149925,6e-05,,,,,0x000000000000638F,
"CAN","ack_field",0.02156725,4e-06,,,,,,true
"CAN","identifier_field",0.0216355625,0.000144,0x0000000018FF4831,true,,,,
"CAN","control_field",0.0217835625,1.2e-05,,,0x0000000000000008,,,
"CAN","data_field",0.0217995625,3.6e-05,,,,0x00,,
"CAN","data_field",0.0218395625,3.2e-05,,,,0x00,,
"CAN","data_field",0.0218755625,3.2e-05,,,,0xFF,,
"CAN","data_field",0.0219115625,3.6e-05,,,,0xFF,,
"CAN","data_field",0.0219515625,3.2e-05,,,,0x00,,
"CAN","data_field",0.0219875625,3.6e-05,,,,0x00,,
"CAN","data_field",0.0220275625,3.2e-05,,,,0x00,,
"CAN","data_field",0.0220635625,3.6e-05,,,,0x00,,
"CAN","crc_field",0.0221035625,6e-05,,,,,0x0000000000001F94,
"CAN","ack_field",0.0221715625,4e-06,,,,,,true
"CAN","identifier_field",0.0222438125,0.000136,0x0000000018FEF231,true,,,,
"CAN","control_field",0.0223838125,1.2e-05,,,0x0000000000000008,,,
"CAN","data_field",0.0223998125,3.2e-05,,,,0xFF,,
"CAN","data_field",0.0224358125,3.6e-05,,,,0xFF,,
"CAN","data_field",0.0224758125,3.2e-05,,,,0xFF,,
"CAN","data_field",0.0225118125,3.6e-05,,,,0xFF,,
"CAN","data_field",0.0225518125,3.2e-05,,,,0xFF,,
"CAN","data_field",0.0225918125,3.2e-05,,,,0xFF,,
"CAN","data_field",0.0226278125,3.6e-05,,,,0xFF,,
"CAN","data_field",0.0226678125,3.2e-05,,,,0xFF,,
"CAN","crc_field",0.0227038125,5.6e-05,,,,,0x0000000000002496,
"CAN","ack_field",0.0227678125,4e-06,,,,,,true
"CAN","identifier_field",0.0228400625,0.000136,0x000000000CF00331,true,,,,
"CAN","control_field",0.0229800625,1.2e-05,,,0x0000000000000008,,,
"CAN","data_field",0.0229960625,3.2e-05,,,,0xFF,,
"CAN","data_field",0.0230320625,3.6e-05,,,,0xFF,,
"CAN","data_field",0.0230720625,3.2e-05,,,,0xFF,,
"CAN","data_field",0.0231080625,3.6e-05,,,,0xFF,,
"CAN","data_field",0.0231480625,3.2e-05,,,,0xFF,,
"CAN","data_field",0.0231880625,3.2e-05,,,,0xFF,,
"CAN","data_field",0.0232240625,3.6e-05,,,,0xFF,,
"CAN","data_field",0.0232640625,3.2e-05,,,,0xFF,,
"CAN","crc_field",0.0233000625,5.6e-05,,,,,0x00000000000022DE,
"CAN","ack_field",0.0233640625,4e-06,,,,,,true
"CAN","identifier_field",0.0277770625,0.000148,0x0000000018FEDF00,true,,,,
"CAN","control_field",0.0279290625,1.2e-05,,,0x0000000000000008,,,
"CAN","data_field",0.0279450625,2.8e-05,,,,0x85,,
"CAN","data_field",0.0279770625,2.8e-05,,,,0xA0,,
"CAN","data_field",0.0280130625,2.8e-05,,,,0x28,,
"CAN","data_field",0.0280450625,3.2e-05,,,,0x7D,,
"CAN","data_field",0.0280810625,3.2e-05,,,,0x7D,,
"CAN","data_field",0.0281170625,3.2e-05,,,,0xFF,,
"CAN","data_field",0.0281530625,3.6e-05,,,,0xFF,,
"CAN","data_field",0.0281930625,3.2e-05,,,,0xF0,,
"CAN","crc_field",0.0282290625,6e-05,,,,,0x0000000000001C6B,
"CAN","ack_field",0.0282970625,4e-06,,,,,,true
"CAN","identifier_field",0.028805375,0.00014,0x000000000CF00203,true,,,,
"CAN","control_field",0.028949375,1.2e-05,,,0x0000000000000008,,,
"CAN","data_field",0.028965375,3.2e-05,,,,0xC0,,
"CAN","data_field",0.029001375,3.2e-05,,,,0x00,,
"CAN","data_field",0.029037375,3.6e-05,,,,0x00,,
"CAN","data_field",0.029077375,3.2e-05,,,,0xFF,,
"CAN","data_field",0.029113375,3.2e-05,,,,0xF7,,
"CAN","data_field",0.029149375,3.2e-05,,,,0xEC,,
"CAN","data_field",0.029185375,3.2e-05,,,,0x17,,
"CAN","data_field",0.029221375,3.2e-05,,,,0x03,,
"CAN","crc_field",0.029257375,5.6e-05,,,,,0x0000000000005E52,
"CAN","ack_field",0.029321375,4e-06,,,,,,true
"CAN","identifier_field",0.029413625,0.00014,0x000000000CF00C03,true,,,,
"CAN","control_field",0.029557625,1.2e-05,,,0x0000000000000008,,,
"CAN","data_field",0.029573625,2.8e-05,,,,0xF4,,
"CAN","data_field",0.029605625,3.2e-05,,,,0x03,,
"CAN","data_field",0.029641625,2.8e-05,,,,0xD4,,
"CAN","data_field",0.029673625,3.2e-05,,,,0x18,,
"CAN","data_field",0.029709625,3.2e-05,,,,0xFF,,
"CAN","data_field",0.029745625,3.6e-05,,,,0xFF,,
"CAN","data_field",0.029785625,3.2e-05,,,,0xFF,,
"CAN","data_field",0.029821625,3.6e-05,,,,0xFF,,
"CAN","crc_field",0.029861625,5.6e-05,,,,,0x0000000000000873,
"CAN","ack_field",0.029925625,4e-06,,,,,,true
"CAN","identifier_field",0.0316819375,0.000136,0x0000000018F0010B,true,,,,
"CAN","control_field",0.0318219375,1.2e-05,,,0x0000000000000008,,,
"CAN","data_field",0.0318379375,2.8e-05,,,,0xCF,,
"CAN","data_field",0.0318699375,3.6e-05,,,,0xFF,,
"CAN","data_field",0.0319099375,3.2e-05,,,,0xF0,,
"CAN","data_field",0.0319459375,3.2e-05,,,,0xFF,,
"CAN","data_field",0.0319819375,3.6e-05,,,,0xFF,,
"CAN","data_field",0.0320219375,2.8e-05,,,,0xCD,,
"CAN","data_field",0.0320539375,3.2e-05,,,,0xFF,,
"CAN","data_field",0.0320899375,3.6e-05,,,,0xFF,,
"CAN","crc_field",0.0321299375,5.6e-05,,,,,0x000000000000459B,
"CAN","ack_field",0.0321939375,4e-06,,,,,,true
"CAN","identifier_field",0.03235825,0.000144,0x000000000CF00300,true,,,,
"CAN","control_field",0.03250625,1.2e-05,,,0x0000000000000008,,,
"CAN","data_field",0.03252225,2.8e-05,,,,0xD1,,
"CAN","data_field",0.03255425,3.2e-05,,,,0x00,,
"CAN","data_field",0.03259025,3.2e-05,,,,0x19,,
"CAN","data_field",0.03262625,3.2e-05,,,,0xFF,,
"CAN","data_field",0.03266225,3.6e-05,,,,0xFF,,
"CAN","data_field",0.03270225,2.8e-05,,,,0x0F,,
"CAN","data_field",0.03273425,3.2e-05,,,,0x8E,,
"CAN","data_field",0.03277025,3.2e-05,,,,0x7E,,
"CAN","crc_field",0.03280625,5.6e-05,,,,,0x0000000000000D4F,
"CAN","ack_field",0.03287025,4e-06,,,,,,true
"CAN","identifier_field",0.032926625,0.000144,0x000000000CF00A00,true,,,,
"CAN","control_field",0.033074625,1.2e-05,,,0x0000000000000008,,,
"CAN","data_field",0.033090625,2.8e-05,,,,0xB9,,
"CAN","data_field",0.033122625,3.2e-05,,,,0x04,,
"CAN","data_field",0.033158625,2.8e-05,,,,0x91,,
"CAN","data_field",0.033190625,3.2e-05,,,,0x05,,
"CAN","data_field",0.033226625,3.2e-05,,,,0xFF,,
"CAN","data_field",0.033262625,3.6e-05,,,,0xFF,,
"CAN","data_field",0.033302625,3.2e-05,,,,0xFF,,
"CAN","data_field",0.033342625,3.2e-05,,,,0xFF,,
"CAN","crc_field",0.033378625,5.6e-05,,,,,0x00000000000054F7,
"CAN","ack_field",0.033442625,4e-06,,,,,,true
"CAN","identifier_field",0.0334989375,0.000144,0x0000000018FEF000,true,,,,
"CAN","control_field",0.0336509375,1.2e-05,,,0x0000000000000008,,,
"CAN","data_field",0.0336669375,3.2e-05,,,,0xFF,,
"CAN","data_field",0.0337029375,3.6e-05,,,,0xFF,,
"CAN","data_field",0.0337429375,3.2e-05,,,,0xFF,,
"CAN","data_field",0.0337789375,3.2e-05,,,,0xF1,,
"CAN","data_field",0.0338149375,2.8e-05,,,,0x18,,
"CAN","data_field",0.0338469375,3.2e-05,,,,0xFF,,
"CAN","data_field",0.0338829375,3.6e-05,,,,0xFF,,
"CAN","data_field",0.0339229375,3.2e-05,,,,0xFF,,
"CAN","crc_field",0.0339589375,6.4e-05,,,,,0x0000000000007E6D,
"CAN","ack_field",0.0340309375,4e-06,,,,,,true
"CAN","identifier_field",0.0340833125,0.000144,0x0000000018FEBD00,true,,,,
"CAN","control_field",0.0342313125,1.2e-05,,,0x0000000000000008,,,
"CAN","data_field",0.0342473125,3.6e-05,,,,0x00,,
"CAN","data_field",0.0342873125,2.8e-05,,,,0xF0,,
"CAN","data_field",0.0343193125,3.2e-05,,,,0xFF,,
"CAN","data_field",0.0343553125,3.6e-05,,,,0xFF,,
"CAN","data_field",0.0343953125,3.2e-05,,,,0xFF,,
"CAN","data_field",0.0344313125,3.6e-05,,,,0xFF,,
"CAN","data_field",0.0344713125,3.2e-05,,,,0xFF,,
"CAN","data_field",0.0345113125,3.2e-05,,,,0xFF,,
"CAN","crc_field",0.0345473125,5.6e-05,,,,,0x0000000000000C6F,
"CAN","ack_field",0.0346113125,4e-06,,,,,,true
"CAN","identifier_field",0.034667625,0.000144,0x0000000018F00E00,true,,,,
"CAN","control_field",0.034815625,1.2e-05,,,0x0000000000000008,,,
"CAN","data_field",0.034831625,3.2e-05,,,,0xFF,,
"CAN","data_field",0.034867625,3.6e-05,,,,0xFF,,
"CAN","data_field",0.034907625,3.2e-05,,,,0xFF,,
"CAN","data_field",0.034943625,3.6e-05,,,,0xFF,,
"CAN","data_field",0.034983625,3.2e-05,,,,0xFF,,
"CAN","data_field",0.035023625,3.2e-05,,,,0xFF,,
"CAN","data_field",0.035059625,3.6e-05,,,,0xFF,,
"CAN","data_field",0.035099625,3.2e-05,,,,0xFF,,
"CAN","crc_field",0.035135625,6.4e-05,,,,,0x0000000000005A00,
"CAN","ack_field",0.035207625,4e-06,,,,,,true
"CAN","identifier_field",0.0372683125,0.00014,0x0000000018F03300,true,,,,
"CAN","control_field",0.0374123125,1.2e-05,,,0x0000000000000008,,,
"CAN","data_field",0.0374283125,3.2e-05,,,,0xFF,,
"CAN","data_field",0.0374643125,3.6e-05,,,,0xFF,,
"CAN","data_field",0.0375043125,3.2e-05,,,,0xFF,,
"CAN","data_field",0.0375403125,3.6e-05,,,,0xFF,,
"CAN","data_field",0.0375803125,3.2e-05,,,,0xFF,,
"CAN","data_field",0.0376203125,3.2e-05,,,,0xFF,,
"CAN","data_field",0.0376563125,3.6e-05,,,,0xFF,,
"CAN","data_field",0.0376963125,3.2e-05,,,,0xFF,,
"CAN","crc_field",0.0377323125,6.4e-05,,,,,0x000000000000480D,
"CAN","ack_field",0.0378043125,4e-06,,,,,,true
"CAN","identifier_field",0.03874875,0.00014,0x000000000CF00203,true,,,,
"CAN","control_field",0.03889275,1.2e-05,,,0x0000000000000008,,,
"CAN","data_field",0.03890875,3.2e-05,,,,0xC0,,
"CAN","data_field",0.03894475,3.2e-05,,,,0x00,,
"CAN","data_field",0.03898075,3.6e-05,,,,0x00,,
"CAN","data_field",0.03902075,3.2e-05,,,,0xFF,,
"CAN","data_field",0.03905675,3.2e-05,,,,0xF7,,
"CAN","data_field",0.03909275,3.2e-05,,,,0xE3,,
"CAN","data_field",0.03912875,2.8e-05,,,,0x17,,
"CAN","data_field",0.03916075,3.2e-05,,,,0x03,,
"CAN","crc_field",0.03919675,5.6e-05,,,,,0x00000000000013C8,
"CAN","ack_field",0.03926075,4e-06,,,,,,true
"CAN","identifier_field",0.039312875,0.000144,0x000000000C010305,true,,,,
"CAN","control_field",0.039460875,1.2e-05,,,0x0000000000000008,,,
"CAN","data_field",0.039476875,3.2e-05,,,,0xFF,,
"CAN","data_field",0.039512875,3.6e-05,,,,0xFF,,
"CAN","data_field",0.039552875,3.2e-05,,,,0xFF,,
"CAN","data_field",0.039588875,3.6e-05,,,,0xFF,,
"CAN","data_field",0.039628875,3.2e-05,,,,0xFF,,
"CAN","data_field",0.039668875,2.8e-05,,,,0xF3,,
"CAN","data_field",0.039700875,3.2e-05,,,,0xFF,,
"CAN","data_field",0.039740875,3.2e-05,,,,0xFF,,
"CAN","crc_field",0.039776875,6.4e-05,,,,,0x000000000000007D,
"CAN","ack_field",0.039848875,4e-06,,,,,,true
"CAN","identifier_field",0.0399011875,0.000144,0x000000000CF00400,true,,,,
"CAN","control_field",0.0400491875,1.2e-05,,,0x0000000000000008,,,
"CAN","data_field",0.0400651875,3.2e-05,,,,0x20,,
"CAN","data_field",0.0401051875,3.2e-05,,,,0x7D,,
"CAN","data_field",0.0401411875,2.8e-05,,,,0x8B,,
"CAN","data_field",0.0401731875,2.8e-05,,,,0x0F,,
"CAN","data_field",0.0402051875,2.8e-05,,,,0x19,,
"CAN","data_field",0.0402371875,3.2e-05,,,,0x00,,
"CAN","data_field",0.0402731875,3.2e-05,,,,0x0F,,
"CAN","data_field",0.0403091875,3.2e-05,,,,0x8B,,
"CAN","crc_field",0.0403451875,5.6e-05,,,,,0x0000000000001DA3,
"CAN","ack_field",0.0404091875,4e-06,,,,,,true
"CAN","identifier_field",0.0416975,0.00014,0x0000000018FEBF0B,true,,,,
"CAN","control_field",0.0418415,1.2e-05,,,0x0000000000000008,,,
"CAN","data_field",0.0418575,3.6e-05,,,,0x00,,
"CAN","data_field",0.0418975,3.2e-05,,,,0x00,,
"CAN","data_field",0.0419335,3.6e-05,,,,0x7D,,
"CAN","data_field",0.0419735,3.2e-05,,,,0x7D,,
"CAN","data_field",0.0420095,3.2e-05,,,,0x7D,,
"CAN","data_field",0.0420455,3.2e-05,,,,0x7D,,
"CAN","data_field",0.0420815,3.2e-05,,,,0xFF,,
"CAN","data_field",0.0421175,3.6e-05,,,,0xFF,,
"CAN","crc_field",0.0421575,6e-05,,,,,0x0000000000007D87,
"CAN","ack_field",0.0422255,4e-06,,,,,,true
"CAN","identifier_field",0.042293625,0.000144,0x0000000018FCF200,true,,,,
"CAN","control_field",0.042441625,1.2e-05,,,0x0000000000000008,,,
"CAN","data_field",0.042457625,2.8e-05,,,,0xE1,,
"CAN","data_field",0.042489625,3.2e-05,,,,0xFF,,
"CAN","data_field",0.042525625,3.6e-05,,,,0xFF,,
"CAN","data_field",0.042565625,3.2e-05,,,,0xFF,,
"CAN","data_field",0.042605625,3.2e-05,,,,0xFF,,
"CAN","data_field",0.042641625,3.6e-05,,,,0xFF,,
"CAN","data_field",0.042681625,3.2e-05,,,,0xFF,,
"CAN","data_field",0.042717625,3.6e-05,,,,0xFF,,
"CAN","crc_field",0.042757625,5.6e-05,,,,,0x0000000000002DA6,
"CAN","ack_field",0.042821625,4e-06,,,,,,true
